# GHZ S RI R 50
1	56	0	1	0	1	0	56	0
1.01	55.5451504950495	0	1	0	1	0	55.5451504950495	0
1.02	55.1004078431372	0	1	0	1	0	55.1004078431372	0
1.03	54.6654893203883	0	1	0	1	0	54.6654893203883	0
1.04	54.2401230769231	0	1	0	1	0	54.2401230769231	0
1.05	53.8240476190476	0	1	0	1	0	53.8240476190476	0
1.06	53.4170113207547	0	1	0	1	0	53.4170113207547	0
1.07	53.0187719626168	0	1	0	1	0	53.0187719626168	0
1.08	52.6290962962963	0	1	0	1	0	52.6290962962963	0
1.09	52.2477596330275	0	1	0	1	0	52.2477596330275	0
1.1	51.8745454545455	0	1	0	1	0	51.8745454545455	0
1.11	51.509245045045	0	1	0	1	0	51.509245045045	0
1.12	51.1516571428571	0	1	0	1	0	51.1516571428571	0
1.13	50.8015876106195	0	1	0	1	0	50.8015876106195	0
1.14	50.458849122807	0	1	0	1	0	50.458849122807	0
1.15	50.1232608695652	0	1	0	1	0	50.1232608695652	0
1.16	49.7946482758621	0	1	0	1	0	49.7946482758621	0
1.17	49.4728427350427	0	1	0	1	0	49.4728427350427	0
1.18	49.1576813559322	0	1	0	1	0	49.1576813559322	0
1.19	48.8490067226891	0	1	0	1	0	48.8490067226891	0
1.2	48.5466666666667	0	1	0	1	0	48.5466666666667	0
1.21	48.2505140495868	0	1	0	1	0	48.2505140495868	0
1.22	47.960406557377	0	1	0	1	0	47.960406557377	0
1.23	47.676206504065	0	1	0	1	0	47.676206504065	0
1.24	47.3977806451613	0	1	0	1	0	47.3977806451613	0
1.25	47.125	0	1	0	1	0	47.125	0
1.26	46.8577396825397	0	1	0	1	0	46.8577396825397	0
1.27	46.5958787401575	0	1	0	1	0	46.5958787401575	0
1.28	46.3393	0	1	0	1	0	46.3393	0
1.29	46.0878899224806	0	1	0	1	0	46.0878899224806	0
1.3	45.8415384615385	0	1	0	1	0	45.8415384615385	0
1.31	45.6001389312977	0	1	0	1	0	45.6001389312977	0
1.32	45.3635878787879	0	1	0	1	0	45.3635878787879	0
1.33	45.131784962406	0	1	0	1	0	45.131784962406	0
1.34	44.9046328358209	0	1	0	1	0	44.9046328358209	0
1.35	44.682037037037	0	1	0	1	0	44.682037037037	0
1.36	44.4639058823529	0	1	0	1	0	44.4639058823529	0
1.37	44.2501503649635	0	1	0	1	0	44.2501503649635	0
1.38	44.040684057971	0	1	0	1	0	44.040684057971	0
1.39	43.8354230215827	0	1	0	1	0	43.8354230215827	0
1.4	43.6342857142857	0	1	0	1	0	43.6342857142857	0
1.41	43.4371929078014	0	1	0	1	0	43.4371929078014	0
1.42	43.2440676056338	0	1	0	1	0	43.2440676056338	0
1.43	43.054834965035	0	1	0	1	0	43.054834965035	0
1.44	42.8694222222222	0	1	0	1	0	42.8694222222222	0
1.45	42.6877586206897	0	1	0	1	0	42.6877586206897	0
1.46	42.5097753424658	0	1	0	1	0	42.5097753424658	0
1.47	42.3354054421769	0	1	0	1	0	42.3354054421769	0
1.48	42.1645837837838	0	1	0	1	0	42.1645837837838	0
1.49	41.9972469798658	0	1	0	1	0	41.9972469798658	0
1.5	41.8333333333333	0	1	0	1	0	41.8333333333333	0
1.51	41.672782781457	0	1	0	1	0	41.672782781457	0
1.52	41.5155368421053	0	1	0	1	0	41.5155368421053	0
1.53	41.3615385620915	0	1	0	1	0	41.3615385620915	0
1.54	41.2107324675325	0	1	0	1	0	41.2107324675325	0
1.55	41.063064516129	0	1	0	1	0	41.063064516129	0
1.56	40.9184820512821	0	1	0	1	0	40.9184820512821	0
1.57	40.7769337579618	0	1	0	1	0	40.7769337579618	0
1.58	40.6383696202532	0	1	0	1	0	40.6383696202532	0
1.59	40.5027408805031	0	1	0	1	0	40.5027408805031	0
1.6	40.37	0	1	0	1	0	40.37	0
1.61	40.240100621118	0	1	0	1	0	40.240100621118	0
1.62	40.1129975308642	0	1	0	1	0	40.1129975308642	0
1.63	39.9886466257669	0	1	0	1	0	39.9886466257669	0
1.64	39.8670048780488	0	1	0	1	0	39.8670048780488	0
1.65	39.7480303030303	0	1	0	1	0	39.7480303030303	0
1.66	39.6316819277108	0	1	0	1	0	39.6316819277108	0
1.67	39.517919760479	0	1	0	1	0	39.517919760479	0
1.68	39.4067047619048	0	1	0	1	0	39.4067047619048	0
1.69	39.297998816568	0	1	0	1	0	39.297998816568	0
1.7	39.1917647058823	0	1	0	1	0	39.1917647058823	0
1.71	39.0879660818713	0	1	0	1	0	39.0879660818713	0
1.72	38.9865674418605	0	1	0	1	0	38.9865674418605	0
1.73	38.8875341040462	0	1	0	1	0	38.8875341040462	0
1.74	38.790832183908	0	1	0	1	0	38.790832183908	0
1.75	38.6964285714286	0	1	0	1	0	38.6964285714286	0
1.76	38.6042909090909	0	1	0	1	0	38.6042909090909	0
1.77	38.5143875706215	0	1	0	1	0	38.5143875706215	0
1.78	38.4266876404494	0	1	0	1	0	38.4266876404494	0
1.79	38.3411608938547	0	1	0	1	0	38.3411608938547	0
1.8	38.2577777777778	0	1	0	1	0	38.2577777777778	0
1.81	38.1765093922652	0	1	0	1	0	38.1765093922652	0
1.82	38.0973274725275	0	1	0	1	0	38.0973274725275	0
1.83	38.0202043715847	0	1	0	1	0	38.0202043715847	0
1.84	37.9451130434783	0	1	0	1	0	37.9451130434783	0
1.85	37.872027027027	0	1	0	1	0	37.872027027027	0
1.86	37.8009204301075	0	1	0	1	0	37.8009204301075	0
1.87	37.7317679144385	0	1	0	1	0	37.7317679144385	0
1.88	37.6645446808511	0	1	0	1	0	37.6645446808511	0
1.89	37.5992264550265	0	1	0	1	0	37.5992264550265	0
1.9	37.5357894736842	0	1	0	1	0	37.5357894736842	0
1.91	37.4742104712042	0	1	0	1	0	37.4742104712042	0
1.92	37.4144666666667	0	1	0	1	0	37.4144666666667	0
1.93	37.3565357512953	0	1	0	1	0	37.3565357512953	0
1.94	37.3003958762887	0	1	0	1	0	37.3003958762887	0
1.95	37.2460256410256	0	1	0	1	0	37.2460256410256	0
1.96	37.1934040816327	0	1	0	1	0	37.1934040816327	0
1.97	37.1425106598985	0	1	0	1	0	37.1425106598985	0
1.98	37.0933252525253	0	1	0	1	0	37.0933252525253	0
1.99	37.0458281407035	0	1	0	1	0	37.0458281407035	0
2	37	0	1	0	1	0	37	0
2.01	36.9558218905473	0	1	0	1	0	36.9558218905473	0
2.02	36.9132752475248	0	1	0	1	0	36.9132752475248	0
2.03	36.8723418719212	0	1	0	1	0	36.8723418719212	0
2.04	36.8330039215686	0	1	0	1	0	36.8330039215686	0
2.05	36.795243902439	0	1	0	1	0	36.795243902439	0
2.06	36.7590446601942	0	1	0	1	0	36.7590446601942	0
2.07	36.7243893719807	0	1	0	1	0	36.7243893719807	0
2.08	36.6912615384615	0	1	0	1	0	36.6912615384615	0
2.09	36.6596449760766	0	1	0	1	0	36.6596449760766	0
2.1	36.6295238095238	0	1	0	1	0	36.6295238095238	0
2.11	36.600882464455	0	1	0	1	0	36.600882464455	0
2.12	36.5737056603774	0	1	0	1	0	36.5737056603774	0
2.13	36.5479784037559	0	1	0	1	0	36.5479784037559	0
2.14	36.5236859813084	0	1	0	1	0	36.5236859813084	0
2.15	36.5008139534884	0	1	0	1	0	36.5008139534884	0
2.16	36.4793481481481	0	1	0	1	0	36.4793481481481	0
2.17	36.4592746543779	0	1	0	1	0	36.4592746543779	0
2.18	36.4405798165138	0	1	0	1	0	36.4405798165138	0
2.19	36.4232502283105	0	1	0	1	0	36.4232502283105	0
2.2	36.4072727272727	0	1	0	1	0	36.4072727272727	0
2.21	36.3926343891403	0	1	0	1	0	36.3926343891403	0
2.22	36.3793225225225	0	1	0	1	0	36.3793225225225	0
2.23	36.3673246636771	0	1	0	1	0	36.3673246636771	0
2.24	36.3566285714286	0	1	0	1	0	36.3566285714286	0
2.25	36.3472222222222	0	1	0	1	0	36.3472222222222	0
2.26	36.3390938053097	0	1	0	1	0	36.3390938053097	0
2.27	36.3322317180617	0	1	0	1	0	36.3322317180617	0
2.28	36.3266245614035	0	1	0	1	0	36.3266245614035	0
2.29	36.3222611353712	0	1	0	1	0	36.3222611353712	0
2.3	36.3191304347826	0	1	0	1	0	36.3191304347826	0
2.31	36.3172216450216	0	1	0	1	0	36.3172216450216	0
2.32	36.316524137931	0	1	0	1	0	36.316524137931	0
2.33	36.3170274678112	0	1	0	1	0	36.3170274678112	0
2.34	36.3187213675214	0	1	0	1	0	36.3187213675214	0
2.35	36.3215957446808	0	1	0	1	0	36.3215957446808	0
2.36	36.3256406779661	0	1	0	1	0	36.3256406779661	0
2.37	36.3308464135021	0	1	0	1	0	36.3308464135021	0
2.38	36.3372033613445	0	1	0	1	0	36.3372033613445	0
2.39	36.3447020920502	0	1	0	1	0	36.3447020920502	0
2.4	36.3533333333333	0	1	0	1	0	36.3533333333333	0
2.41	36.363087966805	0	1	0	1	0	36.363087966805	0
2.42	36.3739570247934	0	1	0	1	0	36.3739570247934	0
2.43	36.3859316872428	0	1	0	1	0	36.3859316872428	0
2.44	36.3990032786885	0	1	0	1	0	36.3990032786885	0
2.45	36.4131632653061	0	1	0	1	0	36.4131632653061	0
2.46	36.4284032520325	0	1	0	1	0	36.4284032520325	0
2.47	36.4447149797571	0	1	0	1	0	36.4447149797571	0
2.48	36.4620903225806	0	1	0	1	0	36.4620903225806	0
2.49	36.4805212851406	0	1	0	1	0	36.4805212851406	0
2.5	36.5	0	1	0	1	0	36.5	0
2.51	36.5205187250996	0	1	0	1	0	36.5205187250996	0
2.52	36.5420698412698	0	1	0	1	0	36.5420698412698	0
2.53	36.5646458498024	0	1	0	1	0	36.5646458498024	0
2.54	36.5882393700787	0	1	0	1	0	36.5882393700787	0
2.55	36.6128431372549	0	1	0	1	0	36.6128431372549	0
2.56	36.63845	0	1	0	1	0	36.63845	0
2.57	36.6650529182879	0	1	0	1	0	36.6650529182879	0
2.58	36.6926449612403	0	1	0	1	0	36.6926449612403	0
2.59	36.7212193050193	0	1	0	1	0	36.7212193050193	0
2.6	36.7507692307692	0	1	0	1	0	36.7507692307692	0
2.61	36.7812881226054	0	1	0	1	0	36.7812881226054	0
2.62	36.8127694656489	0	1	0	1	0	36.8127694656489	0
2.63	36.8452068441065	0	1	0	1	0	36.8452068441065	0
2.64	36.8785939393939	0	1	0	1	0	36.8785939393939	0
2.65	36.9129245283019	0	1	0	1	0	36.9129245283019	0
2.66	36.948192481203	0	1	0	1	0	36.948192481203	0
2.67	36.9843917602996	0	1	0	1	0	36.9843917602996	0
2.68	37.0215164179104	0	1	0	1	0	37.0215164179104	0
2.69	37.0595605947955	0	1	0	1	0	37.0595605947955	0
2.7	37.0985185185185	0	1	0	1	0	37.0985185185185	0
2.71	37.138384501845	0	1	0	1	0	37.138384501845	0
2.72	37.1791529411765	0	1	0	1	0	37.1791529411765	0
2.73	37.2208183150183	0	1	0	1	0	37.2208183150183	0
2.74	37.2633751824818	0	1	0	1	0	37.2633751824818	0
2.75	37.3068181818182	0	1	0	1	0	37.3068181818182	0
2.76	37.3511420289855	0	1	0	1	0	37.3511420289855	0
2.77	37.3963415162455	0	1	0	1	0	37.3963415162455	0
2.78	37.4424115107914	0	1	0	1	0	37.4424115107914	0
2.79	37.489346953405	0	1	0	1	0	37.489346953405	0
2.8	37.5371428571429	0	1	0	1	0	37.5371428571429	0
2.81	37.5857943060498	0	1	0	1	0	37.5857943060498	0
2.82	37.6352964539007	0	1	0	1	0	37.6352964539007	0
2.83	37.6856445229682	0	1	0	1	0	37.6856445229682	0
2.84	37.7368338028169	0	1	0	1	0	37.7368338028169	0
2.85	37.7888596491228	0	1	0	1	0	37.7888596491228	0
2.86	37.8417174825175	0	1	0	1	0	37.8417174825175	0
2.87	37.8954027874564	0	1	0	1	0	37.8954027874564	0
2.88	37.9499111111111	0	1	0	1	0	37.9499111111111	0
2.89	38.0052380622837	0	1	0	1	0	38.0052380622837	0
2.9	38.0613793103448	0	1	0	1	0	38.0613793103448	0
2.91	38.1183305841924	0	1	0	1	0	38.1183305841924	0
2.92	38.1760876712329	0	1	0	1	0	38.1760876712329	0
2.93	38.2346464163822	0	1	0	1	0	38.2346464163822	0
2.94	38.2940027210884	0	1	0	1	0	38.2940027210884	0
2.95	38.3541525423729	0	1	0	1	0	38.3541525423729	0
2.96	38.4150918918919	0	1	0	1	0	38.4150918918919	0
2.97	38.4768168350168	0	1	0	1	0	38.4768168350168	0
2.98	38.5393234899329	0	1	0	1	0	38.5393234899329	0
2.99	38.6026080267559	0	1	0	1	0	38.6026080267559	0
3	38.6666666666667	0	1	0	1	0	38.6666666666667	0
3.01	38.7314956810631	0	1	0	1	0	38.7314956810631	0
3.02	38.7970913907285	0	1	0	1	0	38.7970913907285	0
3.03	38.8634501650165	0	1	0	1	0	38.8634501650165	0
3.04	38.9305684210526	0	1	0	1	0	38.9305684210526	0
3.05	38.9984426229508	0	1	0	1	0	38.9984426229508	0
3.06	39.0670692810457	0	1	0	1	0	39.0670692810457	0
3.07	39.1364449511401	0	1	0	1	0	39.1364449511401	0
3.08	39.2065662337662	0	1	0	1	0	39.2065662337662	0
3.09	39.2774297734628	0	1	0	1	0	39.2774297734628	0
3.1	39.3490322580645	0	1	0	1	0	39.3490322580645	0
3.11	39.4213704180064	0	1	0	1	0	39.4213704180064	0
3.12	39.494441025641	0	1	0	1	0	39.494441025641	0
3.13	39.5682408945687	0	1	0	1	0	39.5682408945687	0
3.14	39.6427668789809	0	1	0	1	0	39.6427668789809	0
3.15	39.7180158730159	0	1	0	1	0	39.7180158730159	0
3.16	39.7939848101266	0	1	0	1	0	39.7939848101266	0
3.17	39.8706706624606	0	1	0	1	0	39.8706706624606	0
3.18	39.9480704402516	0	1	0	1	0	39.9480704402516	0
3.19	40.0261811912226	0	1	0	1	0	40.0261811912226	0
3.2	40.105	0	1	0	1	0	40.105	0
3.21	40.1845239875389	0	1	0	1	0	40.1845239875389	0
3.22	40.264750310559	0	1	0	1	0	40.264750310559	0
3.23	40.3456761609907	0	1	0	1	0	40.3456761609907	0
3.24	40.4272987654321	0	1	0	1	0	40.4272987654321	0
3.25	40.5096153846154	0	1	0	1	0	40.5096153846154	0
3.26	40.5926233128834	0	1	0	1	0	40.5926233128834	0
3.27	40.6763198776758	0	1	0	1	0	40.6763198776758	0
3.28	40.7607024390244	0	1	0	1	0	40.7607024390244	0
3.29	40.8457683890578	0	1	0	1	0	40.8457683890578	0
3.3	40.9315151515152	0	1	0	1	0	40.9315151515152	0
3.31	41.0179401812689	0	1	0	1	0	41.0179401812689	0
3.32	41.1050409638554	0	1	0	1	0	41.1050409638554	0
3.33	41.192815015015	0	1	0	1	0	41.192815015015	0
3.34	41.2812598802395	0	1	0	1	0	41.2812598802395	0
3.35	41.3703731343284	0	1	0	1	0	41.3703731343284	0
3.36	41.4601523809524	0	1	0	1	0	41.4601523809524	0
3.37	41.5505952522255	0	1	0	1	0	41.5505952522255	0
3.38	41.641699408284	0	1	0	1	0	41.641699408284	0
3.39	41.7334625368732	0	1	0	1	0	41.7334625368732	0
3.4	41.8258823529412	0	1	0	1	0	41.8258823529412	0
3.41	41.9189565982405	0	1	0	1	0	41.9189565982405	0
3.42	42.0126830409357	0	1	0	1	0	42.0126830409357	0
3.43	42.1070594752187	0	1	0	1	0	42.1070594752187	0
3.44	42.2020837209302	0	1	0	1	0	42.2020837209302	0
3.45	42.2977536231884	0	1	0	1	0	42.2977536231884	0
3.46	42.3940670520231	0	1	0	1	0	42.3940670520231	0
3.47	42.4910219020173	0	1	0	1	0	42.4910219020173	0
3.48	42.588616091954	0	1	0	1	0	42.588616091954	0
3.49	42.6868475644699	0	1	0	1	0	42.6868475644699	0
3.5	42.7857142857143	0	1	0	1	0	42.7857142857143	0
3.51	42.8852142450142	0	1	0	1	0	42.8852142450142	0
3.52	42.9853454545455	0	1	0	1	0	42.9853454545455	0
3.53	43.0861059490085	0	1	0	1	0	43.0861059490085	0
3.54	43.1874937853107	0	1	0	1	0	43.1874937853107	0
3.55	43.2895070422535	0	1	0	1	0	43.2895070422535	0
3.56	43.3921438202247	0	1	0	1	0	43.3921438202247	0
3.57	43.4954022408964	0	1	0	1	0	43.4954022408964	0
3.58	43.5992804469274	0	1	0	1	0	43.5992804469274	0
3.59	43.7037766016713	0	1	0	1	0	43.7037766016713	0
3.6	43.8088888888889	0	1	0	1	0	43.8088888888889	0
3.61	43.9146155124654	0	1	0	1	0	43.9146155124654	0
3.62	44.0209546961326	0	1	0	1	0	44.0209546961326	0
3.63	44.1279046831956	0	1	0	1	0	44.1279046831956	0
3.64	44.2354637362637	0	1	0	1	0	44.2354637362637	0
3.65	44.3436301369863	0	1	0	1	0	44.3436301369863	0
3.66	44.4524021857924	0	1	0	1	0	44.4524021857924	0
3.67	44.5617782016349	0	1	0	1	0	44.5617782016349	0
3.68	44.6717565217391	0	1	0	1	0	44.6717565217391	0
3.69	44.782335501355	0	1	0	1	0	44.782335501355	0
3.7	44.8935135135135	0	1	0	1	0	44.8935135135135	0
3.71	45.0052889487871	0	1	0	1	0	45.0052889487871	0
3.72	45.1176602150538	0	1	0	1	0	45.1176602150538	0
3.73	45.2306257372654	0	1	0	1	0	45.2306257372654	0
3.74	45.3441839572193	0	1	0	1	0	45.3441839572193	0
3.75	45.4583333333333	0	1	0	1	0	45.4583333333333	0
3.76	45.5730723404255	0	1	0	1	0	45.5730723404255	0
3.77	45.688399469496	0	1	0	1	0	45.688399469496	0
3.78	45.8043132275132	0	1	0	1	0	45.8043132275132	0
3.79	45.9208121372032	0	1	0	1	0	45.9208121372032	0
3.8	46.0378947368421	0	1	0	1	0	46.0378947368421	0
3.81	46.1555595800525	0	1	0	1	0	46.1555595800525	0
3.82	46.2738052356021	0	1	0	1	0	46.2738052356021	0
3.83	46.3926302872063	0	1	0	1	0	46.3926302872063	0
3.84	46.5120333333333	0	1	0	1	0	46.5120333333333	0
3.85	46.632012987013	0	1	0	1	0	46.632012987013	0
3.86	46.7525678756477	0	1	0	1	0	46.7525678756477	0
3.87	46.8736966408269	0	1	0	1	0	46.8736966408269	0
3.88	46.9953979381443	0	1	0	1	0	46.9953979381443	0
3.89	47.117670437018	0	1	0	1	0	47.117670437018	0
3.9	47.2405128205128	0	1	0	1	0	47.2405128205128	0
3.91	47.3639237851662	0	1	0	1	0	47.3639237851662	0
3.92	47.4879020408163	0	1	0	1	0	47.4879020408163	0
3.93	47.6124463104326	0	1	0	1	0	47.6124463104326	0
3.94	47.7375553299492	0	1	0	1	0	47.7375553299492	0
3.95	47.8632278481013	0	1	0	1	0	47.8632278481013	0
3.96	47.9894626262626	0	1	0	1	0	47.9894626262626	0
3.97	48.1162584382872	0	1	0	1	0	48.1162584382872	0
3.98	48.2436140703518	0	1	0	1	0	48.2436140703518	0
3.99	48.371528320802	0	1	0	1	0	48.371528320802	0
4	48.5	0	1	0	1	0	48.5	0
4.01	48.6290279301746	0	1	0	1	0	48.6290279301746	0
4.02	48.7586109452736	0	1	0	1	0	48.7586109452736	0
4.03	48.8887478908189	0	1	0	1	0	48.8887478908189	0
4.04	49.0194376237624	0	1	0	1	0	49.0194376237624	0
4.05	49.1506790123457	0	1	0	1	0	49.1506790123457	0
4.06	49.2824709359606	0	1	0	1	0	49.2824709359606	0
4.07	49.4148122850123	0	1	0	1	0	49.4148122850123	0
4.08	49.5477019607843	0	1	0	1	0	49.5477019607843	0
4.09	49.6811388753056	0	1	0	1	0	49.6811388753056	0
4.1	49.8151219512195	0	1	0	1	0	49.8151219512195	0
4.11	49.9496501216545	0	1	0	1	0	49.9496501216545	0
4.12	50.0847223300971	0	1	0	1	0	50.0847223300971	0
4.13	50.2203375302663	0	1	0	1	0	50.2203375302663	0
4.14	50.3564946859903	0	1	0	1	0	50.3564946859903	0
4.15	50.4931927710843	0	1	0	1	0	50.4931927710843	0
4.16	50.6304307692308	0	1	0	1	0	50.6304307692308	0
4.17	50.7682076738609	0	1	0	1	0	50.7682076738609	0
4.18	50.9065224880383	0	1	0	1	0	50.9065224880383	0
4.19	51.0453742243437	0	1	0	1	0	51.0453742243437	0
4.2	51.1847619047619	0	1	0	1	0	51.1847619047619	0
4.21	51.3246845605701	0	1	0	1	0	51.3246845605701	0
4.22	51.4651412322275	0	1	0	1	0	51.4651412322275	0
4.23	51.6061309692671	0	1	0	1	0	51.6061309692671	0
4.24	51.7476528301887	0	1	0	1	0	51.7476528301887	0
4.25	51.8897058823529	0	1	0	1	0	51.8897058823529	0
4.26	52.0322892018779	0	1	0	1	0	52.0322892018779	0
4.27	52.1754018735363	0	1	0	1	0	52.1754018735363	0
4.28	52.3190429906542	0	1	0	1	0	52.3190429906542	0
4.29	52.4632116550117	0	1	0	1	0	52.4632116550117	0
4.3	52.6079069767442	0	1	0	1	0	52.6079069767442	0
4.31	52.753128074246	0	1	0	1	0	52.753128074246	0
4.32	52.8988740740741	0	1	0	1	0	52.8988740740741	0
4.33	53.0451441108545	0	1	0	1	0	53.0451441108545	0
4.34	53.1919373271889	0	1	0	1	0	53.1919373271889	0
4.35	53.3392528735632	0	1	0	1	0	53.3392528735632	0
4.36	53.4870899082569	0	1	0	1	0	53.4870899082569	0
4.37	53.635447597254	0	1	0	1	0	53.635447597254	0
4.38	53.7843251141553	0	1	0	1	0	53.7843251141553	0
4.39	53.9337216400911	0	1	0	1	0	53.9337216400911	0
4.4	54.0836363636364	0	1	0	1	0	54.0836363636364	0
4.41	54.2340684807256	0	1	0	1	0	54.2340684807256	0
4.42	54.3850171945701	0	1	0	1	0	54.3850171945701	0
4.43	54.5364817155756	0	1	0	1	0	54.5364817155756	0
4.44	54.6884612612613	0	1	0	1	0	54.6884612612613	0
4.45	54.8409550561798	0	1	0	1	0	54.8409550561798	0
4.46	54.9939623318386	0	1	0	1	0	54.9939623318386	0
4.47	55.1474823266219	0	1	0	1	0	55.1474823266219	0
4.48	55.3015142857143	0	1	0	1	0	55.3015142857143	0
4.49	55.4560574610245	0	1	0	1	0	55.4560574610245	0
4.5	55.6111111111111	0	1	0	1	0	55.6111111111111	0
4.51	55.7666745011086	0	1	0	1	0	55.7666745011086	0
4.52	55.9227469026549	0	1	0	1	0	55.9227469026549	0
4.53	56.079327593819	0	1	0	1	0	56.079327593819	0
4.54	56.2364158590308	0	1	0	1	0	56.2364158590308	0
4.55	56.394010989011	0	1	0	1	0	56.394010989011	0
4.56	56.5521122807018	0	1	0	1	0	56.5521122807018	0
4.57	56.7107190371991	0	1	0	1	0	56.7107190371991	0
4.58	56.8698305676856	0	1	0	1	0	56.8698305676856	0
4.59	57.0294461873638	0	1	0	1	0	57.0294461873638	0
4.6	57.1895652173913	0	1	0	1	0	57.1895652173913	0
4.61	57.3501869848156	0	1	0	1	0	57.3501869848156	0
4.62	57.5113108225108	0	1	0	1	0	57.5113108225108	0
4.63	57.6729360691145	0	1	0	1	0	57.6729360691145	0
4.64	57.8350620689655	0	1	0	1	0	57.8350620689655	0
4.65	57.997688172043	0	1	0	1	0	57.997688172043	0
4.66	58.1608137339056	0	1	0	1	0	58.1608137339056	0
4.67	58.3244381156317	0	1	0	1	0	58.3244381156317	0
4.68	58.4885606837607	0	1	0	1	0	58.4885606837607	0
4.69	58.6531808102345	0	1	0	1	0	58.6531808102345	0
4.7	58.8182978723404	0	1	0	1	0	58.8182978723404	0
4.71	58.9839112526539	0	1	0	1	0	58.9839112526539	0
4.72	59.1500203389831	0	1	0	1	0	59.1500203389831	0
4.73	59.3166245243129	0	1	0	1	0	59.3166245243129	0
4.74	59.4837232067511	0	1	0	1	0	59.4837232067511	0
4.75	59.6513157894737	0	1	0	1	0	59.6513157894737	0
4.76	59.8194016806723	0	1	0	1	0	59.8194016806723	0
4.77	59.987980293501	0	1	0	1	0	59.987980293501	0
4.78	60.1570510460251	0	1	0	1	0	60.1570510460251	0
4.79	60.3266133611691	0	1	0	1	0	60.3266133611691	0
4.8	60.4966666666667	0	1	0	1	0	60.4966666666667	0
4.81	60.6672103950104	0	1	0	1	0	60.6672103950104	0
4.82	60.8382439834025	0	1	0	1	0	60.8382439834025	0
4.83	61.009766873706	0	1	0	1	0	61.009766873706	0
4.84	61.1817785123967	0	1	0	1	0	61.1817785123967	0
4.85	61.3542783505155	0	1	0	1	0	61.3542783505155	0
4.86	61.5272658436214	0	1	0	1	0	61.5272658436214	0
4.87	61.7007404517454	0	1	0	1	0	61.7007404517454	0
4.88	61.8747016393443	0	1	0	1	0	61.8747016393443	0
4.89	62.0491488752556	0	1	0	1	0	62.0491488752556	0
4.9	62.2240816326531	0	1	0	1	0	62.2240816326531	0
4.91	62.399499389002	0	1	0	1	0	62.399499389002	0
4.92	62.5754016260163	0	1	0	1	0	62.5754016260163	0
4.93	62.7517878296146	0	1	0	1	0	62.7517878296146	0
4.94	62.9286574898785	0	1	0	1	0	62.9286574898785	0
4.95	63.1060101010101	0	1	0	1	0	63.1060101010101	0
4.96	63.2838451612903	0	1	0	1	0	63.2838451612903	0
4.97	63.4621621730382	0	1	0	1	0	63.4621621730382	0
