# GHZ S RI R 50
1	60	0	1	0	1	0	60	0
1.01	59.4956455445545	0	1	0	1	0	59.4956455445545	0
1.02	59.002368627451	0	1	0	1	0	59.002368627451	0
1.03	58.5198582524272	0	1	0	1	0	58.5198582524272	0
1.04	58.0478153846154	0	1	0	1	0	58.0478153846154	0
1.05	57.5859523809524	0	1	0	1	0	57.5859523809524	0
1.06	57.1339924528302	0	1	0	1	0	57.1339924528302	0
1.07	56.6916691588785	0	1	0	1	0	56.6916691588785	0
1.08	56.2587259259259	0	1	0	1	0	56.2587259259259	0
1.09	55.8349155963303	0	1	0	1	0	55.8349155963303	0
1.1	55.42	0	1	0	1	0	55.42	0
1.11	55.0137495495495	0	1	0	1	0	55.0137495495495	0
1.12	54.6159428571429	0	1	0	1	0	54.6159428571429	0
1.13	54.2263663716814	0	1	0	1	0	54.2263663716814	0
1.14	53.8448140350877	0	1	0	1	0	53.8448140350877	0
1.15	53.4710869565217	0	1	0	1	0	53.4710869565217	0
1.16	53.1049931034483	0	1	0	1	0	53.1049931034483	0
1.17	52.746347008547	0	1	0	1	0	52.746347008547	0
1.18	52.3949694915254	0	1	0	1	0	52.3949694915254	0
1.19	52.050687394958	0	1	0	1	0	52.050687394958	0
1.2	51.7133333333333	0	1	0	1	0	51.7133333333333	0
1.21	51.3827454545455	0	1	0	1	0	51.3827454545455	0
1.22	51.0587672131148	0	1	0	1	0	51.0587672131148	0
1.23	50.7412471544715	0	1	0	1	0	50.7412471544715	0
1.24	50.4300387096774	0	1	0	1	0	50.4300387096774	0
1.25	50.125	0	1	0	1	0	50.125	0
1.26	49.8259936507936	0	1	0	1	0	49.8259936507936	0
1.27	49.5328866141732	0	1	0	1	0	49.5328866141732	0
1.28	49.24555	0	1	0	1	0	49.24555	0
1.29	48.9638589147287	0	1	0	1	0	48.9638589147287	0
1.3	48.6876923076923	0	1	0	1	0	48.6876923076923	0
1.31	48.4169328244275	0	1	0	1	0	48.4169328244275	0
1.32	48.1514666666667	0	1	0	1	0	48.1514666666667	0
1.33	47.8911834586466	0	1	0	1	0	47.8911834586466	0
1.34	47.635976119403	0	1	0	1	0	47.635976119403	0
1.35	47.3857407407407	0	1	0	1	0	47.3857407407407	0
1.36	47.1403764705882	0	1	0	1	0	47.1403764705882	0
1.37	46.8997854014599	0	1	0	1	0	46.8997854014599	0
1.38	46.6638724637681	0	1	0	1	0	46.6638724637681	0
1.39	46.432545323741	0	1	0	1	0	46.432545323741	0
1.4	46.2057142857143	0	1	0	1	0	46.2057142857143	0
1.41	45.9832921985816	0	1	0	1	0	45.9832921985816	0
1.42	45.7651943661972	0	1	0	1	0	45.7651943661972	0
1.43	45.5513384615385	0	1	0	1	0	45.5513384615385	0
1.44	45.3416444444444	0	1	0	1	0	45.3416444444444	0
1.45	45.1360344827586	0	1	0	1	0	45.1360344827586	0
1.46	44.9344328767123	0	1	0	1	0	44.9344328767123	0
1.47	44.7367659863946	0	1	0	1	0	44.7367659863946	0
1.48	44.5429621621622	0	1	0	1	0	44.5429621621622	0
1.49	44.3529516778523	0	1	0	1	0	44.3529516778523	0
1.5	44.1666666666667	0	1	0	1	0	44.1666666666667	0
1.51	43.9840410596027	0	1	0	1	0	43.9840410596027	0
1.52	43.8050105263158	0	1	0	1	0	43.8050105263158	0
1.53	43.6295124183007	0	1	0	1	0	43.6295124183007	0
1.54	43.4574857142857	0	1	0	1	0	43.4574857142857	0
1.55	43.2888709677419	0	1	0	1	0	43.2888709677419	0
1.56	43.1236102564103	0	1	0	1	0	43.1236102564103	0
1.57	42.961647133758	0	1	0	1	0	42.961647133758	0
1.58	42.8029265822785	0	1	0	1	0	42.8029265822785	0
1.59	42.6473949685535	0	1	0	1	0	42.6473949685535	0
1.6	42.495	0	1	0	1	0	42.495	0
1.61	42.3456906832298	0	1	0	1	0	42.3456906832298	0
1.62	42.1994172839506	0	1	0	1	0	42.1994172839506	0
1.63	42.0561312883436	0	1	0	1	0	42.0561312883436	0
1.64	41.9157853658537	0	1	0	1	0	41.9157853658537	0
1.65	41.7783333333333	0	1	0	1	0	41.7783333333333	0
1.66	41.6437301204819	0	1	0	1	0	41.6437301204819	0
1.67	41.5119317365269	0	1	0	1	0	41.5119317365269	0
1.68	41.3828952380952	0	1	0	1	0	41.3828952380952	0
1.69	41.2565786982249	0	1	0	1	0	41.2565786982249	0
1.7	41.1329411764706	0	1	0	1	0	41.1329411764706	0
1.71	41.0119426900585	0	1	0	1	0	41.0119426900585	0
1.72	40.8935441860465	0	1	0	1	0	40.8935441860465	0
1.73	40.7777075144509	0	1	0	1	0	40.7777075144509	0
1.74	40.6643954022989	0	1	0	1	0	40.6643954022989	0
1.75	40.5535714285714	0	1	0	1	0	40.5535714285714	0
1.76	40.4452	0	1	0	1	0	40.4452	0
1.77	40.3392463276836	0	1	0	1	0	40.3392463276836	0
1.78	40.2356764044944	0	1	0	1	0	40.2356764044944	0
1.79	40.1344569832402	0	1	0	1	0	40.1344569832402	0
1.8	40.0355555555556	0	1	0	1	0	40.0355555555556	0
1.81	39.9389403314917	0	1	0	1	0	39.9389403314917	0
1.82	39.8445802197802	0	1	0	1	0	39.8445802197802	0
1.83	39.7524448087432	0	1	0	1	0	39.7524448087432	0
1.84	39.6625043478261	0	1	0	1	0	39.6625043478261	0
1.85	39.5747297297297	0	1	0	1	0	39.5747297297297	0
1.86	39.4890924731183	0	1	0	1	0	39.4890924731183	0
1.87	39.4055647058824	0	1	0	1	0	39.4055647058824	0
1.88	39.3241191489362	0	1	0	1	0	39.3241191489362	0
1.89	39.2447291005291	0	1	0	1	0	39.2447291005291	0
1.9	39.1673684210526	0	1	0	1	0	39.1673684210526	0
1.91	39.0920115183246	0	1	0	1	0	39.0920115183246	0
1.92	39.0186333333333	0	1	0	1	0	39.0186333333333	0
1.93	38.9472093264249	0	1	0	1	0	38.9472093264249	0
1.94	38.8777154639175	0	1	0	1	0	38.8777154639175	0
1.95	38.8101282051282	0	1	0	1	0	38.8101282051282	0
1.96	38.7444244897959	0	1	0	1	0	38.7444244897959	0
1.97	38.6805817258883	0	1	0	1	0	38.6805817258883	0
1.98	38.6185777777778	0	1	0	1	0	38.6185777777778	0
1.99	38.5583909547739	0	1	0	1	0	38.5583909547739	0
2	38.5	0	1	0	1	0	38.5	0
2.01	38.443384079602	0	1	0	1	0	38.443384079602	0
2.02	38.3885227722772	0	1	0	1	0	38.3885227722772	0
2.03	38.3353960591133	0	1	0	1	0	38.3353960591133	0
2.04	38.2839843137255	0	1	0	1	0	38.2839843137255	0
2.05	38.2342682926829	0	1	0	1	0	38.2342682926829	0
2.06	38.1862291262136	0	1	0	1	0	38.1862291262136	0
2.07	38.1398483091787	0	1	0	1	0	38.1398483091787	0
2.08	38.0951076923077	0	1	0	1	0	38.0951076923077	0
2.09	38.0519894736842	0	1	0	1	0	38.0519894736842	0
2.1	38.0104761904762	0	1	0	1	0	38.0104761904762	0
2.11	37.9705507109005	0	1	0	1	0	37.9705507109005	0
2.12	37.9321962264151	0	1	0	1	0	37.9321962264151	0
2.13	37.8953962441315	0	1	0	1	0	37.8953962441315	0
2.14	37.8601345794393	0	1	0	1	0	37.8601345794393	0
2.15	37.8263953488372	0	1	0	1	0	37.8263953488372	0
2.16	37.794162962963	0	1	0	1	0	37.794162962963	0
2.17	37.7634221198157	0	1	0	1	0	37.7634221198157	0
2.18	37.7341577981651	0	1	0	1	0	37.7341577981651	0
2.19	37.7063552511416	0	1	0	1	0	37.7063552511416	0
2.2	37.68	0	1	0	1	0	37.68	0
2.21	37.6550778280543	0	1	0	1	0	37.6550778280543	0
2.22	37.6315747747748	0	1	0	1	0	37.6315747747748	0
2.23	37.6094771300448	0	1	0	1	0	37.6094771300448	0
2.24	37.5887714285714	0	1	0	1	0	37.5887714285714	0
2.25	37.5694444444444	0	1	0	1	0	37.5694444444444	0
2.26	37.5514831858407	0	1	0	1	0	37.5514831858407	0
2.27	37.5348748898678	0	1	0	1	0	37.5348748898678	0
2.28	37.5196070175439	0	1	0	1	0	37.5196070175439	0
2.29	37.5056672489083	0	1	0	1	0	37.5056672489083	0
2.3	37.4930434782609	0	1	0	1	0	37.4930434782609	0
2.31	37.4817238095238	0	1	0	1	0	37.4817238095238	0
2.32	37.4716965517241	0	1	0	1	0	37.4716965517241	0
2.33	37.4629502145923	0	1	0	1	0	37.4629502145923	0
2.34	37.4554735042735	0	1	0	1	0	37.4554735042735	0
2.35	37.4492553191489	0	1	0	1	0	37.4492553191489	0
2.36	37.4442847457627	0	1	0	1	0	37.4442847457627	0
2.37	37.4405510548523	0	1	0	1	0	37.4405510548523	0
2.38	37.438043697479	0	1	0	1	0	37.438043697479	0
2.39	37.4367523012552	0	1	0	1	0	37.4367523012552	0
2.4	37.4366666666667	0	1	0	1	0	37.4366666666667	0
2.41	37.4377767634855	0	1	0	1	0	37.4377767634855	0
2.42	37.4400727272727	0	1	0	1	0	37.4400727272727	0
2.43	37.4435448559671	0	1	0	1	0	37.4435448559671	0
2.44	37.4481836065574	0	1	0	1	0	37.4481836065574	0
2.45	37.4539795918367	0	1	0	1	0	37.4539795918367	0
2.46	37.4609235772358	0	1	0	1	0	37.4609235772358	0
2.47	37.4690064777328	0	1	0	1	0	37.4690064777328	0
2.48	37.4782193548387	0	1	0	1	0	37.4782193548387	0
2.49	37.4885534136546	0	1	0	1	0	37.4885534136546	0
2.5	37.5	0	1	0	1	0	37.5	0
2.51	37.5125505976096	0	1	0	1	0	37.5125505976096	0
2.52	37.5261968253968	0	1	0	1	0	37.5261968253968	0
2.53	37.5409304347826	0	1	0	1	0	37.5409304347826	0
2.54	37.5567433070866	0	1	0	1	0	37.5567433070866	0
2.55	37.5736274509804	0	1	0	1	0	37.5736274509804	0
2.56	37.591575	0	1	0	1	0	37.591575	0
2.57	37.6105782101167	0	1	0	1	0	37.6105782101167	0
2.58	37.6306294573643	0	1	0	1	0	37.6306294573643	0
2.59	37.6517212355212	0	1	0	1	0	37.6517212355212	0
2.6	37.6738461538462	0	1	0	1	0	37.6738461538462	0
2.61	37.6969969348659	0	1	0	1	0	37.6969969348659	0
2.62	37.7211664122137	0	1	0	1	0	37.7211664122137	0
2.63	37.7463475285171	0	1	0	1	0	37.7463475285171	0
2.64	37.7725333333333	0	1	0	1	0	37.7725333333333	0
2.65	37.7997169811321	0	1	0	1	0	37.7997169811321	0
2.66	37.8278917293233	0	1	0	1	0	37.8278917293233	0
2.67	37.8570509363296	0	1	0	1	0	37.8570509363296	0
2.68	37.8871880597015	0	1	0	1	0	37.8871880597015	0
2.69	37.9182966542751	0	1	0	1	0	37.9182966542751	0
2.7	37.9503703703704	0	1	0	1	0	37.9503703703704	0
2.71	37.9834029520295	0	1	0	1	0	37.9834029520295	0
2.72	38.0173882352941	0	1	0	1	0	38.0173882352941	0
2.73	38.0523201465201	0	1	0	1	0	38.0523201465201	0
2.74	38.0881927007299	0	1	0	1	0	38.0881927007299	0
2.75	38.125	0	1	0	1	0	38.125	0
2.76	38.1627362318841	0	1	0	1	0	38.1627362318841	0
2.77	38.20139566787	0	1	0	1	0	38.20139566787	0
2.78	38.2409726618705	0	1	0	1	0	38.2409726618705	0
2.79	38.2814616487455	0	1	0	1	0	38.2814616487455	0
2.8	38.3228571428571	0	1	0	1	0	38.3228571428571	0
2.81	38.3651537366548	0	1	0	1	0	38.3651537366548	0
2.82	38.4083460992908	0	1	0	1	0	38.4083460992908	0
2.83	38.452428975265	0	1	0	1	0	38.452428975265	0
2.84	38.4973971830986	0	1	0	1	0	38.4973971830986	0
2.85	38.5432456140351	0	1	0	1	0	38.5432456140351	0
2.86	38.5899692307692	0	1	0	1	0	38.5899692307692	0
2.87	38.6375630662021	0	1	0	1	0	38.6375630662021	0
2.88	38.6860222222222	0	1	0	1	0	38.6860222222222	0
2.89	38.7353418685121	0	1	0	1	0	38.7353418685121	0
2.9	38.7855172413793	0	1	0	1	0	38.7855172413793	0
2.91	38.8365436426117	0	1	0	1	0	38.8365436426117	0
2.92	38.8884164383562	0	1	0	1	0	38.8884164383562	0
2.93	38.9411310580205	0	1	0	1	0	38.9411310580205	0
2.94	38.9946829931973	0	1	0	1	0	38.9946829931973	0
2.95	39.0490677966102	0	1	0	1	0	39.0490677966102	0
2.96	39.1042810810811	0	1	0	1	0	39.1042810810811	0
2.97	39.1603185185185	0	1	0	1	0	39.1603185185185	0
2.98	39.2171758389262	0	1	0	1	0	39.2171758389262	0
2.99	39.2748488294314	0	1	0	1	0	39.2748488294314	0
3	39.3333333333333	0	1	0	1	0	39.3333333333333	0
3.01	39.3926252491694	0	1	0	1	0	39.3926252491694	0
3.02	39.4527205298013	0	1	0	1	0	39.4527205298013	0
3.03	39.5136151815181	0	1	0	1	0	39.5136151815181	0
3.04	39.5753052631579	0	1	0	1	0	39.5753052631579	0
3.05	39.6377868852459	0	1	0	1	0	39.6377868852459	0
3.06	39.7010562091503	0	1	0	1	0	39.7010562091503	0
3.07	39.7651094462541	0	1	0	1	0	39.7651094462541	0
3.08	39.8299428571429	0	1	0	1	0	39.8299428571429	0
3.09	39.8955527508091	0	1	0	1	0	39.8955527508091	0
3.1	39.961935483871	0	1	0	1	0	39.961935483871	0
3.11	40.0290874598071	0	1	0	1	0	40.0290874598071	0
3.12	40.0970051282051	0	1	0	1	0	40.0970051282051	0
3.13	40.1656849840256	0	1	0	1	0	40.1656849840256	0
3.14	40.235123566879	0	1	0	1	0	40.235123566879	0
3.15	40.3053174603175	0	1	0	1	0	40.3053174603175	0
3.16	40.3762632911392	0	1	0	1	0	40.3762632911392	0
3.17	40.4479577287066	0	1	0	1	0	40.4479577287066	0
3.18	40.5203974842767	0	1	0	1	0	40.5203974842767	0
3.19	40.5935793103448	0	1	0	1	0	40.5935793103448	0
3.2	40.6675	0	1	0	1	0	40.6675	0
3.21	40.7421563862928	0	1	0	1	0	40.7421563862928	0
3.22	40.8175453416149	0	1	0	1	0	40.8175453416149	0
3.23	40.8936637770898	0	1	0	1	0	40.8936637770898	0
3.24	40.9705086419753	0	1	0	1	0	40.9705086419753	0
3.25	41.0480769230769	0	1	0	1	0	41.0480769230769	0
3.26	41.1263656441718	0	1	0	1	0	41.1263656441718	0
3.27	41.2053718654434	0	1	0	1	0	41.2053718654434	0
3.28	41.2850926829268	0	1	0	1	0	41.2850926829268	0
3.29	41.3655252279635	0	1	0	1	0	41.3655252279635	0
3.3	41.4466666666667	0	1	0	1	0	41.4466666666667	0
3.31	41.5285141993958	0	1	0	1	0	41.5285141993958	0
3.32	41.611065060241	0	1	0	1	0	41.611065060241	0
3.33	41.6943165165165	0	1	0	1	0	41.6943165165165	0
3.34	41.7782658682635	0	1	0	1	0	41.7782658682635	0
3.35	41.8629104477612	0	1	0	1	0	41.8629104477612	0
3.36	41.9482476190476	0	1	0	1	0	41.9482476190476	0
3.37	42.0342747774481	0	1	0	1	0	42.0342747774481	0
3.38	42.1209893491124	0	1	0	1	0	42.1209893491124	0
3.39	42.2083887905605	0	1	0	1	0	42.2083887905605	0
3.4	42.2964705882353	0	1	0	1	0	42.2964705882353	0
3.41	42.3852322580645	0	1	0	1	0	42.3852322580645	0
3.42	42.4746713450292	0	1	0	1	0	42.4746713450292	0
3.43	42.5647854227405	0	1	0	1	0	42.5647854227405	0
3.44	42.6555720930233	0	1	0	1	0	42.6555720930233	0
3.45	42.7470289855072	0	1	0	1	0	42.7470289855072	0
3.46	42.8391537572254	0	1	0	1	0	42.8391537572254	0
3.47	42.931944092219	0	1	0	1	0	42.931944092219	0
3.48	43.0253977011494	0	1	0	1	0	43.0253977011494	0
3.49	43.1195123209169	0	1	0	1	0	43.1195123209169	0
3.5	43.2142857142857	0	1	0	1	0	43.2142857142857	0
3.51	43.3097156695157	0	1	0	1	0	43.3097156695157	0
3.52	43.4058	0	1	0	1	0	43.4058	0
3.53	43.5025365439094	0	1	0	1	0	43.5025365439094	0
3.54	43.5999231638418	0	1	0	1	0	43.5999231638418	0
3.55	43.6979577464789	0	1	0	1	0	43.6979577464789	0
3.56	43.7966382022472	0	1	0	1	0	43.7966382022472	0
3.57	43.895962464986	0	1	0	1	0	43.895962464986	0
3.58	43.9959284916201	0	1	0	1	0	43.9959284916201	0
3.59	44.0965342618384	0	1	0	1	0	44.0965342618384	0
3.6	44.1977777777778	0	1	0	1	0	44.1977777777778	0
3.61	44.2996570637119	0	1	0	1	0	44.2996570637119	0
3.62	44.4021701657459	0	1	0	1	0	44.4021701657459	0
3.63	44.5053151515151	0	1	0	1	0	44.5053151515151	0
3.64	44.6090901098901	0	1	0	1	0	44.6090901098901	0
3.65	44.7134931506849	0	1	0	1	0	44.7134931506849	0
3.66	44.8185224043716	0	1	0	1	0	44.8185224043716	0
3.67	44.9241760217984	0	1	0	1	0	44.9241760217984	0
3.68	45.030452173913	0	1	0	1	0	45.030452173913	0
3.69	45.1373490514905	0	1	0	1	0	45.1373490514905	0
3.7	45.2448648648649	0	1	0	1	0	45.2448648648649	0
3.71	45.3529978436658	0	1	0	1	0	45.3529978436658	0
3.72	45.4617462365591	0	1	0	1	0	45.4617462365591	0
3.73	45.571108310992	0	1	0	1	0	45.571108310992	0
3.74	45.6810823529412	0	1	0	1	0	45.6810823529412	0
3.75	45.7916666666667	0	1	0	1	0	45.7916666666667	0
3.76	45.9028595744681	0	1	0	1	0	45.9028595744681	0
3.77	46.0146594164456	0	1	0	1	0	46.0146594164456	0
3.78	46.1270645502645	0	1	0	1	0	46.1270645502645	0
3.79	46.2400733509235	0	1	0	1	0	46.2400733509235	0
3.8	46.3536842105263	0	1	0	1	0	46.3536842105263	0
3.81	46.4678955380577	0	1	0	1	0	46.4678955380577	0
3.82	46.5827057591623	0	1	0	1	0	46.5827057591623	0
3.83	46.6981133159269	0	1	0	1	0	46.6981133159269	0
3.84	46.8141166666667	0	1	0	1	0	46.8141166666667	0
3.85	46.9307142857143	0	1	0	1	0	46.9307142857143	0
3.86	47.0479046632124	0	1	0	1	0	47.0479046632124	0
3.87	47.1656863049096	0	1	0	1	0	47.1656863049096	0
3.88	47.2840577319588	0	1	0	1	0	47.2840577319588	0
3.89	47.4030174807198	0	1	0	1	0	47.4030174807198	0
3.9	47.5225641025641	0	1	0	1	0	47.5225641025641	0
3.91	47.6426961636829	0	1	0	1	0	47.6426961636829	0
3.92	47.763412244898	0	1	0	1	0	47.763412244898	0
3.93	47.8847109414758	0	1	0	1	0	47.8847109414758	0
3.94	48.0065908629442	0	1	0	1	0	48.0065908629442	0
3.95	48.1290506329114	0	1	0	1	0	48.1290506329114	0
3.96	48.2520888888889	0	1	0	1	0	48.2520888888889	0
3.97	48.3757042821159	0	1	0	1	0	48.3757042821159	0
3.98	48.4998954773869	0	1	0	1	0	48.4998954773869	0
3.99	48.6246611528822	0	1	0	1	0	48.6246611528822	0
4	48.75	0	1	0	1	0	48.75	0
4.01	48.875910723192	0	1	0	1	0	48.875910723192	0
4.02	49.002392039801	0	1	0	1	0	49.002392039801	0
4.03	49.1294426799007	0	1	0	1	0	49.1294426799007	0
4.04	49.2570613861386	0	1	0	1	0	49.2570613861386	0
4.05	49.3852469135803	0	1	0	1	0	49.3852469135803	0
4.06	49.5139980295567	0	1	0	1	0	49.5139980295567	0
4.07	49.6433135135135	0	1	0	1	0	49.6433135135135	0
4.08	49.7731921568627	0	1	0	1	0	49.7731921568627	0
4.09	49.9036327628362	0	1	0	1	0	49.9036327628362	0
4.1	50.0346341463415	0	1	0	1	0	50.0346341463415	0
4.11	50.1661951338199	0	1	0	1	0	50.1661951338199	0
4.12	50.2983145631068	0	1	0	1	0	50.2983145631068	0
4.13	50.430991283293	0	1	0	1	0	50.430991283293	0
4.14	50.5642241545894	0	1	0	1	0	50.5642241545894	0
4.15	50.6980120481928	0	1	0	1	0	50.6980120481928	0
4.16	50.8323538461539	0	1	0	1	0	50.8323538461539	0
4.17	50.967248441247	0	1	0	1	0	50.967248441247	0
4.18	51.1026947368421	0	1	0	1	0	51.1026947368421	0
4.19	51.238691646778	0	1	0	1	0	51.238691646778	0
4.2	51.3752380952381	0	1	0	1	0	51.3752380952381	0
4.21	51.5123330166271	0	1	0	1	0	51.5123330166271	0
4.22	51.6499753554502	0	1	0	1	0	51.6499753554502	0
4.23	51.7881640661939	0	1	0	1	0	51.7881640661939	0
4.24	51.9268981132076	0	1	0	1	0	51.9268981132076	0
4.25	52.0661764705882	0	1	0	1	0	52.0661764705882	0
4.26	52.2059981220657	0	1	0	1	0	52.2059981220657	0
4.27	52.3463620608899	0	1	0	1	0	52.3463620608899	0
4.28	52.4872672897196	0	1	0	1	0	52.4872672897196	0
4.29	52.6287128205128	0	1	0	1	0	52.6287128205128	0
4.3	52.7706976744186	0	1	0	1	0	52.7706976744186	0
4.31	52.9132208816705	0	1	0	1	0	52.9132208816705	0
4.32	53.0562814814815	0	1	0	1	0	53.0562814814815	0
4.33	53.19987852194	0	1	0	1	0	53.19987852194	0
4.34	53.3440110599078	0	1	0	1	0	53.3440110599078	0
4.35	53.4886781609195	0	1	0	1	0	53.4886781609195	0
4.36	53.6338788990826	0	1	0	1	0	53.6338788990826	0
4.37	53.7796123569794	0	1	0	1	0	53.7796123569794	0
4.38	53.9258776255708	0	1	0	1	0	53.9258776255708	0
4.39	54.0726738041002	0	1	0	1	0	54.0726738041002	0
4.4	54.22	0	1	0	1	0	54.22	0
4.41	54.3678553287982	0	1	0	1	0	54.3678553287982	0
4.42	54.5162389140271	0	1	0	1	0	54.5162389140271	0
4.43	54.6651498871332	0	1	0	1	0	54.6651498871332	0
4.44	54.8145873873874	0	1	0	1	0	54.8145873873874	0
4.45	54.9645505617978	0	1	0	1	0	54.9645505617978	0
4.46	55.1150385650224	0	1	0	1	0	55.1150385650224	0
4.47	55.2660505592841	0	1	0	1	0	55.2660505592841	0
4.48	55.4175857142857	0	1	0	1	0	55.4175857142857	0
4.49	55.569643207127	0	1	0	1	0	55.569643207127	0
4.5	55.7222222222222	0	1	0	1	0	55.7222222222222	0
4.51	55.8753219512195	0	1	0	1	0	55.8753219512195	0
4.52	56.0289415929203	0	1	0	1	0	56.0289415929203	0
4.53	56.1830803532009	0	1	0	1	0	56.1830803532009	0
4.54	56.3377374449339	0	1	0	1	0	56.3377374449339	0
4.55	56.4929120879121	0	1	0	1	0	56.4929120879121	0
4.56	56.6486035087719	0	1	0	1	0	56.6486035087719	0
4.57	56.804810940919	0	1	0	1	0	56.804810940919	0
4.58	56.9615336244541	0	1	0	1	0	56.9615336244541	0
4.59	57.1187708061002	0	1	0	1	0	57.1187708061002	0
4.6	57.2765217391304	0	1	0	1	0	57.2765217391304	0
4.61	57.4347856832972	0	1	0	1	0	57.4347856832972	0
4.62	57.5935619047619	0	1	0	1	0	57.5935619047619	0
4.63	57.7528496760259	0	1	0	1	0	57.7528496760259	0
4.64	57.9126482758621	0	1	0	1	0	57.9126482758621	0
4.65	58.0729569892473	0	1	0	1	0	58.0729569892473	0
4.66	58.2337751072961	0	1	0	1	0	58.2337751072961	0
4.67	58.3951019271949	0	1	0	1	0	58.3951019271949	0
4.68	58.5569367521368	0	1	0	1	0	58.5569367521368	0
4.69	58.719278891258	0	1	0	1	0	58.719278891258	0
4.7	58.8821276595745	0	1	0	1	0	58.8821276595745	0
4.71	59.0454823779193	0	1	0	1	0	59.0454823779193	0
4.72	59.2093423728814	0	1	0	1	0	59.2093423728814	0
4.73	59.3737069767442	0	1	0	1	0	59.3737069767442	0
4.74	59.5385755274262	0	1	0	1	0	59.5385755274262	0
4.75	59.7039473684211	0	1	0	1	0	59.7039473684211	0
4.76	59.8698218487395	0	1	0	1	0	59.8698218487395	0
4.77	60.0361983228511	0	1	0	1	0	60.0361983228511	0
4.78	60.2030761506276	0	1	0	1	0	60.2030761506276	0
4.79	60.370454697286	0	1	0	1	0	60.370454697286	0
4.8	60.5383333333333	0	1	0	1	0	60.5383333333333	0
4.81	60.7067114345114	0	1	0	1	0	60.7067114345114	0
4.82	60.8755883817427	0	1	0	1	0	60.8755883817427	0
4.83	61.0449635610766	0	1	0	1	0	61.0449635610766	0
4.84	61.2148363636364	0	1	0	1	0	61.2148363636364	0
4.85	61.385206185567	0	1	0	1	0	61.385206185567	0
4.86	61.5560724279835	0	1	0	1	0	61.5560724279835	0
4.87	61.7274344969199	0	1	0	1	0	61.7274344969199	0
4.88	61.8992918032787	0	1	0	1	0	61.8992918032787	0
4.89	62.0716437627812	0	1	0	1	0	62.0716437627812	0
4.9	62.2444897959184	0	1	0	1	0	62.2444897959184	0
4.91	62.4178293279022	0	1	0	1	0	62.4178293279022	0
4.92	62.5916617886179	0	1	0	1	0	62.5916617886179	0
4.93	62.7659866125761	0	1	0	1	0	62.7659866125761	0
4.94	62.9408032388664	0	1	0	1	0	62.9408032388664	0
4.95	63.1161111111111	0	1	0	1	0	63.1161111111111	0
4.96	63.2919096774194	0	1	0	1	0	63.2919096774194	0
4.97	63.4681983903421	0	1	0	1	0	63.4681983903421	0
4.98	63.6449767068273	0	1	0	1	0	63.6449767068273	0
4.99	63.8222440881764	0	1	0	1	0	63.8222440881764	0
