# GHZ S RI R 50
1	55.2	0	1	0	1	0	55.2	0
1.01	54.7491704950495	0	1	0	1	0	54.7491704950495	0
1.02	54.3084878431373	0	1	0	1	0	54.3084878431373	0
1.03	53.8776693203883	0	1	0	1	0	53.8776693203883	0
1.04	53.4564430769231	0	1	0	1	0	53.4564430769231	0
1.05	53.0445476190476	0	1	0	1	0	53.0445476190476	0
1.06	52.6417313207547	0	1	0	1	0	52.6417313207547	0
1.07	52.2477519626168	0	1	0	1	0	52.2477519626168	0
1.08	51.8623762962963	0	1	0	1	0	51.8623762962963	0
1.09	51.4853796330275	0	1	0	1	0	51.4853796330275	0
1.1	51.1165454545455	0	1	0	1	0	51.1165454545455	0
1.11	50.755665045045	0	1	0	1	0	50.755665045045	0
1.12	50.4025371428571	0	1	0	1	0	50.4025371428571	0
1.13	50.0569676106195	0	1	0	1	0	50.0569676106195	0
1.14	49.718769122807	0	1	0	1	0	49.718769122807	0
1.15	49.3877608695652	0	1	0	1	0	49.3877608695652	0
1.16	49.0637682758621	0	1	0	1	0	49.0637682758621	0
1.17	48.7466227350427	0	1	0	1	0	48.7466227350427	0
1.18	48.4361613559322	0	1	0	1	0	48.4361613559322	0
1.19	48.1322267226891	0	1	0	1	0	48.1322267226891	0
1.2	47.8346666666667	0	1	0	1	0	47.8346666666667	0
1.21	47.5433340495868	0	1	0	1	0	47.5433340495868	0
1.22	47.258086557377	0	1	0	1	0	47.258086557377	0
1.23	46.978786504065	0	1	0	1	0	46.978786504065	0
1.24	46.7053006451613	0	1	0	1	0	46.7053006451613	0
1.25	46.4375	0	1	0	1	0	46.4375	0
1.26	46.1752596825397	0	1	0	1	0	46.1752596825397	0
1.27	45.9184587401575	0	1	0	1	0	45.9184587401575	0
1.28	45.66698	0	1	0	1	0	45.66698	0
1.29	45.4207099224806	0	1	0	1	0	45.4207099224806	0
1.3	45.1795384615385	0	1	0	1	0	45.1795384615385	0
1.31	44.9433589312977	0	1	0	1	0	44.9433589312977	0
1.32	44.7120678787879	0	1	0	1	0	44.7120678787879	0
1.33	44.485564962406	0	1	0	1	0	44.485564962406	0
1.34	44.2637528358209	0	1	0	1	0	44.2637528358209	0
1.35	44.046537037037	0	1	0	1	0	44.046537037037	0
1.36	43.8338258823529	0	1	0	1	0	43.8338258823529	0
1.37	43.6255303649635	0	1	0	1	0	43.6255303649635	0
1.38	43.421564057971	0	1	0	1	0	43.421564057971	0
1.39	43.2218430215827	0	1	0	1	0	43.2218430215827	0
1.4	43.0262857142857	0	1	0	1	0	43.0262857142857	0
1.41	42.8348129078014	0	1	0	1	0	42.8348129078014	0
1.42	42.6473476056338	0	1	0	1	0	42.6473476056338	0
1.43	42.463814965035	0	1	0	1	0	42.463814965035	0
1.44	42.2841422222222	0	1	0	1	0	42.2841422222222	0
1.45	42.1082586206897	0	1	0	1	0	42.1082586206897	0
1.46	41.9360953424658	0	1	0	1	0	41.9360953424658	0
1.47	41.7675854421769	0	1	0	1	0	41.7675854421769	0
1.48	41.6026637837838	0	1	0	1	0	41.6026637837838	0
1.49	41.4412669798658	0	1	0	1	0	41.4412669798658	0
1.5	41.2833333333333	0	1	0	1	0	41.2833333333333	0
1.51	41.128802781457	0	1	0	1	0	41.128802781457	0
1.52	40.9776168421053	0	1	0	1	0	40.9776168421053	0
1.53	40.8297185620915	0	1	0	1	0	40.8297185620915	0
1.54	40.6850524675325	0	1	0	1	0	40.6850524675325	0
1.55	40.543564516129	0	1	0	1	0	40.543564516129	0
1.56	40.4052020512821	0	1	0	1	0	40.4052020512821	0
1.57	40.2699137579618	0	1	0	1	0	40.2699137579618	0
1.58	40.1376496202532	0	1	0	1	0	40.1376496202532	0
1.59	40.0083608805031	0	1	0	1	0	40.0083608805031	0
1.6	39.882	0	1	0	1	0	39.882	0
1.61	39.758520621118	0	1	0	1	0	39.758520621118	0
1.62	39.6378775308642	0	1	0	1	0	39.6378775308642	0
1.63	39.5200266257669	0	1	0	1	0	39.5200266257669	0
1.64	39.4049248780488	0	1	0	1	0	39.4049248780488	0
1.65	39.2925303030303	0	1	0	1	0	39.2925303030303	0
1.66	39.1828019277108	0	1	0	1	0	39.1828019277108	0
1.67	39.075699760479	0	1	0	1	0	39.075699760479	0
1.68	38.9711847619048	0	1	0	1	0	38.9711847619048	0
1.69	38.8692188165681	0	1	0	1	0	38.8692188165681	0
1.7	38.7697647058824	0	1	0	1	0	38.7697647058824	0
1.71	38.6727860818713	0	1	0	1	0	38.6727860818713	0
1.72	38.5782474418605	0	1	0	1	0	38.5782474418605	0
1.73	38.4861141040462	0	1	0	1	0	38.4861141040462	0
1.74	38.396352183908	0	1	0	1	0	38.396352183908	0
1.75	38.3089285714286	0	1	0	1	0	38.3089285714286	0
1.76	38.2238109090909	0	1	0	1	0	38.2238109090909	0
1.77	38.1409675706215	0	1	0	1	0	38.1409675706215	0
1.78	38.0603676404494	0	1	0	1	0	38.0603676404494	0
1.79	37.9819808938547	0	1	0	1	0	37.9819808938547	0
1.8	37.9057777777778	0	1	0	1	0	37.9057777777778	0
1.81	37.8317293922652	0	1	0	1	0	37.8317293922652	0
1.82	37.7598074725275	0	1	0	1	0	37.7598074725275	0
1.83	37.6899843715847	0	1	0	1	0	37.6899843715847	0
1.84	37.6222330434783	0	1	0	1	0	37.6222330434783	0
1.85	37.556527027027	0	1	0	1	0	37.556527027027	0
1.86	37.4928404301075	0	1	0	1	0	37.4928404301075	0
1.87	37.4311479144385	0	1	0	1	0	37.4311479144385	0
1.88	37.3714246808511	0	1	0	1	0	37.3714246808511	0
1.89	37.3136464550265	0	1	0	1	0	37.3136464550265	0
1.9	37.2577894736842	0	1	0	1	0	37.2577894736842	0
1.91	37.2038304712042	0	1	0	1	0	37.2038304712042	0
1.92	37.1517466666667	0	1	0	1	0	37.1517466666667	0
1.93	37.1015157512953	0	1	0	1	0	37.1015157512953	0
1.94	37.0531158762887	0	1	0	1	0	37.0531158762887	0
1.95	37.0065256410256	0	1	0	1	0	37.0065256410256	0
1.96	36.9617240816327	0	1	0	1	0	36.9617240816327	0
1.97	36.9186906598985	0	1	0	1	0	36.9186906598985	0
1.98	36.8774052525253	0	1	0	1	0	36.8774052525253	0
1.99	36.8378481407035	0	1	0	1	0	36.8378481407035	0
2	36.8	0	1	0	1	0	36.8	0
2.01	36.7638418905473	0	1	0	1	0	36.7638418905473	0
2.02	36.7293552475248	0	1	0	1	0	36.7293552475248	0
2.03	36.6965218719212	0	1	0	1	0	36.6965218719212	0
2.04	36.6653239215686	0	1	0	1	0	36.6653239215686	0
2.05	36.635743902439	0	1	0	1	0	36.635743902439	0
2.06	36.6077646601942	0	1	0	1	0	36.6077646601942	0
2.07	36.5813693719807	0	1	0	1	0	36.5813693719807	0
2.08	36.5565415384615	0	1	0	1	0	36.5565415384615	0
2.09	36.5332649760766	0	1	0	1	0	36.5332649760766	0
2.1	36.5115238095238	0	1	0	1	0	36.5115238095238	0
2.11	36.491302464455	0	1	0	1	0	36.491302464455	0
2.12	36.4725856603774	0	1	0	1	0	36.4725856603774	0
2.13	36.4553584037559	0	1	0	1	0	36.4553584037559	0
2.14	36.4396059813084	0	1	0	1	0	36.4396059813084	0
2.15	36.4253139534884	0	1	0	1	0	36.4253139534884	0
2.16	36.4124681481482	0	1	0	1	0	36.4124681481482	0
2.17	36.4010546543779	0	1	0	1	0	36.4010546543779	0
2.18	36.3910598165138	0	1	0	1	0	36.3910598165138	0
2.19	36.3824702283105	0	1	0	1	0	36.3824702283105	0
2.2	36.3752727272727	0	1	0	1	0	36.3752727272727	0
2.21	36.3694543891403	0	1	0	1	0	36.3694543891403	0
2.22	36.3650025225225	0	1	0	1	0	36.3650025225225	0
2.23	36.3619046636771	0	1	0	1	0	36.3619046636771	0
2.24	36.3601485714286	0	1	0	1	0	36.3601485714286	0
2.25	36.3597222222222	0	1	0	1	0	36.3597222222222	0
2.26	36.3606138053097	0	1	0	1	0	36.3606138053097	0
2.27	36.3628117180617	0	1	0	1	0	36.3628117180617	0
2.28	36.3663045614035	0	1	0	1	0	36.3663045614035	0
2.29	36.3710811353712	0	1	0	1	0	36.3710811353712	0
2.3	36.3771304347826	0	1	0	1	0	36.3771304347826	0
2.31	36.3844416450216	0	1	0	1	0	36.3844416450216	0
2.32	36.393004137931	0	1	0	1	0	36.393004137931	0
2.33	36.4028074678112	0	1	0	1	0	36.4028074678112	0
2.34	36.4138413675214	0	1	0	1	0	36.4138413675214	0
2.35	36.4260957446809	0	1	0	1	0	36.4260957446809	0
2.36	36.4395606779661	0	1	0	1	0	36.4395606779661	0
2.37	36.4542264135021	0	1	0	1	0	36.4542264135021	0
2.38	36.4700833613445	0	1	0	1	0	36.4700833613445	0
2.39	36.4871220920502	0	1	0	1	0	36.4871220920502	0
2.4	36.5053333333333	0	1	0	1	0	36.5053333333333	0
2.41	36.524707966805	0	1	0	1	0	36.524707966805	0
2.42	36.5452370247934	0	1	0	1	0	36.5452370247934	0
2.43	36.5669116872428	0	1	0	1	0	36.5669116872428	0
2.44	36.5897232786885	0	1	0	1	0	36.5897232786885	0
2.45	36.6136632653061	0	1	0	1	0	36.6136632653061	0
2.46	36.6387232520325	0	1	0	1	0	36.6387232520325	0
2.47	36.6648949797571	0	1	0	1	0	36.6648949797571	0
2.48	36.6921703225806	0	1	0	1	0	36.6921703225806	0
2.49	36.7205412851406	0	1	0	1	0	36.7205412851406	0
2.5	36.75	0	1	0	1	0	36.75	0
2.51	36.7805387250996	0	1	0	1	0	36.7805387250996	0
2.52	36.8121498412698	0	1	0	1	0	36.8121498412698	0
2.53	36.8448258498024	0	1	0	1	0	36.8448258498024	0
2.54	36.8785593700787	0	1	0	1	0	36.8785593700787	0
2.55	36.9133431372549	0	1	0	1	0	36.9133431372549	0
2.56	36.94917	0	1	0	1	0	36.94917	0
2.57	36.9860329182879	0	1	0	1	0	36.9860329182879	0
2.58	37.0239249612403	0	1	0	1	0	37.0239249612403	0
2.59	37.0628393050193	0	1	0	1	0	37.0628393050193	0
2.6	37.1027692307692	0	1	0	1	0	37.1027692307692	0
2.61	37.1437081226054	0	1	0	1	0	37.1437081226054	0
2.62	37.1856494656489	0	1	0	1	0	37.1856494656489	0
2.63	37.2285868441065	0	1	0	1	0	37.2285868441065	0
2.64	37.2725139393939	0	1	0	1	0	37.2725139393939	0
2.65	37.3174245283019	0	1	0	1	0	37.3174245283019	0
2.66	37.363312481203	0	1	0	1	0	37.363312481203	0
2.67	37.4101717602996	0	1	0	1	0	37.4101717602996	0
2.68	37.4579964179105	0	1	0	1	0	37.4579964179105	0
2.69	37.5067805947955	0	1	0	1	0	37.5067805947955	0
2.7	37.5565185185185	0	1	0	1	0	37.5565185185185	0
2.71	37.607204501845	0	1	0	1	0	37.607204501845	0
2.72	37.6588329411765	0	1	0	1	0	37.6588329411765	0
2.73	37.7113983150183	0	1	0	1	0	37.7113983150183	0
2.74	37.7648951824818	0	1	0	1	0	37.7648951824818	0
2.75	37.8193181818182	0	1	0	1	0	37.8193181818182	0
2.76	37.8746620289855	0	1	0	1	0	37.8746620289855	0
2.77	37.9309215162455	0	1	0	1	0	37.9309215162455	0
2.78	37.9880915107914	0	1	0	1	0	37.9880915107914	0
2.79	38.046166953405	0	1	0	1	0	38.046166953405	0
2.8	38.1051428571429	0	1	0	1	0	38.1051428571429	0
2.81	38.1650143060498	0	1	0	1	0	38.1650143060498	0
2.82	38.2257764539007	0	1	0	1	0	38.2257764539007	0
2.83	38.2874245229682	0	1	0	1	0	38.2874245229682	0
2.84	38.3499538028169	0	1	0	1	0	38.3499538028169	0
2.85	38.4133596491228	0	1	0	1	0	38.4133596491228	0
2.86	38.4776374825175	0	1	0	1	0	38.4776374825175	0
2.87	38.5427827874564	0	1	0	1	0	38.5427827874564	0
2.88	38.6087911111111	0	1	0	1	0	38.6087911111111	0
2.89	38.6756580622837	0	1	0	1	0	38.6756580622837	0
2.9	38.7433793103448	0	1	0	1	0	38.7433793103448	0
2.91	38.8119505841924	0	1	0	1	0	38.8119505841924	0
2.92	38.8813676712329	0	1	0	1	0	38.8813676712329	0
2.93	38.9516264163823	0	1	0	1	0	38.9516264163823	0
2.94	39.0227227210884	0	1	0	1	0	39.0227227210884	0
2.95	39.0946525423729	0	1	0	1	0	39.0946525423729	0
2.96	39.1674118918919	0	1	0	1	0	39.1674118918919	0
2.97	39.2409968350168	0	1	0	1	0	39.2409968350168	0
2.98	39.3154034899329	0	1	0	1	0	39.3154034899329	0
2.99	39.3906280267559	0	1	0	1	0	39.3906280267559	0
3	39.4666666666667	0	1	0	1	0	39.4666666666667	0
3.01	39.5435156810631	0	1	0	1	0	39.5435156810631	0
3.02	39.6211713907285	0	1	0	1	0	39.6211713907285	0
3.03	39.6996301650165	0	1	0	1	0	39.6996301650165	0
3.04	39.7788884210526	0	1	0	1	0	39.7788884210526	0
3.05	39.8589426229508	0	1	0	1	0	39.8589426229508	0
3.06	39.9397892810457	0	1	0	1	0	39.9397892810457	0
3.07	40.0214249511401	0	1	0	1	0	40.0214249511401	0
3.08	40.1038462337662	0	1	0	1	0	40.1038462337662	0
3.09	40.1870497734628	0	1	0	1	0	40.1870497734628	0
3.1	40.2710322580645	0	1	0	1	0	40.2710322580645	0
3.11	40.3557904180064	0	1	0	1	0	40.3557904180064	0
3.12	40.441321025641	0	1	0	1	0	40.441321025641	0
3.13	40.5276208945687	0	1	0	1	0	40.5276208945687	0
3.14	40.6146868789809	0	1	0	1	0	40.6146868789809	0
3.15	40.7025158730159	0	1	0	1	0	40.7025158730159	0
3.16	40.7911048101266	0	1	0	1	0	40.7911048101266	0
3.17	40.8804506624606	0	1	0	1	0	40.8804506624606	0
3.18	40.9705504402516	0	1	0	1	0	40.9705504402516	0
3.19	41.0614011912226	0	1	0	1	0	41.0614011912226	0
3.2	41.153	0	1	0	1	0	41.153	0
3.21	41.2453439875389	0	1	0	1	0	41.2453439875389	0
3.22	41.338430310559	0	1	0	1	0	41.338430310559	0
3.23	41.4322561609907	0	1	0	1	0	41.4322561609907	0
3.24	41.5268187654321	0	1	0	1	0	41.5268187654321	0
3.25	41.6221153846154	0	1	0	1	0	41.6221153846154	0
3.26	41.7181433128834	0	1	0	1	0	41.7181433128834	0
3.27	41.8148998776758	0	1	0	1	0	41.8148998776758	0
3.28	41.9123824390244	0	1	0	1	0	41.9123824390244	0
3.29	42.0105883890578	0	1	0	1	0	42.0105883890578	0
3.3	42.1095151515152	0	1	0	1	0	42.1095151515152	0
3.31	42.2091601812689	0	1	0	1	0	42.2091601812689	0
3.32	42.3095209638554	0	1	0	1	0	42.3095209638554	0
3.33	42.410595015015	0	1	0	1	0	42.410595015015	0
3.34	42.5123798802395	0	1	0	1	0	42.5123798802395	0
3.35	42.6148731343284	0	1	0	1	0	42.6148731343284	0
3.36	42.7180723809524	0	1	0	1	0	42.7180723809524	0
3.37	42.8219752522255	0	1	0	1	0	42.8219752522255	0
3.38	42.926579408284	0	1	0	1	0	42.926579408284	0
3.39	43.0318825368732	0	1	0	1	0	43.0318825368732	0
3.4	43.1378823529412	0	1	0	1	0	43.1378823529412	0
3.41	43.2445765982405	0	1	0	1	0	43.2445765982405	0
3.42	43.3519630409357	0	1	0	1	0	43.3519630409357	0
3.43	43.4600394752187	0	1	0	1	0	43.4600394752187	0
3.44	43.5688037209302	0	1	0	1	0	43.5688037209302	0
3.45	43.6782536231884	0	1	0	1	0	43.6782536231884	0
3.46	43.7883870520231	0	1	0	1	0	43.7883870520231	0
3.47	43.8992019020173	0	1	0	1	0	43.8992019020173	0
3.48	44.010696091954	0	1	0	1	0	44.010696091954	0
3.49	44.1228675644699	0	1	0	1	0	44.1228675644699	0
3.5	44.2357142857143	0	1	0	1	0	44.2357142857143	0
3.51	44.3492342450143	0	1	0	1	0	44.3492342450143	0
3.52	44.4634254545455	0	1	0	1	0	44.4634254545455	0
3.53	44.5782859490085	0	1	0	1	0	44.5782859490085	0
3.54	44.6938137853107	0	1	0	1	0	44.6938137853107	0
3.55	44.8100070422535	0	1	0	1	0	44.8100070422535	0
3.56	44.9268638202247	0	1	0	1	0	44.9268638202247	0
3.57	45.0443822408964	0	1	0	1	0	45.0443822408964	0
3.58	45.1625604469274	0	1	0	1	0	45.1625604469274	0
3.59	45.2813966016713	0	1	0	1	0	45.2813966016713	0
3.6	45.4008888888889	0	1	0	1	0	45.4008888888889	0
3.61	45.5210355124654	0	1	0	1	0	45.5210355124654	0
3.62	45.6418346961326	0	1	0	1	0	45.6418346961326	0
3.63	45.7632846831956	0	1	0	1	0	45.7632846831956	0
3.64	45.8853837362637	0	1	0	1	0	45.8853837362637	0
3.65	46.0081301369863	0	1	0	1	0	46.0081301369863	0
3.66	46.1315221857924	0	1	0	1	0	46.1315221857924	0
3.67	46.2555582016349	0	1	0	1	0	46.2555582016349	0
3.68	46.3802365217391	0	1	0	1	0	46.3802365217391	0
3.69	46.505555501355	0	1	0	1	0	46.505555501355	0
3.7	46.6315135135135	0	1	0	1	0	46.6315135135135	0
3.71	46.7581089487871	0	1	0	1	0	46.7581089487871	0
3.72	46.8853402150538	0	1	0	1	0	46.8853402150538	0
3.73	47.0132057372654	0	1	0	1	0	47.0132057372654	0
3.74	47.1417039572193	0	1	0	1	0	47.1417039572193	0
3.75	47.2708333333333	0	1	0	1	0	47.2708333333333	0
3.76	47.4005923404255	0	1	0	1	0	47.4005923404255	0
3.77	47.530979469496	0	1	0	1	0	47.530979469496	0
3.78	47.6619932275132	0	1	0	1	0	47.6619932275132	0
3.79	47.7936321372032	0	1	0	1	0	47.7936321372032	0
3.8	47.9258947368421	0	1	0	1	0	47.9258947368421	0
3.81	48.0587795800525	0	1	0	1	0	48.0587795800525	0
3.82	48.1922852356021	0	1	0	1	0	48.1922852356021	0
3.83	48.3264102872063	0	1	0	1	0	48.3264102872063	0
3.84	48.4611533333333	0	1	0	1	0	48.4611533333333	0
3.85	48.596512987013	0	1	0	1	0	48.596512987013	0
3.86	48.7324878756477	0	1	0	1	0	48.7324878756477	0
3.87	48.8690766408269	0	1	0	1	0	48.8690766408269	0
3.88	49.0062779381443	0	1	0	1	0	49.0062779381443	0
3.89	49.144090437018	0	1	0	1	0	49.144090437018	0
3.9	49.2825128205128	0	1	0	1	0	49.2825128205128	0
3.91	49.4215437851663	0	1	0	1	0	49.4215437851663	0
3.92	49.5611820408163	0	1	0	1	0	49.5611820408163	0
3.93	49.7014263104326	0	1	0	1	0	49.7014263104326	0
3.94	49.8422753299492	0	1	0	1	0	49.8422753299492	0
3.95	49.9837278481013	0	1	0	1	0	49.9837278481013	0
3.96	50.1257826262626	0	1	0	1	0	50.1257826262626	0
3.97	50.2684384382872	0	1	0	1	0	50.2684384382872	0
3.98	50.4116940703518	0	1	0	1	0	50.4116940703518	0
3.99	50.555548320802	0	1	0	1	0	50.555548320802	0
4	50.7	0	1	0	1	0	50.7	0
4.01	50.8450479301746	0	1	0	1	0	50.8450479301746	0
4.02	50.9906909452736	0	1	0	1	0	50.9906909452736	0
4.03	51.1369278908189	0	1	0	1	0	51.1369278908189	0
4.04	51.2837576237624	0	1	0	1	0	51.2837576237624	0
4.05	51.4311790123457	0	1	0	1	0	51.4311790123457	0
4.06	51.5791909359606	0	1	0	1	0	51.5791909359606	0
4.07	51.7277922850123	0	1	0	1	0	51.7277922850123	0
4.08	51.8769819607843	0	1	0	1	0	51.8769819607843	0
4.09	52.0267588753056	0	1	0	1	0	52.0267588753056	0
4.1	52.1771219512195	0	1	0	1	0	52.1771219512195	0
4.11	52.3280701216545	0	1	0	1	0	52.3280701216545	0
4.12	52.4796023300971	0	1	0	1	0	52.4796023300971	0
4.13	52.6317175302663	0	1	0	1	0	52.6317175302663	0
4.14	52.7844146859904	0	1	0	1	0	52.7844146859904	0
4.15	52.9376927710844	0	1	0	1	0	52.9376927710844	0
4.16	53.0915507692308	0	1	0	1	0	53.0915507692308	0
4.17	53.2459876738609	0	1	0	1	0	53.2459876738609	0
4.18	53.4010024880383	0	1	0	1	0	53.4010024880383	0
4.19	53.5565942243437	0	1	0	1	0	53.5565942243437	0
4.2	53.7127619047619	0	1	0	1	0	53.7127619047619	0
4.21	53.8695045605701	0	1	0	1	0	53.8695045605701	0
4.22	54.0268212322275	0	1	0	1	0	54.0268212322275	0
4.23	54.1847109692672	0	1	0	1	0	54.1847109692672	0
4.24	54.3431728301887	0	1	0	1	0	54.3431728301887	0
4.25	54.5022058823529	0	1	0	1	0	54.5022058823529	0
4.26	54.6618092018779	0	1	0	1	0	54.6618092018779	0
4.27	54.8219818735363	0	1	0	1	0	54.8219818735363	0
4.28	54.9827229906542	0	1	0	1	0	54.9827229906542	0
4.29	55.1440316550117	0	1	0	1	0	55.1440316550117	0
4.3	55.3059069767442	0	1	0	1	0	55.3059069767442	0
4.31	55.468348074246	0	1	0	1	0	55.468348074246	0
4.32	55.6313540740741	0	1	0	1	0	55.6313540740741	0
4.33	55.7949241108545	0	1	0	1	0	55.7949241108545	0
4.34	55.9590573271889	0	1	0	1	0	55.9590573271889	0
4.35	56.1237528735632	0	1	0	1	0	56.1237528735632	0
4.36	56.2890099082569	0	1	0	1	0	56.2890099082569	0
4.37	56.454827597254	0	1	0	1	0	56.454827597254	0
4.38	56.6212051141553	0	1	0	1	0	56.6212051141553	0
4.39	56.7881416400911	0	1	0	1	0	56.7881416400911	0
4.4	56.9556363636364	0	1	0	1	0	56.9556363636364	0
4.41	57.1236884807256	0	1	0	1	0	57.1236884807256	0
4.42	57.2922971945701	0	1	0	1	0	57.2922971945701	0
4.43	57.4614617155756	0	1	0	1	0	57.4614617155756	0
4.44	57.6311812612613	0	1	0	1	0	57.6311812612613	0
4.45	57.8014550561798	0	1	0	1	0	57.8014550561798	0
4.46	57.9722823318386	0	1	0	1	0	57.9722823318386	0
4.47	58.1436623266219	0	1	0	1	0	58.1436623266219	0
4.48	58.3155942857143	0	1	0	1	0	58.3155942857143	0
4.49	58.4880774610245	0	1	0	1	0	58.4880774610245	0
4.5	58.6611111111111	0	1	0	1	0	58.6611111111111	0
4.51	58.8346945011087	0	1	0	1	0	58.8346945011087	0
4.52	59.0088269026549	0	1	0	1	0	59.0088269026549	0
4.53	59.183507593819	0	1	0	1	0	59.183507593819	0
4.54	59.3587358590308	0	1	0	1	0	59.3587358590308	0
4.55	59.534510989011	0	1	0	1	0	59.534510989011	0
4.56	59.7108322807018	0	1	0	1	0	59.7108322807018	0
4.57	59.8876990371991	0	1	0	1	0	59.8876990371991	0
4.58	60.0651105676856	0	1	0	1	0	60.0651105676856	0
4.59	60.2430661873638	0	1	0	1	0	60.2430661873638	0
4.6	60.4215652173913	0	1	0	1	0	60.4215652173913	0
4.61	60.6006069848156	0	1	0	1	0	60.6006069848156	0
4.62	60.7801908225108	0	1	0	1	0	60.7801908225108	0
4.63	60.9603160691145	0	1	0	1	0	60.9603160691145	0
4.64	61.1409820689655	0	1	0	1	0	61.1409820689655	0
4.65	61.322188172043	0	1	0	1	0	61.322188172043	0
4.66	61.5039337339056	0	1	0	1	0	61.5039337339056	0
4.67	61.6862181156317	0	1	0	1	0	61.6862181156317	0
4.68	61.8690406837607	0	1	0	1	0	61.8690406837607	0
4.69	62.0524008102345	0	1	0	1	0	62.0524008102345	0
4.7	62.2362978723404	0	1	0	1	0	62.2362978723404	0
4.71	62.4207312526539	0	1	0	1	0	62.4207312526539	0
4.72	62.6057003389831	0	1	0	1	0	62.6057003389831	0
4.73	62.7912045243129	0	1	0	1	0	62.7912045243129	0
4.74	62.9772432067511	0	1	0	1	0	62.9772432067511	0
4.75	63.1638157894737	0	1	0	1	0	63.1638157894737	0
4.76	63.3509216806723	0	1	0	1	0	63.3509216806723	0
4.77	63.5385602935011	0	1	0	1	0	63.5385602935011	0
4.78	63.7267310460251	0	1	0	1	0	63.7267310460251	0
4.79	63.9154333611691	0	1	0	1	0	63.9154333611691	0
4.8	64.1046666666667	0	1	0	1	0	64.1046666666667	0
4.81	64.2944303950104	0	1	0	1	0	64.2944303950104	0
4.82	64.4847239834025	0	1	0	1	0	64.4847239834025	0
4.83	64.675546873706	0	1	0	1	0	64.675546873706	0
4.84	64.8668985123967	0	1	0	1	0	64.8668985123967	0
4.85	65.0587783505155	0	1	0	1	0	65.0587783505155	0
4.86	65.2511858436214	0	1	0	1	0	65.2511858436214	0
4.87	65.4441204517454	0	1	0	1	0	65.4441204517454	0
4.88	65.6375816393443	0	1	0	1	0	65.6375816393443	0
4.89	65.8315688752556	0	1	0	1	0	65.8315688752556	0
4.9	66.0260816326531	0	1	0	1	0	66.0260816326531	0
4.91	66.221119389002	0	1	0	1	0	66.221119389002	0
4.92	66.4166816260163	0	1	0	1	0	66.4166816260163	0
4.93	66.6127678296146	0	1	0	1	0	66.6127678296146	0
4.94	66.8093774898785	0	1	0	1	0	66.8093774898785	0
4.95	67.0065101010101	0	1	0	1	0	67.0065101010101	0
4.96	67.2041651612903	0	1	0	1	0	67.2041651612903	0
