# GHZ S RI R 50
1	59.8729072011856	0	1	0	1	0	59.8729072011856	0
1.01	59.354899994161	0	1	0	1	0	59.354899994161	0
1.02	58.8482059489281	0	1	0	1	0	58.8482059489281	0
1.03	58.3525068918895	0	1	0	1	0	58.3525068918895	0
1.04	57.8674968868938	0	1	0	1	0	57.8674968868938	0
1.05	57.3928816525001	0	1	0	1	0	57.3928816525001	0
1.06	56.9283780122277	0	1	0	1	0	56.9283780122277	0
1.07	56.4737133756322	0	1	0	1	0	56.4737133756322	0
1.08	56.0286252482121	0	1	0	1	0	56.0286252482121	0
1.09	55.5928607682911	0	1	0	1	0	55.5928607682911	0
1.1	55.1661762691635	0	1	0	1	0	55.1661762691635	0
1.11	54.7483368649052	0	1	0	1	0	54.7483368649052	0
1.12	54.3391160583756	0	1	0	1	0	54.3391160583756	0
1.13	53.9382953700318	0	1	0	1	0	53.9382953700318	0
1.14	53.5456639862797	0	1	0	1	0	53.5456639862797	0
1.15	53.161018426172	0	1	0	1	0	53.161018426172	0
1.16	52.784162225346	0	1	0	1	0	52.784162225346	0
1.17	52.4149056361689	0	1	0	1	0	52.4149056361689	0
1.18	52.0530653431315	0	1	0	1	0	52.0530653431315	0
1.19	51.6984641925903	0	1	0	1	0	51.6984641925903	0
1.2	51.350930936023	0	1	0	1	0	51.350930936023	0
1.21	51.0102999860159	0	1	0	1	0	51.0102999860159	0
1.22	50.6764111842505	0	1	0	1	0	50.6764111842505	0
1.23	50.3491095808091	0	1	0	1	0	50.3491095808091	0
1.24	50.0282452241584	0	1	0	1	0	50.0282452241584	0
1.25	49.713672961214	0	1	0	1	0	49.713672961214	0
1.26	49.4052522469261	0	1	0	1	0	49.4052522469261	0
1.27	49.1028469628607	0	1	0	1	0	49.1028469628607	0
1.28	48.8063252442847	0	1	0	1	0	48.8063252442847	0
1.29	48.5155593152939	0	1	0	1	0	48.5155593152939	0
1.3	48.2304253315506	0	1	0	1	0	48.2304253315506	0
1.31	47.9508032302235	0	1	0	1	0	47.9508032302235	0
1.32	47.6765765867487	0	1	0	1	0	47.6765765867487	0
1.33	47.4076324780533	0	1	0	1	0	47.4076324780533	0
1.34	47.1438613519022	0	1	0	1	0	47.1438613519022	0
1.35	46.8851569020525	0	1	0	1	0	46.8851569020525	0
1.36	46.6314159489154	0	1	0	1	0	46.6314159489154	0
1.37	46.3825383254449	0	1	0	1	0	46.3825383254449	0
1.38	46.1384267679879	0	1	0	1	0	46.1384267679879	0
1.39	45.8989868118448	0	1	0	1	0	45.8989868118448	0
1.4	45.6641266913079	0	1	0	1	0	45.6641266913079	0
1.41	45.4337572439517	0	1	0	1	0	45.4337572439517	0
1.42	45.2077918189685	0	1	0	1	0	45.2077918189685	0
1.43	44.9861461893494	0	1	0	1	0	44.9861461893494	0
1.44	44.7687384677245	0	1	0	1	0	44.7687384677245	0
1.45	44.5554890256859	0	1	0	1	0	44.5554890256859	0
1.46	44.346320416426	0	1	0	1	0	44.346320416426	0
1.47	44.1411573005332	0	1	0	1	0	44.1411573005332	0
1.48	43.9399263747963	0	1	0	1	0	43.9399263747963	0
1.49	43.7425563038754	0	1	0	1	0	43.7425563038754	0
1.5	43.5489776547066	0	1	0	1	0	43.5489776547066	0
1.51	43.3591228335122	0	1	0	1	0	43.3591228335122	0
1.52	43.1729260252983	0	1	0	1	0	43.1729260252983	0
1.53	42.9903231357242	0	1	0	1	0	42.9903231357242	0
1.54	42.8112517352376	0	1	0	1	0	42.8112517352376	0
1.55	42.6356510053712	0	1	0	1	0	42.6356510053712	0
1.56	42.4634616871056	0	1	0	1	0	42.4634616871056	0
1.57	42.2946260312053	0	1	0	1	0	42.2946260312053	0
1.58	42.129087750441	0	1	0	1	0	42.129087750441	0
1.59	41.966791973614	0	1	0	1	0	41.966791973614	0
1.6	41.8076852013058	0	1	0	1	0	41.8076852013058	0
1.61	41.6517152632758	0	1	0	1	0	41.6517152632758	0
1.62	41.4988312774378	0	1	0	1	0	41.4988312774378	0
1.63	41.3489836103453	0	1	0	1	0	41.3489836103453	0
1.64	41.2021238391242	0	1	0	1	0	41.2021238391242	0
1.65	41.0582047147878	0	1	0	1	0	41.0582047147878	0
1.66	40.9171801268794	0	1	0	1	0	40.9171801268794	0
1.67	40.7790050693845	0	1	0	1	0	40.7790050693845	0
1.68	40.64363560786	0	1	0	1	0	40.64363560786	0
1.69	40.5110288477317	0	1	0	1	0	40.5110288477317	0
1.7	40.3811429037092	0	1	0	1	0	40.3811429037092	0
1.71	40.2539368702751	0	1	0	1	0	40.2539368702751	0
1.72	40.1293707932031	0	1	0	1	0	40.1293707932031	0
1.73	40.0074056420641	0	1	0	1	0	40.0074056420641	0
1.74	39.88800328368	0	1	0	1	0	39.88800328368	0
1.75	39.7711264564885	0	1	0	1	0	39.7711264564885	0
1.76	39.6567387457808	0	1	0	1	0	39.6567387457808	0
1.77	39.5448045597794	0	1	0	1	0	39.5448045597794	0
1.78	39.4352891065221	0	1	0	1	0	39.4352891065221	0
1.79	39.3281583715207	0	1	0	1	0	39.3281583715207	0
1.8	39.2233790961644	0	1	0	1	0	39.2233790961644	0
1.81	39.1209187568394	0	1	0	1	0	39.1209187568394	0
1.82	39.0207455447367	0	1	0	1	0	39.0207455447367	0
1.83	38.9228283463217	0	1	0	1	0	38.9228283463217	0
1.84	38.8271367244409	0	1	0	1	0	38.8271367244409	0
1.85	38.7336409000416	0	1	0	1	0	38.7336409000416	0
1.86	38.6423117344808	0	1	0	1	0	38.6423117344808	0
1.87	38.5531207124019	0	1	0	1	0	38.5531207124019	0
1.88	38.466039925158	0	1	0	1	0	38.466039925158	0
1.89	38.3810420547615	0	1	0	1	0	38.3810420547615	0
1.9	38.2981003583403	0	1	0	1	0	38.2981003583403	0
1.91	38.2171886530824	0	1	0	1	0	38.2171886530824	0
1.92	38.138281301651	0	1	0	1	0	38.138281301651	0
1.93	38.0613531980533	0	1	0	1	0	38.0613531980533	0
1.94	37.9863797539456	0	1	0	1	0	37.9863797539456	0
1.95	37.9133368853605	0	1	0	1	0	37.9133368853605	0
1.96	37.8422009998403	0	1	0	1	0	37.8422009998403	0
1.97	37.7729489839617	0	1	0	1	0	37.7729489839617	0
1.98	37.7055581912397	0	1	0	1	0	37.7055581912397	0
1.99	37.6400064303945	0	1	0	1	0	37.6400064303945	0
2	37.5762719539722	0	1	0	1	0	37.5762719539722	0
2.01	37.5143334473041	0	1	0	1	0	37.5143334473041	0
2.02	37.4541700177939	0	1	0	1	0	37.4541700177939	0
2.03	37.3957611845223	0	1	0	1	0	37.3957611845223	0
2.04	37.3390868681566	0	1	0	1	0	37.3390868681566	0
2.05	37.2841273811558	0	1	0	1	0	37.2841273811558	0
2.06	37.2308634182615	0	1	0	1	0	37.2308634182615	0
2.07	37.1792760472636	0	1	0	1	0	37.1792760472636	0
2.08	37.129346700033	0	1	0	1	0	37.129346700033	0
2.09	37.0810571638115	0	1	0	1	0	37.0810571638115	0
2.1	37.0343895727506	0	1	0	1	0	37.0343895727506	0
2.11	36.9893263996908	0	1	0	1	0	36.9893263996908	0
2.12	36.9458504481739	0	1	0	1	0	36.9458504481739	0
2.13	36.9039448446797	0	1	0	1	0	36.9039448446797	0
2.14	36.8635930310809	0	1	0	1	0	36.8635930310809	0
2.15	36.8247787573085	0	1	0	1	0	36.8247787573085	0
2.16	36.7874860742206	0	1	0	1	0	36.7874860742206	0
2.17	36.7516993266688	0	1	0	1	0	36.7516993266688	0
2.18	36.717403146755	0	1	0	1	0	36.717403146755	0
2.19	36.6845824472735	0	1	0	1	0	36.6845824472735	0
2.2	36.6532224153312	0	1	0	1	0	36.6532224153312	0
2.21	36.6233085061418	0	1	0	1	0	36.6233085061418	0
2.22	36.5948264369872	0	1	0	1	0	36.5948264369872	0
2.23	36.5677621813415	0	1	0	1	0	36.5677621813415	0
2.24	36.5421019631527	0	1	0	1	0	36.5421019631527	0
2.25	36.5178322512759	0	1	0	1	0	36.5178322512759	0
2.26	36.4949397540561	0	1	0	1	0	36.4949397540561	0
2.27	36.473411414052	0	1	0	1	0	36.473411414052	0
2.28	36.4532344029005	0	1	0	1	0	36.4532344029005	0
2.29	36.4343961163146	0	1	0	1	0	36.4343961163146	0
2.3	36.4168841692123	0	1	0	1	0	36.4168841692123	0
2.31	36.4006863909719	0	1	0	1	0	36.4006863909719	0
2.32	36.3857908208099	0	1	0	1	0	36.3857908208099	0
2.33	36.3721857032785	0	1	0	1	0	36.3721857032785	0
2.34	36.3598594838772	0	1	0	1	0	36.3598594838772	0
2.35	36.3488008047784	0	1	0	1	0	36.3488008047784	0
2.36	36.3389985006595	0	1	0	1	0	36.3389985006595	0
2.37	36.3304415946426	0	1	0	1	0	36.3304415946426	0
2.38	36.3231192943349	0	1	0	1	0	36.3231192943349	0
2.39	36.3170209879696	0	1	0	1	0	36.3170209879696	0
2.4	36.3121362406424	0	1	0	1	0	36.3121362406424	0
2.41	36.3084547906428	0	1	0	1	0	36.3084547906428	0
2.42	36.3059665458752	0	1	0	1	0	36.3059665458752	0
2.43	36.3046615803687	0	1	0	1	0	36.3046615803687	0
2.44	36.3045301308739	0	1	0	1	0	36.3045301308739	0
2.45	36.3055625935407	0	1	0	1	0	36.3055625935407	0
2.46	36.3077495206797	0	1	0	1	0	36.3077495206797	0
2.47	36.3110816176001	0	1	0	1	0	36.3110816176001	0
2.48	36.3155497395259	0	1	0	1	0	36.3155497395259	0
2.49	36.3211448885847	0	1	0	1	0	36.3211448885847	0
2.5	36.3278582108704	0	1	0	1	0	36.3278582108704	0
2.51	36.3356809935748	0	1	0	1	0	36.3356809935748	0
2.52	36.3446046621884	0	1	0	1	0	36.3446046621884	0
2.53	36.3546207777668	0	1	0	1	0	36.3546207777668	0
2.54	36.3657210342626	0	1	0	1	0	36.3657210342626	0
2.55	36.3778972559193	0	1	0	1	0	36.3778972559193	0
2.56	36.3911413947267	0	1	0	1	0	36.3911413947267	0
2.57	36.4054455279351	0	1	0	1	0	36.4054455279351	0
2.58	36.4208018556285	0	1	0	1	0	36.4208018556285	0
2.59	36.4372026983527	0	1	0	1	0	36.4372026983527	0
2.6	36.4546404947991	0	1	0	1	0	36.4546404947991	0
2.61	36.4731077995412	0	1	0	1	0	36.4731077995412	0
2.62	36.4925972808229	0	1	0	1	0	36.4925972808229	0
2.63	36.5131017183981	0	1	0	1	0	36.5131017183981	0
2.64	36.5346140014181	0	1	0	1	0	36.5346140014181	0
2.65	36.5571271263678	0	1	0	1	0	36.5571271263678	0
2.66	36.5806341950481	0	1	0	1	0	36.5806341950481	0
2.67	36.6051284126037	0	1	0	1	0	36.6051284126037	0
2.68	36.6306030855953	0	1	0	1	0	36.6306030855953	0
2.69	36.6570516201139	0	1	0	1	0	36.6570516201139	0
2.7	36.6844675199383	0	1	0	1	0	36.6844675199383	0
2.71	36.7128443847324	0	1	0	1	0	36.7128443847324	0
2.72	36.7421759082827	0	1	0	1	0	36.7421759082827	0
2.73	36.7724558767745	0	1	0	1	0	36.7724558767745	0
2.74	36.8036781671056	0	1	0	1	0	36.8036781671056	0
2.75	36.8358367452372	0	1	0	1	0	36.8358367452372	0
2.76	36.8689256645803	0	1	0	1	0	36.8689256645803	0
2.77	36.9029390644172	0	1	0	1	0	36.9029390644172	0
2.78	36.9378711683571	0	1	0	1	0	36.9378711683571	0
2.79	36.9737162828248	0	1	0	1	0	36.9737162828248	0
2.8	37.010468795582	0	1	0	1	0	37.010468795582	0
2.81	37.0481231742799	0	1	0	1	0	37.0481231742799	0
2.82	37.0866739650425	0	1	0	1	0	37.0866739650425	0
2.83	37.1261157910807	0	1	0	1	0	37.1261157910807	0
2.84	37.1664433513346	0	1	0	1	0	37.1664433513346	0
2.85	37.2076514191453	0	1	0	1	0	37.2076514191453	0
2.86	37.2497348409538	0	1	0	1	0	37.2497348409538	0
2.87	37.2926885350281	0	1	0	1	0	37.2926885350281	0
2.88	37.3365074902153	0	1	0	1	0	37.3365074902153	0
2.89	37.3811867647214	0	1	0	1	0	37.3811867647214	0
2.9	37.426721484915	0	1	0	1	0	37.426721484915	0
2.91	37.4731068441561	0	1	0	1	0	37.4731068441561	0
2.92	37.5203381016492	0	1	0	1	0	37.5203381016492	0
2.93	37.5684105813194	0	1	0	1	0	37.5684105813194	0
2.94	37.617319670712	0	1	0	1	0	37.617319670712	0
2.95	37.6670608199141	0	1	0	1	0	37.6670608199141	0
2.96	37.7176295404979	0	1	0	1	0	37.7176295404979	0
2.97	37.7690214044861	0	1	0	1	0	37.7690214044861	0
2.98	37.821232043337	0	1	0	1	0	37.821232043337	0
2.99	37.8742571469512	0	1	0	1	0	37.8742571469512	0
3	37.9280924626972	0	1	0	1	0	37.9280924626972	0
3.01	37.9827337944568	0	1	0	1	0	37.9827337944568	0
3.02	38.0381770016897	0	1	0	1	0	38.0381770016897	0
3.03	38.094417998516	0	1	0	1	0	38.094417998516	0
3.04	38.1514527528175	0	1	0	1	0	38.1514527528175	0
3.05	38.2092772853563	0	1	0	1	0	38.2092772853563	0
3.06	38.2678876689104	0	1	0	1	0	38.2678876689104	0
3.07	38.3272800274272	0	1	0	1	0	38.3272800274272	0
3.08	38.3874505351922	0	1	0	1	0	38.3874505351922	0
3.09	38.4483954160147	0	1	0	1	0	38.4483954160147	0
3.1	38.5101109424291	0	1	0	1	0	38.5101109424291	0
3.11	38.5725934349116	0	1	0	1	0	38.5725934349116	0
3.12	38.6358392611116	0	1	0	1	0	38.6358392611116	0
3.13	38.6998448350984	0	1	0	1	0	38.6998448350984	0
3.14	38.7646066166219	0	1	0	1	0	38.7646066166219	0
3.15	38.8301211103876	0	1	0	1	0	38.8301211103876	0
3.16	38.8963848653452	0	1	0	1	0	38.8963848653452	0
3.17	38.9633944739909	0	1	0	1	0	38.9633944739909	0
3.18	39.0311465716823	0	1	0	1	0	39.0311465716823	0
3.19	39.0996378359672	0	1	0	1	0	39.0996378359672	0
3.2	39.1688649859239	0	1	0	1	0	39.1688649859239	0
3.21	39.2388247815145	0	1	0	1	0	39.2388247815145	0
3.22	39.3095140229498	0	1	0	1	0	39.3095140229498	0
3.23	39.3809295500668	0	1	0	1	0	39.3809295500668	0
3.24	39.4530682417167	0	1	0	1	0	39.4530682417167	0
3.25	39.5259270151649	0	1	0	1	0	39.5259270151649	0
3.26	39.5995028255016	0	1	0	1	0	39.5995028255016	0
3.27	39.6737926650638	0	1	0	1	0	39.6737926650638	0
3.28	39.7487935628672	0	1	0	1	0	39.7487935628672	0
3.29	39.824502584049	0	1	0	1	0	39.824502584049	0
3.3	39.9009168293203	0	1	0	1	0	39.9009168293203	0
3.31	39.9780334344292	0	1	0	1	0	39.9780334344292	0
3.32	40.0558495696326	0	1	0	1	0	40.0558495696326	0
3.33	40.1343624391784	0	1	0	1	0	40.1343624391784	0
3.34	40.2135692807966	0	1	0	1	0	40.2135692807966	0
3.35	40.2934673651996	0	1	0	1	0	40.2934673651996	0
3.36	40.374053995591	0	1	0	1	0	40.374053995591	0
3.37	40.4553265071843	0	1	0	1	0	40.4553265071843	0
3.38	40.5372822667286	0	1	0	1	0	40.5372822667286	0
3.39	40.619918672044	0	1	0	1	0	40.619918672044	0
3.4	40.7032331515643	0	1	0	1	0	40.7032331515643	0
3.41	40.7872231638884	0	1	0	1	0	40.7872231638884	0
3.42	40.8718861973392	0	1	0	1	0	40.8718861973392	0
3.43	40.9572197695303	0	1	0	1	0	40.9572197695303	0
3.44	41.0432214269403	0	1	0	1	0	41.0432214269403	0
3.45	41.1298887444943	0	1	0	1	0	41.1298887444943	0
3.46	41.217219325153	0	1	0	1	0	41.217219325153	0
3.47	41.3052107995087	0	1	0	1	0	41.3052107995087	0
3.48	41.3938608253883	0	1	0	1	0	41.3938608253883	0
3.49	41.483167087463	0	1	0	1	0	41.483167087463	0
3.5	41.573127296865	0	1	0	1	0	41.573127296865	0
3.51	41.6637391908104	0	1	0	1	0	41.6637391908104	0
3.52	41.7550005322287	0	1	0	1	0	41.7550005322287	0
3.53	41.8469091093988	0	1	0	1	0	41.8469091093988	0
3.54	41.9394627355907	0	1	0	1	0	41.9394627355907	0
3.55	42.0326592487136	0	1	0	1	0	42.0326592487136	0
3.56	42.1264965109698	0	1	0	1	0	42.1264965109698	0
3.57	42.2209724085148	0	1	0	1	0	42.2209724085148	0
3.58	42.316084851122	0	1	0	1	0	42.316084851122	0
3.59	42.4118317718547	0	1	0	1	0	42.4118317718547	0
3.6	42.5082111267419	0	1	0	1	0	42.5082111267419	0
3.61	42.6052208944605	0	1	0	1	0	42.6052208944605	0
3.62	42.7028590760225	0	1	0	1	0	42.7028590760225	0
3.63	42.8011236944674	0	1	0	1	0	42.8011236944674	0
3.64	42.9000127945594	0	1	0	1	0	42.9000127945594	0
3.65	42.99952444249	0	1	0	1	0	42.99952444249	0
3.66	43.0996567255853	0	1	0	1	0	43.0996567255853	0
3.67	43.2004077520177	0	1	0	1	0	43.2004077520177	0
3.68	43.3017756505234	0	1	0	1	0	43.3017756505234	0
3.69	43.4037585701228	0	1	0	1	0	43.4037585701228	0
3.7	43.5063546798473	0	1	0	1	0	43.5063546798473	0
3.71	43.609562168469	0	1	0	1	0	43.609562168469	0
3.72	43.7133792442356	0	1	0	1	0	43.7133792442356	0
3.73	43.8178041346093	0	1	0	1	0	43.8178041346093	0
3.74	43.92283508601	0	1	0	1	0	43.92283508601	0
3.75	44.0284703635622	0	1	0	1	0	44.0284703635622	0
3.76	44.134708250847	0	1	0	1	0	44.134708250847	0
3.77	44.2415470496563	0	1	0	1	0	44.2415470496563	0
3.78	44.3489850797528	0	1	0	1	0	44.3489850797528	0
3.79	44.4570206786324	0	1	0	1	0	44.4570206786324	0
3.8	44.5656522012913	0	1	0	1	0	44.5656522012913	0
3.81	44.6748780199958	0	1	0	1	0	44.6748780199958	0
3.82	44.7846965240566	0	1	0	1	0	44.7846965240566	0
3.83	44.8951061196064	0	1	0	1	0	44.8951061196064	0
3.84	45.0061052293804	0	1	0	1	0	45.0061052293804	0
3.85	45.1176922925011	0	1	0	1	0	45.1176922925011	0
3.86	45.229865764266	0	1	0	1	0	45.229865764266	0
3.87	45.3426241159384	0	1	0	1	0	45.3426241159384	0
3.88	45.4559658345418	0	1	0	1	0	45.4559658345418	0
3.89	45.5698894226572	0	1	0	1	0	45.5698894226572	0
3.9	45.6843933982239	0	1	0	1	0	45.6843933982239	0
3.91	45.799476294343	0	1	0	1	0	45.799476294343	0
3.92	45.9151366590837	0	1	0	1	0	45.9151366590837	0
3.93	46.0313730552933	0	1	0	1	0	46.0313730552933	0
3.94	46.1481840604094	0	1	0	1	0	46.1481840604094	0
3.95	46.2655682662754	0	1	0	1	0	46.2655682662754	0
3.96	46.3835242789584	0	1	0	1	0	46.3835242789584	0
3.97	46.5020507185703	0	1	0	1	0	46.5020507185703	0
3.98	46.621146219091	0	1	0	1	0	46.621146219091	0
3.99	46.7408094281951	0	1	0	1	0	46.7408094281951	0
4	46.8610390070802	0	1	0	1	0	46.8610390070802	0
4.01	46.9818336302987	0	1	0	1	0	46.9818336302987	0
4.02	47.1031919855915	0	1	0	1	0	47.1031919855915	0
4.03	47.2251127737245	0	1	0	1	0	47.2251127737245	0
4.04	47.347594708327	0	1	0	1	0	47.347594708327	0
4.05	47.4706365157335	0	1	0	1	0	47.4706365157335	0
4.06	47.5942369348269	0	1	0	1	0	47.5942369348269	0
4.07	47.7183947168841	0	1	0	1	0	47.7183947168841	0
4.08	47.8431086254247	0	1	0	1	0	47.8431086254247	0
4.09	47.968377436061	0	1	0	1	0	47.968377436061	0
4.1	48.0941999363502	0	1	0	1	0	48.0941999363502	0
4.11	48.2205749256499	0	1	0	1	0	48.2205749256499	0
4.12	48.3475012149741	0	1	0	1	0	48.3475012149741	0
4.13	48.4749776268524	0	1	0	1	0	48.4749776268524	0
4.14	48.6030029951912	0	1	0	1	0	48.6030029951912	0
4.15	48.7315761651361	0	1	0	1	0	48.7315761651361	0
4.16	48.8606959929371	0	1	0	1	0	48.8606959929371	0
4.17	48.9903613458156	0	1	0	1	0	48.9903613458156	0
4.18	49.1205711018327	0	1	0	1	0	49.1205711018327	0
4.19	49.2513241497604	0	1	0	1	0	49.2513241497604	0
4.2	49.3826193889537	0	1	0	1	0	49.3826193889537	0
4.21	49.514455729225	0	1	0	1	0	49.514455729225	0
4.22	49.6468320907204	0	1	0	1	0	49.6468320907204	0
4.23	49.7797474037971	0	1	0	1	0	49.7797474037971	0
4.24	49.9132006089036	0	1	0	1	0	49.9132006089036	0
4.25	50.0471906564604	0	1	0	1	0	50.0471906564604	0
4.26	50.1817165067433	0	1	0	1	0	50.1817165067433	0
4.27	50.3167771297679	0	1	0	1	0	50.3167771297679	0
4.28	50.4523715051758	0	1	0	1	0	50.4523715051758	0
4.29	50.5884986221225	0	1	0	1	0	50.5884986221225	0
4.3	50.7251574791666	0	1	0	1	0	50.7251574791666	0
4.31	50.8623470841609	0	1	0	1	0	50.8623470841609	0
4.32	51.0000664541448	0	1	0	1	0	51.0000664541448	0
4.33	51.138314615238	0	1	0	1	0	51.138314615238	0
4.34	51.2770906025361	0	1	0	1	0	51.2770906025361	0
4.35	51.4163934600076	0	1	0	1	0	51.4163934600076	0
4.36	51.5562222403916	0	1	0	1	0	51.5562222403916	0
4.37	51.696576005098	0	1	0	1	0	51.696576005098	0
4.38	51.8374538241083	0	1	0	1	0	51.8374538241083	0
4.39	51.9788547758779	0	1	0	1	0	51.9788547758779	0
4.4	52.1207779472398	0	1	0	1	0	52.1207779472398	0
4.41	52.2632224333098	0	1	0	1	0	52.2632224333098	0
4.42	52.4061873373928	0	1	0	1	0	52.4061873373928	0
4.43	52.54967177089	0	1	0	1	0	52.54967177089	0
4.44	52.6936748532083	0	1	0	1	0	52.6936748532083	0
4.45	52.8381957116698	0	1	0	1	0	52.8381957116698	0
4.46	52.9832334814234	0	1	0	1	0	52.9832334814234	0
4.47	53.1287873053572	0	1	0	1	0	53.1287873053572	0
4.48	53.274856334012	0	1	0	1	0	53.274856334012	0
4.49	53.4214397254963	0	1	0	1	0	53.4214397254963	0
4.5	53.5685366454018	0	1	0	1	0	53.5685366454018	0
4.51	53.7161462667211	0	1	0	1	0	53.7161462667211	0
4.52	53.8642677697652	0	1	0	1	0	53.8642677697652	0
4.53	54.012900342083	0	1	0	1	0	54.012900342083	0
4.54	54.1620431783815	0	1	0	1	0	54.1620431783815	0
4.55	54.3116954804475	0	1	0	1	0	54.3116954804475	0
4.56	54.4618564570693	0	1	0	1	0	54.4618564570693	0
4.57	54.6125253239606	0	1	0	1	0	54.6125253239606	0
4.58	54.7637013036849	0	1	0	1	0	54.7637013036849	0
4.59	54.9153836255806	0	1	0	1	0	54.9153836255806	0
4.6	55.0675715256875	0	1	0	1	0	55.0675715256875	0
4.61	55.2202642466742	0	1	0	1	0	55.2202642466742	0
4.62	55.3734610377661	0	1	0	1	0	55.3734610377661	0
4.63	55.5271611546751	0	1	0	1	0	55.5271611546751	0
4.64	55.6813638595292	0	1	0	1	0	55.6813638595292	0
4.65	55.8360684208035	0	1	0	1	0	55.8360684208035	0
4.66	55.9912741132525	0	1	0	1	0	55.9912741132525	0
4.67	56.1469802178427	0	1	0	1	0	56.1469802178427	0
4.68	56.3031860216861	0	1	0	1	0	56.3031860216861	0
4.69	56.4598908179747	0	1	0	1	0	56.4598908179747	0
4.7	56.6170939059159	0	1	0	1	0	56.6170939059159	0
4.71	56.7747945906689	0	1	0	1	0	56.7747945906689	0
4.72	56.9329921832809	0	1	0	1	0	56.9329921832809	0
4.73	57.0916860006258	0	1	0	1	0	57.0916860006258	0
4.74	57.250875365342	0	1	0	1	0	57.250875365342	0
4.75	57.4105596057721	0	1	0	1	0	57.4105596057721	0
4.76	57.5707380559028	0	1	0	1	0	57.5707380559028	0
4.77	57.731410055306	0	1	0	1	0	57.731410055306	0
4.78	57.8925749490799	0	1	0	1	0	57.8925749490799	0
4.79	58.0542320877919	0	1	0	1	0	58.0542320877919	0
4.8	58.2163808274212	0	1	0	1	0	58.2163808274212	0
4.81	58.3790205293027	0	1	0	1	0	58.3790205293027	0
4.82	58.5421505600714	0	1	0	1	0	58.5421505600714	0
4.83	58.7057702916076	0	1	0	1	0	58.7057702916076	0
4.84	58.8698791009827	0	1	0	1	0	58.8698791009827	0
4.85	59.0344763704055	0	1	0	1	0	59.0344763704055	0
4.86	59.1995614871697	0	1	0	1	0	59.1995614871697	0
4.87	59.3651338436014	0	1	0	1	0	59.3651338436014	0
4.88	59.5311928370076	0	1	0	1	0	59.5311928370076	0
4.89	59.6977378696254	0	1	0	1	0	59.6977378696254	0
4.9	59.8647683485715	0	1	0	1	0	59.8647683485715	0
4.91	60.0322836857926	0	1	0	1	0	60.0322836857926	0
4.92	60.2002832980165	0	1	0	1	0	60.2002832980165	0
4.93	60.3687666067032	0	1	0	1	0	60.3687666067032	0
