# GHZ S RI R 50
1	54.5313366975373	0	1	0	1	0	54.5313366975373	0
1.01	54.0901050985903	0	1	0	1	0	54.0901050985903	0
1.02	53.6587860159609	0	1	0	1	0	53.6587860159609	0
1.03	53.2371030986946	0	1	0	1	0	53.2371030986946	0
1.04	52.82479062472	0	1	0	1	0	52.82479062472	0
1.05	52.4215929947113	0	1	0	1	0	52.4215929947113	0
1.06	52.0272642546002	0	1	0	1	0	52.0272642546002	0
1.07	51.6415676448629	0	1	0	1	0	51.6415676448629	0
1.08	51.2642751748471	0	1	0	1	0	51.2642751748471	0
1.09	50.8951672205298	0	1	0	1	0	50.8951672205298	0
1.1	50.5340321442159	0	1	0	1	0	50.5340321442159	0
1.11	50.1806659347944	0	1	0	1	0	50.1806659347944	0
1.12	49.834871867265	0	1	0	1	0	49.834871867265	0
1.13	49.4964601803444	0	1	0	1	0	49.4964601803444	0
1.14	49.1652477710399	0	1	0	1	0	49.1652477710399	0
1.15	48.8410579051584	0	1	0	1	0	48.8410579051584	0
1.16	48.5237199427897	0	1	0	1	0	48.5237199427897	0
1.17	48.2130690778663	0	1	0	1	0	48.2130690778663	0
1.18	47.9089460909672	0	1	0	1	0	47.9089460909672	0
1.19	47.6111971145847	0	1	0	1	0	47.6111971145847	0
1.2	47.3196734101282	0	1	0	1	0	47.3196734101282	0
1.21	47.0342311559849	0	1	0	1	0	47.0342311559849	0
1.22	46.7547312460052	0	1	0	1	0	46.7547312460052	0
1.23	46.4810390978162	0	1	0	1	0	46.4810390978162	0
1.24	46.2130244704124	0	1	0	1	0	46.2130244704124	0
1.25	45.9505612905001	0	1	0	1	0	45.9505612905001	0
1.26	45.6935274871126	0	1	0	1	0	45.6935274871126	0
1.27	45.4418048340378	0	1	0	1	0	45.4418048340378	0
1.28	45.195278799633	0	1	0	1	0	45.195278799633	0
1.29	44.9538384036242	0	1	0	1	0	44.9538384036242	0
1.3	44.7173760805148	0	1	0	1	0	44.7173760805148	0
1.31	44.4857875492513	0	1	0	1	0	44.4857875492513	0
1.32	44.2589716888118	0	1	0	1	0	44.2589716888118	0
1.33	44.0368304194083	0	1	0	1	0	44.0368304194083	0
1.34	43.8192685890074	0	1	0	1	0	43.8192685890074	0
1.35	43.6061938648956	0	1	0	1	0	43.6061938648956	0
1.36	43.3975166300271	0	1	0	1	0	43.3975166300271	0
1.37	43.1931498839125	0	1	0	1	0	43.1931498839125	0
1.38	42.9930091478153	0	1	0	1	0	42.9930091478153	0
1.39	42.7970123740422	0	1	0	1	0	42.7970123740422	0
1.4	42.6050798591195	0	1	0	1	0	42.6050798591195	0
1.41	42.417134160665	0	1	0	1	0	42.417134160665	0
1.42	42.233100017772	0	1	0	1	0	42.233100017772	0
1.43	42.052904274734	0	1	0	1	0	42.052904274734	0
1.44	41.8764758079475	0	1	0	1	0	41.8764758079475	0
1.45	41.7037454558394	0	1	0	1	0	41.7037454558394	0
1.46	41.5346459516743	0	1	0	1	0	41.5346459516743	0
1.47	41.3691118591041	0	1	0	1	0	41.3691118591041	0
1.48	41.2070795103305	0	1	0	1	0	41.2070795103305	0
1.49	41.0484869467582	0	1	0	1	0	41.0484869467582	0
1.5	40.8932738620208	0	1	0	1	0	40.8932738620208	0
1.51	40.7413815472717	0	1	0	1	0	40.7413815472717	0
1.52	40.5927528386337	0	1	0	1	0	40.5927528386337	0
1.53	40.4473320667104	0	1	0	1	0	40.4473320667104	0
1.54	40.3050650080636	0	1	0	1	0	40.3050650080636	0
1.55	40.1658988385694	0	1	0	1	0	40.1658988385694	0
1.56	40.0297820885691	0	1	0	1	0	40.0297820885691	0
1.57	39.8966645997325	0	1	0	1	0	39.8966645997325	0
1.58	39.7664974835606	0	1	0	1	0	39.7664974835606	0
1.59	39.6392330814538	0	1	0	1	0	39.6392330814538	0
1.6	39.5148249262776	0	1	0	1	0	39.5148249262776	0
1.61	39.3932277053604	0	1	0	1	0	39.3932277053604	0
1.62	39.2743972248617	0	1	0	1	0	39.2743972248617	0
1.63	39.158290375453	0	1	0	1	0	39.158290375453	0
1.64	39.0448650992523	0	1	0	1	0	39.0448650992523	0
1.65	38.934080357963	0	1	0	1	0	38.934080357963	0
1.66	38.8258961021628	0	1	0	1	0	38.8258961021628	0
1.67	38.7202732416972	0	1	0	1	0	38.7202732416972	0
1.68	38.6171736171297	0	1	0	1	0	38.6171736171297	0
1.69	38.5165599722056	0	1	0	1	0	38.5165599722056	0
1.7	38.418395927288	0	1	0	1	0	38.418395927288	0
1.71	38.3226459537256	0	1	0	1	0	38.3226459537256	0
1.72	38.229275349115	0	1	0	1	0	38.229275349115	0
1.73	38.1382502134203	0	1	0	1	0	38.1382502134203	0
1.74	38.0495374259169	0	1	0	1	0	38.0495374259169	0
1.75	37.9631046229252	0	1	0	1	0	37.9631046229252	0
1.76	37.8789201763039	0	1	0	1	0	37.8789201763039	0
1.77	37.796953172672	0	1	0	1	0	37.796953172672	0
1.78	37.7171733933309	0	1	0	1	0	37.7171733933309	0
1.79	37.6395512948607	0	1	0	1	0	37.6395512948607	0
1.8	37.5640579903614	0	1	0	1	0	37.5640579903614	0
1.81	37.4906652313179	0	1	0	1	0	37.4906652313179	0
1.82	37.4193453900615	0	1	0	1	0	37.4193453900615	0
1.83	37.3500714428069	0	1	0	1	0	37.3500714428069	0
1.84	37.2828169532424	0	1	0	1	0	37.2828169532424	0
1.85	37.2175560566522	0	1	0	1	0	37.2175560566522	0
1.86	37.1542634445512	0	1	0	1	0	37.1542634445512	0
1.87	37.092914349812	0	1	0	1	0	37.092914349812	0
1.88	37.0334845322673	0	1	0	1	0	37.0334845322673	0
1.89	36.9759502647695	0	1	0	1	0	36.9759502647695	0
1.9	36.9202883196897	0	1	0	1	0	36.9202883196897	0
1.91	36.8664759558415	0	1	0	1	0	36.8664759558415	0
1.92	36.8144909058133	0	1	0	1	0	36.8144909058133	0
1.93	36.7643113636942	0	1	0	1	0	36.7643113636942	0
1.94	36.7159159731798	0	1	0	1	0	36.7159159731798	0
1.95	36.6692838160435	0	1	0	1	0	36.6692838160435	0
1.96	36.6243944009615	0	1	0	1	0	36.6243944009615	0
1.97	36.5812276526774	0	1	0	1	0	36.5812276526774	0
1.98	36.5397639014957	0	1	0	1	0	36.5397639014957	0
1.99	36.4999838730914	0	1	0	1	0	36.4999838730914	0
2	36.4618686786262	0	1	0	1	0	36.4618686786262	0
2.01	36.425399805159	0	1	0	1	0	36.425399805159	0
2.02	36.3905591063416	0	1	0	1	0	36.3905591063416	0
2.03	36.3573287933893	0	1	0	1	0	36.3573287933893	0
2.04	36.3256914263172	0	1	0	1	0	36.3256914263172	0
2.05	36.2956299054325	0	1	0	1	0	36.2956299054325	0
2.06	36.2671274630756	0	1	0	1	0	36.2671274630756	0
2.07	36.2401676555996	0	1	0	1	0	36.2401676555996	0
2.08	36.2147343555814	0	1	0	1	0	36.2147343555814	0
2.09	36.1908117442568	0	1	0	1	0	36.1908117442568	0
2.1	36.1683843041714	0	1	0	1	0	36.1683843041714	0
2.11	36.1474368120407	0	1	0	1	0	36.1474368120407	0
2.12	36.1279543318117	0	1	0	1	0	36.1279543318117	0
2.13	36.1099222079208	0	1	0	1	0	36.1099222079208	0
2.14	36.0933260587402	0	1	0	1	0	36.0933260587402	0
2.15	36.0781517702073	0	1	0	1	0	36.0781517702073	0
2.16	36.0643854896308	0	1	0	1	0	36.0643854896308	0
2.17	36.0520136196689	0	1	0	1	0	36.0520136196689	0
2.18	36.0410228124721	0	1	0	1	0	36.0410228124721	0
2.19	36.0313999639871	0	1	0	1	0	36.0313999639871	0
2.2	36.0231322084165	0	1	0	1	0	36.0231322084165	0
2.21	36.0162069128276	0	1	0	1	0	36.0162069128276	0
2.22	36.0106116719084	0	1	0	1	0	36.0106116719084	0
2.23	36.0063343028636	0	1	0	1	0	36.0063343028636	0
2.24	36.0033628404478	0	1	0	1	0	36.0033628404478	0
2.25	36.0016855321311	0	1	0	1	0	36.0016855321311	0
2.26	36.001290833393	0	1	0	1	0	36.001290833393	0
2.27	36.0021674031405	0	1	0	1	0	36.0021674031405	0
2.28	36.0043040992475	0	1	0	1	0	36.0043040992475	0
2.29	36.0076899742099	0	1	0	1	0	36.0076899742099	0
2.3	36.012314270915	0	1	0	1	0	36.012314270915	0
2.31	36.0181664185206	0	1	0	1	0	36.0181664185206	0
2.32	36.0252360284402	0	1	0	1	0	36.0252360284402	0
2.33	36.0335128904324	0	1	0	1	0	36.0335128904324	0
2.34	36.0429869687895	0	1	0	1	0	36.0429869687895	0
2.35	36.0536483986247	0	1	0	1	0	36.0536483986247	0
2.36	36.0654874822523	0	1	0	1	0	36.0654874822523	0
2.37	36.0784946856611	0	1	0	1	0	36.0784946856611	0
2.38	36.0926606350749	0	1	0	1	0	36.0926606350749	0
2.39	36.107976113601	0	1	0	1	0	36.107976113601	0
2.4	36.1244320579617	0	1	0	1	0	36.1244320579617	0
2.41	36.1420195553069	0	1	0	1	0	36.1420195553069	0
2.42	36.1607298401066	0	1	0	1	0	36.1607298401066	0
2.43	36.1805542911191	0	1	0	1	0	36.1805542911191	0
2.44	36.2014844284346	0	1	0	1	0	36.2014844284346	0
2.45	36.223511910591	0	1	0	1	0	36.223511910591	0
2.46	36.2466285317594	0	1	0	1	0	36.2466285317594	0
2.47	36.2708262189992	0	1	0	1	0	36.2708262189992	0
2.48	36.2960970295782	0	1	0	1	0	36.2960970295782	0
2.49	36.3224331483584	0	1	0	1	0	36.3224331483584	0
2.5	36.3498268852441	0	1	0	1	0	36.3498268852441	0
2.51	36.3782706726907	0	1	0	1	0	36.3782706726907	0
2.52	36.4077570632737	0	1	0	1	0	36.4077570632737	0
2.53	36.4382787273141	0	1	0	1	0	36.4382787273141	0
2.54	36.4698284505611	0	1	0	1	0	36.4698284505611	0
2.55	36.5023991319286	0	1	0	1	0	36.5023991319286	0
2.56	36.5359837812849	0	1	0	1	0	36.5359837812849	0
2.57	36.5705755172942	0	1	0	1	0	36.5705755172942	0
2.58	36.606167565308	0	1	0	1	0	36.606167565308	0
2.59	36.6427532553057	0	1	0	1	0	36.6427532553057	0
2.6	36.6803260198823	0	1	0	1	0	36.6803260198823	0
2.61	36.7188793922827	0	1	0	1	0	36.7188793922827	0
2.62	36.7584070044809	0	1	0	1	0	36.7584070044809	0
2.63	36.798902585303	0	1	0	1	0	36.798902585303	0
2.64	36.8403599585929	0	1	0	1	0	36.8403599585929	0
2.65	36.8827730414194	0	1	0	1	0	36.8827730414194	0
2.66	36.9261358423242	0	1	0	1	0	36.9261358423242	0
2.67	36.9704424596084	0	1	0	1	0	36.9704424596084	0
2.68	37.0156870796582	0	1	0	1	0	37.0156870796582	0
2.69	37.0618639753079	0	1	0	1	0	37.0618639753079	0
2.7	37.1089675042382	0	1	0	1	0	37.1089675042382	0
2.71	37.1569921074116	0	1	0	1	0	37.1569921074116	0
2.72	37.2059323075412	0	1	0	1	0	37.2059323075412	0
2.73	37.2557827075931	0	1	0	1	0	37.2557827075931	0
2.74	37.3065379893225	0	1	0	1	0	37.3065379893225	0
2.75	37.3581929118406	0	1	0	1	0	37.3581929118406	0
2.76	37.4107423102139	0	1	0	1	0	37.4107423102139	0
2.77	37.4641810940924	0	1	0	1	0	37.4641810940924	0
2.78	37.5185042463687	0	1	0	1	0	37.5185042463687	0
2.79	37.5737068218654	0	1	0	1	0	37.5737068218654	0
2.8	37.6297839460502	0	1	0	1	0	37.6297839460502	0
2.81	37.6867308137793	0	1	0	1	0	37.6867308137793	0
2.82	37.744542688067	0	1	0	1	0	37.744542688067	0
2.83	37.8032148988815	0	1	0	1	0	37.8032148988815	0
2.84	37.862742841966	0	1	0	1	0	37.862742841966	0
2.85	37.9231219776849	0	1	0	1	0	37.9231219776849	0
2.86	37.984347829894	0	1	0	1	0	37.984347829894	0
2.87	38.0464159848342	0	1	0	1	0	38.0464159848342	0
2.88	38.109322090049	0	1	0	1	0	38.109322090049	0
2.89	38.1730618533232	0	1	0	1	0	38.1730618533232	0
2.9	38.2376310416446	0	1	0	1	0	38.2376310416446	0
2.91	38.303025480187	0	1	0	1	0	38.303025480187	0
2.92	38.3692410513131	0	1	0	1	0	38.3692410513131	0
2.93	38.4362736935997	0	1	0	1	0	38.4362736935997	0
2.94	38.5041194008805	0	1	0	1	0	38.5041194008805	0
2.95	38.5727742213104	0	1	0	1	0	38.5727742213104	0
2.96	38.6422342564475	0	1	0	1	0	38.6422342564475	0
2.97	38.7124956603543	0	1	0	1	0	38.7124956603543	0
2.98	38.7835546387166	0	1	0	1	0	38.7835546387166	0
2.99	38.85540744798	0	1	0	1	0	38.85540744798	0
3	38.9280503945044	0	1	0	1	0	38.9280503945044	0
3.01	39.0014798337347	0	1	0	1	0	39.0014798337347	0
3.02	39.0756921693878	0	1	0	1	0	39.0756921693878	0
3.03	39.1506838526565	0	1	0	1	0	39.1506838526565	0
3.04	39.2264513814282	0	1	0	1	0	39.2264513814282	0
3.05	39.3029912995199	0	1	0	1	0	39.3029912995199	0
3.06	39.3803001959273	0	1	0	1	0	39.3803001959273	0
3.07	39.4583747040892	0	1	0	1	0	39.4583747040892	0
3.08	39.537211501166	0	1	0	1	0	39.537211501166	0
3.09	39.6168073073321	0	1	0	1	0	39.6168073073321	0
3.1	39.6971588850824	0	1	0	1	0	39.6971588850824	0
3.11	39.7782630385516	0	1	0	1	0	39.7782630385516	0
3.12	39.8601166128471	0	1	0	1	0	39.8601166128471	0
3.13	39.9427164933944	0	1	0	1	0	39.9427164933944	0
3.14	40.026059605295	0	1	0	1	0	40.026059605295	0
3.15	40.110142912697	0	1	0	1	0	40.110142912697	0
3.16	40.1949634181767	0	1	0	1	0	40.1949634181767	0
3.17	40.280518162133	0	1	0	1	0	40.280518162133	0
3.18	40.3668042221924	0	1	0	1	0	40.3668042221924	0
3.19	40.4538187126255	0	1	0	1	0	40.4538187126255	0
3.2	40.5415587837747	0	1	0	1	0	40.5415587837747	0
3.21	40.630021621492	0	1	0	1	0	40.630021621492	0
3.22	40.7192044465878	0	1	0	1	0	40.7192044465878	0
3.23	40.8091045142898	0	1	0	1	0	40.8091045142898	0
3.24	40.8997191137117	0	1	0	1	0	40.8997191137117	0
3.25	40.9910455673319	0	1	0	1	0	40.9910455673319	0
3.26	41.0830812304819	0	1	0	1	0	41.0830812304819	0
3.27	41.1758234908438	0	1	0	1	0	41.1758234908438	0
3.28	41.2692697679575	0	1	0	1	0	41.2692697679575	0
3.29	41.3634175127358	0	1	0	1	0	41.3634175127358	0
3.3	41.4582642069901	0	1	0	1	0	41.4582642069901	0
3.31	41.5538073629626	0	1	0	1	0	41.5538073629626	0
3.32	41.6500445228687	0	1	0	1	0	41.6500445228687	0
3.33	41.7469732584467	0	1	0	1	0	41.7469732584467	0
3.34	41.844591170516	0	1	0	1	0	41.844591170516	0
3.35	41.9428958885427	0	1	0	1	0	41.9428958885427	0
3.36	42.0418850702137	0	1	0	1	0	42.0418850702137	0
3.37	42.1415564010178	0	1	0	1	0	42.1415564010178	0
3.38	42.2419075938345	0	1	0	1	0	42.2419075938345	0
3.39	42.3429363885298	0	1	0	1	0	42.3429363885298	0
3.4	42.4446405515599	0	1	0	1	0	42.4446405515599	0
3.41	42.5470178755804	0	1	0	1	0	42.5470178755804	0
3.42	42.6500661790643	0	1	0	1	0	42.6500661790643	0
3.43	42.7537833059248	0	1	0	1	0	42.7537833059248	0
3.44	42.858167125146	0	1	0	1	0	42.858167125146	0
3.45	42.9632155304194	0	1	0	1	0	42.9632155304194	0
3.46	43.068926439787	0	1	0	1	0	43.068926439787	0
3.47	43.1752977952902	0	1	0	1	0	43.1752977952902	0
3.48	43.282327562625	0	1	0	1	0	43.282327562625	0
3.49	43.3900137308036	0	1	0	1	0	43.3900137308036	0
3.5	43.4983543118203	0	1	0	1	0	43.4983543118203	0
3.51	43.6073473403254	0	1	0	1	0	43.6073473403254	0
3.52	43.7169908733022	0	1	0	1	0	43.7169908733022	0
3.53	43.8272829897515	0	1	0	1	0	43.8272829897515	0
3.54	43.9382217903801	0	1	0	1	0	43.9382217903801	0
3.55	44.0498053972955	0	1	0	1	0	44.0498053972955	0
3.56	44.1620319537049	0	1	0	1	0	44.1620319537049	0
3.57	44.27489962362	0	1	0	1	0	44.27489962362	0
3.58	44.3884065915664	0	1	0	1	0	44.3884065915664	0
3.59	44.5025510622977	0	1	0	1	0	44.5025510622977	0
3.6	44.6173312605148	0	1	0	1	0	44.6173312605148	0
3.61	44.7327454305894	0	1	0	1	0	44.7327454305894	0
3.62	44.8487918362925	0	1	0	1	0	44.8487918362925	0
3.63	44.965468760527	0	1	0	1	0	44.965468760527	0
3.64	45.0827745050651	0	1	0	1	0	45.0827745050651	0
3.65	45.2007073902896	0	1	0	1	0	45.2007073902896	0
3.66	45.3192657549399	0	1	0	1	0	45.3192657549399	0
3.67	45.4384479558618	0	1	0	1	0	45.4384479558618	0
3.68	45.5582523677613	0	1	0	1	0	45.5582523677613	0
3.69	45.6786773829628	0	1	0	1	0	45.6786773829628	0
3.7	45.7997214111711	0	1	0	1	0	45.7997214111711	0
3.71	45.9213828792371	0	1	0	1	0	45.9213828792371	0
3.72	46.043660230927	0	1	0	1	0	46.043660230927	0
3.73	46.166551926696	0	1	0	1	0	46.166551926696	0
3.74	46.290056443465	0	1	0	1	0	46.290056443465	0
3.75	46.4141722744012	0	1	0	1	0	46.4141722744012	0
3.76	46.5388979287018	0	1	0	1	0	46.5388979287018	0
3.77	46.6642319313815	0	1	0	1	0	46.6642319313815	0
3.78	46.7901728230634	0	1	0	1	0	46.7901728230634	0
3.79	46.9167191597729	0	1	0	1	0	46.9167191597729	0
3.8	47.0438695127353	0	1	0	1	0	47.0438695127353	0
3.81	47.1716224681761	0	1	0	1	0	47.1716224681761	0
3.82	47.2999766271245	0	1	0	1	0	47.2999766271245	0
3.83	47.4289306052207	0	1	0	1	0	47.4289306052207	0
3.84	47.558483032525	0	1	0	1	0	47.558483032525	0
3.85	47.6886325533312	0	1	0	1	0	47.6886325533312	0
3.86	47.8193778259815	0	1	0	1	0	47.8193778259815	0
3.87	47.9507175226856	0	1	0	1	0	47.9507175226856	0
3.88	48.0826503293416	0	1	0	1	0	48.0826503293416	0
3.89	48.2151749453604	0	1	0	1	0	48.2151749453604	0
3.9	48.3482900834922	0	1	0	1	0	48.3482900834922	0
3.91	48.4819944696559	0	1	0	1	0	48.4819944696559	0
3.92	48.6162868427714	0	1	0	1	0	48.6162868427714	0
3.93	48.7511659545938	0	1	0	1	0	48.7511659545938	0
3.94	48.8866305695509	0	1	0	1	0	48.8866305695509	0
3.95	49.0226794645826	0	1	0	1	0	49.0226794645826	0
3.96	49.1593114289829	0	1	0	1	0	49.1593114289829	0
3.97	49.2965252642445	0	1	0	1	0	49.2965252642445	0
3.98	49.4343197839051	0	1	0	1	0	49.4343197839051	0
3.99	49.572693813397	0	1	0	1	0	49.572693813397	0
4	49.7116461898982	0	1	0	1	0	49.7116461898982	0
4.01	49.8511757621857	0	1	0	1	0	49.8511757621857	0
4.02	49.9912813904916	0	1	0	1	0	49.9912813904916	0
4.03	50.131961946361	0	1	0	1	0	50.131961946361	0
4.04	50.2732163125114	0	1	0	1	0	50.2732163125114	0
4.05	50.4150433826955	0	1	0	1	0	50.4150433826955	0
4.06	50.557442061565	0	1	0	1	0	50.557442061565	0
4.07	50.7004112645366	0	1	0	1	0	50.7004112645366	0
4.08	50.8439499176601	0	1	0	1	0	50.8439499176601	0
4.09	50.9880569574887	0	1	0	1	0	50.9880569574887	0
4.1	51.1327313309504	0	1	0	1	0	51.1327313309504	0
4.11	51.2779719952223	0	1	0	1	0	51.2779719952223	0
4.12	51.4237779176059	0	1	0	1	0	51.4237779176059	0
4.13	51.5701480754047	0	1	0	1	0	51.5701480754047	0
4.14	51.7170814558033	0	1	0	1	0	51.7170814558033	0
4.15	51.8645770557482	0	1	0	1	0	51.8645770557482	0
4.16	52.0126338818309	0	1	0	1	0	52.0126338818309	0
4.17	52.1612509501719	0	1	0	1	0	52.1612509501719	0
4.18	52.3104272863067	0	1	0	1	0	52.3104272863067	0
4.19	52.4601619250738	0	1	0	1	0	52.4601619250738	0
4.2	52.6104539105035	0	1	0	1	0	52.6104539105035	0
4.21	52.7613022957091	0	1	0	1	0	52.7613022957091	0
4.22	52.912706142779	0	1	0	1	0	52.912706142779	0
4.23	53.0646645226709	0	1	0	1	0	53.0646645226709	0
4.24	53.2171765151068	0	1	0	1	0	53.2171765151068	0
4.25	53.3702412084703	0	1	0	1	0	53.3702412084703	0
4.26	53.523857699705	0	1	0	1	0	53.523857699705	0
4.27	53.6780250942135	0	1	0	1	0	53.6780250942135	0
4.28	53.8327425057597	0	1	0	1	0	53.8327425057597	0
4.29	53.9880090563704	0	1	0	1	0	53.9880090563704	0
4.3	54.1438238762396	0	1	0	1	0	54.1438238762396	0
4.31	54.3001861036341	0	1	0	1	0	54.3001861036341	0
4.32	54.4570948847992	0	1	0	1	0	54.4570948847992	0
4.33	54.6145493738675	0	1	0	1	0	54.6145493738675	0
4.34	54.7725487327674	0	1	0	1	0	54.7725487327674	0
4.35	54.9310921311338	0	1	0	1	0	54.9310921311338	0
4.36	55.0901787462195	0	1	0	1	0	55.0901787462195	0
4.37	55.2498077628084	0	1	0	1	0	55.2498077628084	0
4.38	55.409978373129	0	1	0	1	0	55.409978373129	0
4.39	55.5706897767701	0	1	0	1	0	55.5706897767701	0
4.4	55.731941180597	0	1	0	1	0	55.731941180597	0
4.41	55.8937317986688	0	1	0	1	0	55.8937317986688	0
4.42	56.0560608521572	0	1	0	1	0	56.0560608521572	0
4.43	56.2189275692665	0	1	0	1	0	56.2189275692665	0
4.44	56.3823311851537	0	1	0	1	0	56.3823311851537	0
4.45	56.5462709418511	0	1	0	1	0	56.5462709418511	0
4.46	56.7107460881888	0	1	0	1	0	56.7107460881888	0
4.47	56.8757558797187	0	1	0	1	0	56.8757558797187	0
4.48	57.0412995786397	0	1	0	1	0	57.0412995786397	0
4.49	57.2073764537235	0	1	0	1	0	57.2073764537235	0
4.5	57.3739857802416	0	1	0	1	0	57.3739857802416	0
4.51	57.5411268398932	0	1	0	1	0	57.5411268398932	0
4.52	57.7087989207341	0	1	0	1	0	57.7087989207341	0
4.53	57.8770013171068	0	1	0	1	0	57.8770013171068	0
4.54	58.0457333295709	0	1	0	1	0	58.0457333295709	0
4.55	58.2149942648349	0	1	0	1	0	58.2149942648349	0
4.56	58.3847834356888	0	1	0	1	0	58.3847834356888	0
4.57	58.5551001609376	0	1	0	1	0	58.5551001609376	0
4.58	58.7259437653357	0	1	0	1	0	58.7259437653357	0
4.59	58.8973135795218	0	1	0	1	0	58.8973135795218	0
4.6	59.0692089399554	0	1	0	1	0	59.0692089399554	0
4.61	59.241629188853	0	1	0	1	0	59.241629188853	0
4.62	59.4145736741267	0	1	0	1	0	59.4145736741267	0
4.63	59.5880417493217	0	1	0	1	0	59.5880417493217	0
4.64	59.7620327735564	0	1	0	1	0	59.7620327735564	0
4.65	59.9365461114621	0	1	0	1	0	59.9365461114621	0
4.66	60.1115811331237	0	1	0	1	0	60.1115811331237	0
4.67	60.2871372140219	0	1	0	1	0	60.2871372140219	0
4.68	60.463213734975	0	1	0	1	0	60.463213734975	0
4.69	60.6398100820819	0	1	0	1	0	60.6398100820819	0
4.7	60.8169256466666	0	1	0	1	0	60.8169256466666	0
4.71	60.994559825222	0	1	0	1	0	60.994559825222	0
4.72	61.1727120193558	0	1	0	1	0	61.1727120193558	0
4.73	61.3513816357358	0	1	0	1	0	61.3513816357358	0
4.74	61.530568086037	0	1	0	1	0	61.530568086037	0
4.75	61.7102707868886	0	1	0	1	0	61.7102707868886	0
4.76	61.8904891598221	0	1	0	1	0	61.8904891598221	0
4.77	62.0712226312199	0	1	0	1	0	62.0712226312199	0
4.78	62.2524706322647	0	1	0	1	0	62.2524706322647	0
4.79	62.434232598889	0	1	0	1	0	62.434232598889	0
4.8	62.616507971726	0	1	0	1	0	62.616507971726	0
4.81	62.7992961960606	0	1	0	1	0	62.7992961960606	0
4.82	62.982596721781	0	1	0	1	0	62.982596721781	0
4.83	63.1664090033313	0	1	0	1	0	63.1664090033313	0
4.84	63.3507324996645	0	1	0	1	0	63.3507324996645	0
4.85	63.5355666741955	0	1	0	1	0	63.5355666741955	0
4.86	63.7209109947558	0	1	0	1	0	63.7209109947558	0
4.87	63.9067649335478	0	1	0	1	0	63.9067649335478	0
4.88	64.0931279671001	0	1	0	1	0	64.0931279671001	0
4.89	64.2799995762232	0	1	0	1	0	64.2799995762232	0
4.9	64.4673792459661	0	1	0	1	0	64.4673792459661	0
4.91	64.6552664655728	0	1	0	1	0	64.6552664655728	0
4.92	64.8436607284396	0	1	0	1	0	64.8436607284396	0
4.93	65.0325615320735	0	1	0	1	0	65.0325615320735	0
4.94	65.2219683780501	0	1	0	1	0	65.2219683780501	0
