# GHZ S RI R 50
1	50.7206933805445	0	1	0	1	0	50.7206933805445	0
1.01	50.2974460934507	0	1	0	1	0	50.2974460934507	0
1.02	49.8835207620103	0	1	0	1	0	49.8835207620103	0
1.03	49.4786559032221	0	1	0	1	0	49.4786559032221	0
1.04	49.0826000911236	0	1	0	1	0	49.0826000911236	0
1.05	48.695111477884	0	1	0	1	0	48.695111477884	0
1.06	48.3159573420059	0	1	0	1	0	48.3159573420059	0
1.07	47.9449136618608	0	1	0	1	0	47.9449136618608	0
1.08	47.5817647129178	0	1	0	1	0	47.5817647129178	0
1.09	47.2263026871424	0	1	0	1	0	47.2263026871424	0
1.1	46.8783273331558	0	1	0	1	0	46.8783273331558	0
1.11	46.5376456158452	0	1	0	1	0	46.5376456158452	0
1.12	46.204071394209	0	1	0	1	0	46.204071394209	0
1.13	45.8774251163077	0	1	0	1	0	45.8774251163077	0
1.14	45.5575335302696	0	1	0	1	0	45.5575335302696	0
1.15	45.2442294103752	0	1	0	1	0	45.2442294103752	0
1.16	44.9373512973092	0	1	0	1	0	44.9373512973092	0
1.17	44.6367432517327	0	1	0	1	0	44.6367432517327	0
1.18	44.3422546203862	0	1	0	1	0	44.3422546203862	0
1.19	44.0537398139854	0	1	0	1	0	44.0537398139854	0
1.2	43.7710580962219	0	1	0	1	0	43.7710580962219	0
1.21	43.4940733832275	0	1	0	1	0	43.4940733832275	0
1.22	43.2226540529	0	1	0	1	0	43.2226540529	0
1.23	42.9566727635308	0	1	0	1	0	42.9566727635308	0
1.24	42.6960062812085	0	1	0	1	0	42.6960062812085	0
1.25	42.4405353155066	0	1	0	1	0	42.4405353155066	0
1.26	42.1901443629965	0	1	0	1	0	42.1901443629965	0
1.27	41.9447215581527	0	1	0	1	0	41.9447215581527	0
1.28	41.7041585312475	0	1	0	1	0	41.7041585312475	0
1.29	41.4683502728548	0	1	0	1	0	41.4683502728548	0
1.3	41.2371950046077	0	1	0	1	0	41.2371950046077	0
1.31	41.0105940558757	0	1	0	1	0	41.0105940558757	0
1.32	40.7884517460475	0	1	0	1	0	40.7884517460475	0
1.33	40.5706752721241	0	1	0	1	0	40.5706752721241	0
1.34	40.3571746013453	0	1	0	1	0	40.3571746013453	0
1.35	40.1478623685882	0	1	0	1	0	40.1478623685882	0
1.36	39.9426537782924	0	1	0	1	0	39.9426537782924	0
1.37	39.7414665106802	0	1	0	1	0	39.7414665106802	0
1.38	39.5442206320545	0	1	0	1	0	39.5442206320545	0
1.39	39.3508385089685	0	1	0	1	0	39.3508385089685	0
1.4	39.1612447260737	0	1	0	1	0	39.1612447260737	0
1.41	38.9753660074643	0	1	0	1	0	38.9753660074643	0
1.42	38.7931311413444	0	1	0	1	0	38.7931311413444	0
1.43	38.6144709078566	0	1	0	1	0	38.6144709078566	0
1.44	38.4393180099172	0	1	0	1	0	38.4393180099172	0
1.45	38.2676070069137	0	1	0	1	0	38.2676070069137	0
1.46	38.0992742511272	0	1	0	1	0	38.0992742511272	0
1.47	37.9342578267496	0	1	0	1	0	37.9342578267496	0
1.48	37.7724974913728	0	1	0	1	0	37.7724974913728	0
1.49	37.6139346198348	0	1	0	1	0	37.6139346198348	0
1.5	37.4585121503111	0	1	0	1	0	37.4585121503111	0
1.51	37.3061745325487	0	1	0	1	0	37.3061745325487	0
1.52	37.1568676781434	0	1	0	1	0	37.1568676781434	0
1.53	37.0105389127669	0	1	0	1	0	37.0105389127669	0
1.54	36.8671369302554	0	1	0	1	0	36.8671369302554	0
1.55	36.726611748475	0	1	0	1	0	36.726611748475	0
1.56	36.5889146668849	0	1	0	1	0	36.5889146668849	0
1.57	36.4539982257227	0	1	0	1	0	36.4539982257227	0
1.58	36.3218161667387	0	1	0	1	0	36.3218161667387	0
1.59	36.1923233954129	0	1	0	1	0	36.1923233954129	0
1.6	36.0654759445882	0	1	0	1	0	36.0654759445882	0
1.61	35.9412309394592	0	1	0	1	0	35.9412309394592	0
1.62	35.8195465638579	0	1	0	1	0	35.8195465638579	0
1.63	35.7003820277797	0	1	0	1	0	35.7003820277797	0
1.64	35.5836975360982	0	1	0	1	0	35.5836975360982	0
1.65	35.4694542584175	0	1	0	1	0	35.4694542584175	0
1.66	35.3576143000137	0	1	0	1	0	35.3576143000137	0
1.67	35.2481406738209	0	1	0	1	0	35.2481406738209	0
1.68	35.1409972734179	0	1	0	1	0	35.1409972734179	0
1.69	35.0361488469732	0	1	0	1	0	35.0361488469732	0
1.7	34.9335609721101	0	1	0	1	0	34.9335609721101	0
1.71	34.8332000316538	0	1	0	1	0	34.8332000316538	0
1.72	34.7350331902242	0	1	0	1	0	34.7350331902242	0
1.73	34.6390283716407	0	1	0	1	0	34.6390283716407	0
1.74	34.5451542371063	0	1	0	1	0	34.5451542371063	0
1.75	34.4533801641392	0	1	0	1	0	34.4533801641392	0
1.76	34.3636762262233	0	1	0	1	0	34.3636762262233	0
1.77	34.2760131731477	0	1	0	1	0	34.2760131731477	0
1.78	34.1903624120098	0	1	0	1	0	34.1903624120098	0
1.79	34.1066959888544	0	1	0	1	0	34.1066959888544	0
1.8	34.0249865709255	0	1	0	1	0	34.0249865709255	0
1.81	33.9452074295056	0	1	0	1	0	33.9452074295056	0
1.82	33.867332423322	0	1	0	1	0	33.867332423322	0
1.83	33.7913359824954	0	1	0	1	0	33.7913359824954	0
1.84	33.7171930930139	0	1	0	1	0	33.7171930930139	0
1.85	33.6448792817088	0	1	0	1	0	33.6448792817088	0
1.86	33.5743706017162	0	1	0	1	0	33.5743706017162	0
1.87	33.5056436184047	0	1	0	1	0	33.5056436184047	0
1.88	33.438675395752	0	1	0	1	0	33.438675395752	0
1.89	33.373443483154	0	1	0	1	0	33.373443483154	0
1.9	33.3099259026514	0	1	0	1	0	33.3099259026514	0
1.91	33.2481011365558	0	1	0	1	0	33.2481011365558	0
1.92	33.1879481154644	0	1	0	1	0	33.1879481154644	0
1.93	33.1294462066457	0	1	0	1	0	33.1294462066457	0
1.94	33.0725752027854	0	1	0	1	0	33.0725752027854	0
1.95	33.0173153110782	0	1	0	1	0	33.0173153110782	0
1.96	32.9636471426536	0	1	0	1	0	32.9636471426536	0
1.97	32.9115517023238	0	1	0	1	0	32.9115517023238	0
1.98	32.8610103786423	0	1	0	1	0	32.8610103786423	0
1.99	32.8120049342616	0	1	0	1	0	32.8120049342616	0
2	32.7645174965816	0	1	0	1	0	32.7645174965816	0
2.01	32.7185305486756	0	1	0	1	0	32.7185305486756	0
2.02	32.6740269204868	0	1	0	1	0	32.6740269204868	0
2.03	32.6309897802847	0	1	0	1	0	32.6309897802847	0
2.04	32.5894026263725	0	1	0	1	0	32.5894026263725	0
2.05	32.5492492790379	0	1	0	1	0	32.5492492790379	0
2.06	32.510513872738	0	1	0	1	0	32.510513872738	0
2.07	32.4731808485099	0	1	0	1	0	32.4731808485099	0
2.08	32.437234946602	0	1	0	1	0	32.437234946602	0
2.09	32.4026611993152	0	1	0	1	0	32.4026611993152	0
2.1	32.3694449240493	0	1	0	1	0	32.3694449240493	0
2.11	32.3375717165475	0	1	0	1	0	32.3375717165475	0
2.12	32.3070274443311	0	1	0	1	0	32.3070274443311	0
2.13	32.2777982403204	0	1	0	1	0	32.2777982403204	0
2.14	32.2498704966332	0	1	0	1	0	32.2498704966332	0
2.15	32.2232308585573	0	1	0	1	0	32.2232308585573	0
2.16	32.19786621869	0	1	0	1	0	32.19786621869	0
2.17	32.1737637112397	0	1	0	1	0	32.1737637112397	0
2.18	32.1509107064844	0	1	0	1	0	32.1509107064844	0
2.19	32.1292948053818	0	1	0	1	0	32.1292948053818	0
2.2	32.1089038343269	0	1	0	1	0	32.1089038343269	0
2.21	32.0897258400514	0	1	0	1	0	32.0897258400514	0
2.22	32.0717490846612	0	1	0	1	0	32.0717490846612	0
2.23	32.0549620408074	0	1	0	1	0	32.0549620408074	0
2.24	32.0393533869865	0	1	0	1	0	32.0393533869865	0
2.25	32.0249120029664	0	1	0	1	0	32.0249120029664	0
2.26	32.011626965333	0	1	0	1	0	32.011626965333	0
2.27	31.9994875431554	0	1	0	1	0	31.9994875431554	0
2.28	31.9884831937648	0	1	0	1	0	31.9884831937648	0
2.29	31.9786035586435	0	1	0	1	0	31.9786035586435	0
2.3	31.9698384594222	0	1	0	1	0	31.9698384594222	0
2.31	31.9621778939803	0	1	0	1	0	31.9621778939803	0
2.32	31.9556120326475	0	1	0	1	0	31.9556120326475	0
2.33	31.9501312145034	0	1	0	1	0	31.9501312145034	0
2.34	31.9457259437714	0	1	0	1	0	31.9457259437714	0
2.35	31.9423868863051	0	1	0	1	0	31.9423868863051	0
2.36	31.940104866164	0	1	0	1	0	31.940104866164	0
2.37	31.9388708622759	0	1	0	1	0	31.9388708622759	0
2.38	31.9386760051832	0	1	0	1	0	31.9386760051832	0
2.39	31.939511573871	0	1	0	1	0	31.939511573871	0
2.4	31.9413689926748	0	1	0	1	0	31.9413689926748	0
2.41	31.9442398282647	0	1	0	1	0	31.9442398282647	0
2.42	31.9481157867047	0	1	0	1	0	31.9481157867047	0
2.43	31.9529887105845	0	1	0	1	0	31.9529887105845	0
2.44	31.9588505762219	0	1	0	1	0	31.9588505762219	0
2.45	31.9656934909333	0	1	0	1	0	31.9656934909333	0
2.46	31.9735096903719	0	1	0	1	0	31.9735096903719	0
2.47	31.9822915359289	0	1	0	1	0	31.9822915359289	0
2.48	31.9920315121991	0	1	0	1	0	31.9920315121991	0
2.49	32.0027222245066	0	1	0	1	0	32.0027222245066	0
2.5	32.0143563964903	0	1	0	1	0	32.0143563964903	0
2.51	32.0269268677471	0	1	0	1	0	32.0269268677471	0
2.52	32.0404265915311	0	1	0	1	0	32.0404265915311	0
2.53	32.0548486325074	0	1	0	1	0	32.0548486325074	0
2.54	32.0701861645589	0	1	0	1	0	32.0701861645589	0
2.55	32.0864324686449	0	1	0	1	0	32.0864324686449	0
2.56	32.1035809307097	0	1	0	1	0	32.1035809307097	0
2.57	32.1216250396401	0	1	0	1	0	32.1216250396401	0
2.58	32.1405583852705	0	1	0	1	0	32.1405583852705	0
2.59	32.1603746564337	0	1	0	1	0	32.1603746564337	0
2.6	32.1810676390578	0	1	0	1	0	32.1810676390578	0
2.61	32.2026312143053	0	1	0	1	0	32.2026312143053	0
2.62	32.2250593567564	0	1	0	1	0	32.2250593567564	0
2.63	32.2483461326325	0	1	0	1	0	32.2483461326325	0
2.64	32.2724856980607	0	1	0	1	0	32.2724856980607	0
2.65	32.2974722973777	0	1	0	1	0	32.2974722973777	0
2.66	32.3233002614712	0	1	0	1	0	32.3233002614712	0
2.67	32.3499640061597	0	1	0	1	0	32.3499640061597	0
2.68	32.3774580306077	0	1	0	1	0	32.3774580306077	0
2.69	32.4057769157763	0	1	0	1	0	32.4057769157763	0
2.7	32.4349153229088	0	1	0	1	0	32.4349153229088	0
2.71	32.4648679920493	0	1	0	1	0	32.4648679920493	0
2.72	32.4956297405943	0	1	0	1	0	32.4956297405943	0
2.73	32.5271954618757	0	1	0	1	0	32.5271954618757	0
2.74	32.5595601237753	0	1	0	1	0	32.5595601237753	0
2.75	32.5927187673697	0	1	0	1	0	32.5927187673697	0
2.76	32.6266665056034	0	1	0	1	0	32.6266665056034	0
2.77	32.6613985219926	0	1	0	1	0	32.6613985219926	0
2.78	32.696910069355	0	1	0	1	0	32.696910069355	0
2.79	32.7331964685687	0	1	0	1	0	32.7331964685687	0
2.8	32.7702531073561	0	1	0	1	0	32.7702531073561	0
2.81	32.8080754390947	0	1	0	1	0	32.8080754390947	0
2.82	32.8466589816535	0	1	0	1	0	32.8466589816535	0
2.83	32.8859993162529	0	1	0	1	0	32.8859993162529	0
2.84	32.9260920863495	0	1	0	1	0	32.9260920863495	0
2.85	32.9669329965447	0	1	0	1	0	32.9669329965447	0
2.86	33.0085178115153	0	1	0	1	0	33.0085178115153	0
2.87	33.0508423549668	0	1	0	1	0	33.0508423549668	0
2.88	33.093902508609	0	1	0	1	0	33.093902508609	0
2.89	33.1376942111521	0	1	0	1	0	33.1376942111521	0
2.9	33.1822134573244	0	1	0	1	0	33.1822134573244	0
2.91	33.2274562969091	0	1	0	1	0	33.2274562969091	0
2.92	33.2734188338021	0	1	0	1	0	33.2734188338021	0
2.93	33.3200972250885	0	1	0	1	0	33.3200972250885	0
2.94	33.3674876801379	0	1	0	1	0	33.3674876801379	0
2.95	33.4155864597184	0	1	0	1	0	33.4155864597184	0
2.96	33.464389875128	0	1	0	1	0	33.464389875128	0
2.97	33.5138942873444	0	1	0	1	0	33.5138942873444	0
2.98	33.5640961061912	0	1	0	1	0	33.5640961061912	0
2.99	33.614991789521	0	1	0	1	0	33.614991789521	0
3	33.6665778424152	0	1	0	1	0	33.6665778424152	0
3.01	33.7188508163993	0	1	0	1	0	33.7188508163993	0
3.02	33.7718073086737	0	1	0	1	0	33.7718073086737	0
3.03	33.8254439613606	0	1	0	1	0	33.8254439613606	0
3.04	33.8797574607645	0	1	0	1	0	33.8797574607645	0
3.05	33.9347445366484	0	1	0	1	0	33.9347445366484	0
3.06	33.9904019615234	0	1	0	1	0	33.9904019615234	0
3.07	34.0467265499527	0	1	0	1	0	34.0467265499527	0
3.08	34.1037151578686	0	1	0	1	0	34.1037151578686	0
3.09	34.1613646819035	0	1	0	1	0	34.1613646819035	0
3.1	34.2196720587331	0	1	0	1	0	34.2196720587331	0
3.11	34.2786342644329	0	1	0	1	0	34.2786342644329	0
3.12	34.3382483138465	0	1	0	1	0	34.3382483138465	0
3.13	34.3985112599667	0	1	0	1	0	34.3985112599667	0
3.14	34.4594201933276	0	1	0	1	0	34.4594201933276	0
3.15	34.520972241409	0	1	0	1	0	34.520972241409	0
3.16	34.5831645680516	0	1	0	1	0	34.5831645680516	0
3.17	34.6459943728837	0	1	0	1	0	34.6459943728837	0
3.18	34.7094588907583	0	1	0	1	0	34.7094588907583	0
3.19	34.7735553912014	0	1	0	1	0	34.7735553912014	0
3.2	34.8382811778694	0	1	0	1	0	34.8382811778694	0
3.21	34.9036335880185	0	1	0	1	0	34.9036335880185	0
3.22	34.9696099919822	0	1	0	1	0	34.9696099919822	0
3.23	35.0362077926595	0	1	0	1	0	35.0362077926595	0
3.24	35.1034244250125	0	1	0	1	0	35.1034244250125	0
3.25	35.1712573555729	0	1	0	1	0	35.1712573555729	0
3.26	35.2397040819581	0	1	0	1	0	35.2397040819581	0
3.27	35.3087621323954	0	1	0	1	0	35.3087621323954	0
3.28	35.3784290652558	0	1	0	1	0	35.3784290652558	0
3.29	35.4487024685958	0	1	0	1	0	35.4487024685958	0
3.3	35.5195799597076	0	1	0	1	0	35.5195799597076	0
3.31	35.5910591846774	0	1	0	1	0	35.5910591846774	0
3.32	35.6631378179517	0	1	0	1	0	35.6631378179517	0
3.33	35.7358135619117	0	1	0	1	0	35.7358135619117	0
3.34	35.809084146455	0	1	0	1	0	35.809084146455	0
3.35	35.8829473285849	0	1	0	1	0	35.8829473285849	0
3.36	35.957400892007	0	1	0	1	0	35.957400892007	0
3.37	36.032442646733	0	1	0	1	0	36.032442646733	0
3.38	36.1080704286919	0	1	0	1	0	36.1080704286919	0
3.39	36.184282099347	0	1	0	1	0	36.184282099347	0
3.4	36.2610755453213	0	1	0	1	0	36.2610755453213	0
3.41	36.3384486780279	0	1	0	1	0	36.3384486780279	0
3.42	36.4163994333078	0	1	0	1	0	36.4163994333078	0
3.43	36.4949257710741	0	1	0	1	0	36.4949257710741	0
3.44	36.5740256749615	0	1	0	1	0	36.5740256749615	0
3.45	36.653697151983	0	1	0	1	0	36.653697151983	0
3.46	36.733938232192	0	1	0	1	0	36.733938232192	0
3.47	36.81474696835	0	1	0	1	0	36.81474696835	0
3.48	36.8961214356008	0	1	0	1	0	36.8961214356008	0
3.49	36.9780597311493	0	1	0	1	0	36.9780597311493	0
3.5	37.060559973947	0	1	0	1	0	37.060559973947	0
3.51	37.1436203043815	0	1	0	1	0	37.1436203043815	0
3.52	37.2272388839725	0	1	0	1	0	37.2272388839725	0
3.53	37.3114138950724	0	1	0	1	0	37.3114138950724	0
3.54	37.3961435405719	0	1	0	1	0	37.3961435405719	0
3.55	37.4814260436109	0	1	0	1	0	37.4814260436109	0
3.56	37.5672596472939	0	1	0	1	0	37.5672596472939	0
3.57	37.6536426144107	0	1	0	1	0	37.6536426144107	0
3.58	37.740573227161	0	1	0	1	0	37.740573227161	0
3.59	37.8280497868845	0	1	0	1	0	37.8280497868845	0
3.6	37.916070613795	0	1	0	1	0	37.916070613795	0
3.61	38.0046340467187	0	1	0	1	0	38.0046340467187	0
3.62	38.0937384428374	0	1	0	1	0	38.0937384428374	0
3.63	38.1833821774355	0	1	0	1	0	38.1833821774355	0
3.64	38.2735636436515	0	1	0	1	0	38.2735636436515	0
3.65	38.3642812522334	0	1	0	1	0	38.3642812522334	0
3.66	38.455533431298	0	1	0	1	0	38.455533431298	0
3.67	38.5473186260943	0	1	0	1	0	38.5473186260943	0
3.68	38.6396352987707	0	1	0	1	0	38.6396352987707	0
3.69	38.7324819281464	0	1	0	1	0	38.7324819281464	0
3.7	38.8258570094854	0	1	0	1	0	38.8258570094854	0
3.71	38.9197590542756	0	1	0	1	0	38.9197590542756	0
3.72	39.0141865900102	0	1	0	1	0	39.0141865900102	0
3.73	39.1091381599733	0	1	0	1	0	39.1091381599733	0
3.74	39.2046123230292	0	1	0	1	0	39.2046123230292	0
3.75	39.3006076534138	0	1	0	1	0	39.3006076534138	0
3.76	39.3971227405313	0	1	0	1	0	39.3971227405313	0
3.77	39.4941561887519	0	1	0	1	0	39.4941561887519	0
3.78	39.5917066172146	0	1	0	1	0	39.5917066172146	0
3.79	39.6897726596321	0	1	0	1	0	39.6897726596321	0
3.8	39.7883529640993	0	1	0	1	0	39.7883529640993	0
3.81	39.8874461929038	0	1	0	1	0	39.8874461929038	0
3.82	39.9870510223413	0	1	0	1	0	39.9870510223413	0
3.83	40.0871661425315	0	1	0	1	0	40.0871661425315	0
3.84	40.1877902572391	0	1	0	1	0	40.1877902572391	0
3.85	40.2889220836959	0	1	0	1	0	40.2889220836959	0
3.86	40.390560352427	0	1	0	1	0	40.390560352427	0
3.87	40.4927038070782	0	1	0	1	0	40.4927038070782	0
3.88	40.5953512042478	0	1	0	1	0	40.5953512042478	0
3.89	40.6985013133196	0	1	0	1	0	40.6985013133196	0
3.9	40.802152916299	0	1	0	1	0	40.802152916299	0
3.91	40.9063048076518	0	1	0	1	0	40.9063048076518	0
3.92	41.0109557941452	0	1	0	1	0	41.0109557941452	0
3.93	41.1161046946913	0	1	0	1	0	41.1161046946913	0
3.94	41.2217503401926	0	1	0	1	0	41.2217503401926	0
3.95	41.3278915733911	0	1	0	1	0	41.3278915733911	0
3.96	41.4345272487179	0	1	0	1	0	41.4345272487179	0
3.97	41.5416562321464	0	1	0	1	0	41.5416562321464	0
3.98	41.6492774010473	0	1	0	1	0	41.6492774010473	0
3.99	41.7573896440459	0	1	0	1	0	41.7573896440459	0
4	41.8659918608809	0	1	0	1	0	41.8659918608809	0
4.01	41.9750829622664	0	1	0	1	0	41.9750829622664	0
4.02	42.0846618697552	0	1	0	1	0	42.0846618697552	0
4.03	42.1947275156041	0	1	0	1	0	42.1947275156041	0
4.04	42.3052788426418	0	1	0	1	0	42.3052788426418	0
4.05	42.4163148041381	0	1	0	1	0	42.4163148041381	0
4.06	42.5278343636755	0	1	0	1	0	42.5278343636755	0
4.07	42.6398364950223	0	1	0	1	0	42.6398364950223	0
4.08	42.7523201820079	0	1	0	1	0	42.7523201820079	0
4.09	42.8652844184	0	1	0	1	0	42.8652844184	0
4.1	42.978728207783	0	1	0	1	0	42.978728207783	0
4.11	43.0926505634387	0	1	0	1	0	43.0926505634387	0
4.12	43.207050508229	0	1	0	1	0	43.207050508229	0
4.13	43.3219270744794	0	1	0	1	0	43.3219270744794	0
4.14	43.4372793038648	0	1	0	1	0	43.4372793038648	0
4.15	43.5531062472972	0	1	0	1	0	43.5531062472972	0
4.16	43.6694069648144	0	1	0	1	0	43.6694069648144	0
4.17	43.7861805254705	0	1	0	1	0	43.7861805254705	0
4.18	43.9034260072283	0	1	0	1	0	43.9034260072283	0
4.19	44.0211424968528	0	1	0	1	0	44.0211424968528	0
4.2	44.1393290898064	0	1	0	1	0	44.1393290898064	0
4.21	44.2579848901459	0	1	0	1	0	44.2579848901459	0
4.22	44.3771090104203	0	1	0	1	0	44.3771090104203	0
4.23	44.4967005715705	0	1	0	1	0	44.4967005715705	0
4.24	44.6167587028307	0	1	0	1	0	44.6167587028307	0
4.25	44.7372825416301	0	1	0	1	0	44.7372825416301	0
4.26	44.8582712334976	0	1	0	1	0	44.8582712334976	0
4.27	44.9797239319662	0	1	0	1	0	44.9797239319662	0
4.28	45.1016397984801	0	1	0	1	0	45.1016397984801	0
4.29	45.2240180023018	0	1	0	1	0	45.2240180023018	0
4.3	45.346857720422	0	1	0	1	0	45.346857720422	0
4.31	45.4701581374692	0	1	0	1	0	45.4701581374692	0
4.32	45.5939184456219	0	1	0	1	0	45.5939184456219	0
4.33	45.718137844521	0	1	0	1	0	45.718137844521	0
4.34	45.842815541184	0	1	0	1	0	45.842815541184	0
4.35	45.9679507499204	0	1	0	1	0	45.9679507499204	0
4.36	46.0935426922474	0	1	0	1	0	46.0935426922474	0
4.37	46.2195905968085	0	1	0	1	0	46.2195905968085	0
4.38	46.346093699291	0	1	0	1	0	46.346093699291	0
4.39	46.4730512423466	0	1	0	1	0	46.4730512423466	0
4.4	46.6004624755121	0	1	0	1	0	46.6004624755121	0
4.41	46.728326655131	0	1	0	1	0	46.728326655131	0
4.42	46.8566430442767	0	1	0	1	0	46.8566430442767	0
4.43	46.9854109126768	0	1	0	1	0	46.9854109126768	0
4.44	47.1146295366377	0	1	0	1	0	47.1146295366377	0
4.45	47.244298198971	0	1	0	1	0	47.244298198971	0
4.46	47.3744161889206	0	1	0	1	0	47.3744161889206	0
4.47	47.5049828020904	0	1	0	1	0	47.5049828020904	0
4.48	47.6359973403737	0	1	0	1	0	47.6359973403737	0
4.49	47.7674591118831	0	1	0	1	0	47.7674591118831	0
4.5	47.899367430881	0	1	0	1	0	47.899367430881	0
4.51	48.031721617712	0	1	0	1	0	48.031721617712	0
4.52	48.1645209987353	0	1	0	1	0	48.1645209987353	0
4.53	48.2977649062584	0	1	0	1	0	48.2977649062584	0
4.54	48.4314526784714	0	1	0	1	0	48.4314526784714	0
4.55	48.5655836593826	0	1	0	1	0	48.5655836593826	0
4.56	48.7001571987547	0	1	0	1	0	48.7001571987547	0
4.57	48.8351726520415	0	1	0	1	0	48.8351726520415	0
4.58	48.9706293803264	0	1	0	1	0	48.9706293803264	0
4.59	49.1065267502603	0	1	0	1	0	49.1065267502603	0
4.6	49.2428641340018	0	1	0	1	0	49.2428641340018	0
4.61	49.379640909157	0	1	0	1	0	49.379640909157	0
4.62	49.5168564587207	0	1	0	1	0	49.5168564587207	0
4.63	49.6545101710182	0	1	0	1	0	49.6545101710182	0
4.64	49.792601439648	0	1	0	1	0	49.792601439648	0
4.65	49.9311296634246	0	1	0	1	0	49.9311296634246	0
4.66	50.0700942463232	0	1	0	1	0	50.0700942463232	0
4.67	50.2094945974242	0	1	0	1	0	50.2094945974242	0
4.68	50.3493301308583	0	1	0	1	0	50.3493301308583	0
4.69	50.4896002657532	0	1	0	1	0	50.4896002657532	0
4.7	50.63030442618	0	1	0	1	0	50.63030442618	0
4.71	50.7714420411011	0	1	0	1	0	50.7714420411011	0
4.72	50.9130125443181	0	1	0	1	0	50.9130125443181	0
4.73	51.0550153744207	0	1	0	1	0	51.0550153744207	0
4.74	51.1974499747364	0	1	0	1	0	51.1974499747364	0
4.75	51.3403157932803	0	1	0	1	0	51.3403157932803	0
4.76	51.4836122827062	0	1	0	1	0	51.4836122827062	0
4.77	51.6273389002575	0	1	0	1	0	51.6273389002575	0
4.78	51.77149510772	0	1	0	1	0	51.77149510772	0
4.79	51.9160803713734	0	1	0	1	0	51.9160803713734	0
4.8	52.0610941619455	0	1	0	1	0	52.0610941619455	0
4.81	52.2065359545653	0	1	0	1	0	52.2065359545653	0
4.82	52.3524052287178	0	1	0	1	0	52.3524052287178	0
4.83	52.4987014681984	0	1	0	1	0	52.4987014681984	0
4.84	52.6454241610689	0	1	0	1	0	52.6454241610689	0
4.85	52.7925727996131	0	1	0	1	0	52.7925727996131	0
4.86	52.9401468802937	0	1	0	1	0	52.9401468802937	0
4.87	53.088145903709	0	1	0	1	0	53.088145903709	0
4.88	53.236569374551	0	1	0	1	0	53.236569374551	0
4.89	53.3854168015631	0	1	0	1	0	53.3854168015631	0
4.9	53.5346876974991	0	1	0	1	0	53.5346876974991	0
4.91	53.6843815790821	0	1	0	1	0	53.6843815790821	0
4.92	53.8344979669645	0	1	0	1	0	53.8344979669645	0
4.93	53.9850363856876	0	1	0	1	0	53.9850363856876	0
