# GHZ S RI R 50
1	51.6043757899538	0	1	0	1	0	51.6043757899538	0
1.01	51.1933412885118	0	1	0	1	0	51.1933412885118	0
1.02	50.7915683956544	0	1	0	1	0	50.7915683956544	0
1.03	50.3987991423026	0	1	0	1	0	50.3987991423026	0
1.04	50.0147854812651	0	1	0	1	0	50.0147854812651	0
1.05	49.6392888147675	0	1	0	1	0	49.6392888147675	0
1.06	49.2720795487249	0	1	0	1	0	49.2720795487249	0
1.07	48.9129366720087	0	1	0	1	0	48.9129366720087	0
1.08	48.561647359088	0	1	0	1	0	48.561647359088	0
1.09	48.2180065945429	0	1	0	1	0	48.2180065945429	0
1.1	47.8818168180595	0	1	0	1	0	47.8818168180595	0
1.11	47.552887588615	0	1	0	1	0	47.552887588615	0
1.12	47.2310352666512	0	1	0	1	0	47.2310352666512	0
1.13	46.9160827131256	0	1	0	1	0	46.9160827131256	0
1.14	46.6078590044004	0	1	0	1	0	46.6078590044004	0
1.15	46.306199162008	0	1	0	1	0	46.306199162008	0
1.16	46.0109438963934	0	1	0	1	0	46.0109438963934	0
1.17	45.7219393637984	0	1	0	1	0	45.7219393637984	0
1.18	45.4390369355074	0	1	0	1	0	45.4390369355074	0
1.19	45.1620929787281	0	1	0	1	0	45.1620929787281	0
1.2	44.8909686484279	0	1	0	1	0	44.8909686484279	0
1.21	44.6255296894925	0	1	0	1	0	44.6255296894925	0
1.22	44.3656462486148	0	1	0	1	0	44.3656462486148	0
1.23	44.1111926953594	0	1	0	1	0	44.1111926953594	0
1.24	43.8620474518857	0	1	0	1	0	43.8620474518857	0
1.25	43.6180928308439	0	1	0	1	0	43.6180928308439	0
1.26	43.3792148809904	0	1	0	1	0	43.3792148809904	0
1.27	43.1453032400975	0	1	0	1	0	43.1453032400975	0
1.28	42.9162509947567	0	1	0	1	0	42.9162509947567	0
1.29	42.6919545467043	0	1	0	1	0	42.6919545467043	0
1.3	42.4723134853154	0	1	0	1	0	42.4723134853154	0
1.31	42.2572304659382	0	1	0	1	0	42.2572304659382	0
1.32	42.0466110937589	0	1	0	1	0	42.0466110937589	0
1.33	41.8403638129058	0	1	0	1	0	41.8403638129058	0
1.34	41.6383998005177	0	1	0	1	0	41.6383998005177	0
1.35	41.4406328655225	0	1	0	1	0	41.4406328655225	0
1.36	41.2469793518791	0	1	0	1	0	41.2469793518791	0
1.37	41.0573580460589	0	1	0	1	0	41.0573580460589	0
1.38	40.8716900885485	0	1	0	1	0	40.8716900885485	0
1.39	40.689898889173	0	1	0	1	0	40.689898889173	0
1.4	40.5119100460482	0	1	0	1	0	40.5119100460482	0
1.41	40.3376512679818	0	1	0	1	0	40.3376512679818	0
1.42	40.1670523001528	0	1	0	1	0	40.1670523001528	0
1.43	40.0000448529104	0	1	0	1	0	40.0000448529104	0
1.44	39.8365625335383	0	1	0	1	0	39.8365625335383	0
1.45	39.6765407808435	0	1	0	1	0	39.6765407808435	0
1.46	39.5199168024327	0	1	0	1	0	39.5199168024327	0
1.47	39.3666295145492	0	1	0	1	0	39.3666295145492	0
1.48	39.2166194843488	0	1	0	1	0	39.2166194843488	0
1.49	39.0698288744997	0	1	0	1	0	39.0698288744997	0
1.5	38.926201389999	0	1	0	1	0	38.926201389999	0
1.51	38.7856822271022	0	1	0	1	0	38.7856822271022	0
1.52	38.6482180242685	0	1	0	1	0	38.6482180242685	0
1.53	38.5137568150303	0	1	0	1	0	38.5137568150303	0
1.54	38.382247982698	0	1	0	1	0	38.382247982698	0
1.55	38.2536422168196	0	1	0	1	0	38.2536422168196	0
1.56	38.1278914713132	0	1	0	1	0	38.1278914713132	0
1.57	38.0049489242013	0	1	0	1	0	38.0049489242013	0
1.58	37.8847689388726	0	1	0	1	0	37.8847689388726	0
1.59	37.767307026807	0	1	0	1	0	37.767307026807	0
1.6	37.652519811697	0	1	0	1	0	37.652519811697	0
1.61	37.5403649949076	0	1	0	1	0	37.5403649949076	0
1.62	37.4308013222145	0	1	0	1	0	37.4308013222145	0
1.63	37.323788551767	0	1	0	1	0	37.323788551767	0
1.64	37.2192874232228	0	1	0	1	0	37.2192874232228	0
1.65	37.1172596280058	0	1	0	1	0	37.1172596280058	0
1.66	37.0176677806378	0	1	0	1	0	37.0176677806378	0
1.67	36.9204753911013	0	1	0	1	0	36.9204753911013	0
1.68	36.8256468381887	0	1	0	1	0	36.8256468381887	0
1.69	36.733147343798	0	1	0	1	0	36.733147343798	0
1.7	36.6429429481353	0	1	0	1	0	36.6429429481353	0
1.71	36.5550004857881	0	1	0	1	0	36.5550004857881	0
1.72	36.4692875626323	0	1	0	1	0	36.4692875626323	0
1.73	36.385772533541	0	1	0	1	0	36.385772533541	0
1.74	36.3044244808615	0	1	0	1	0	36.3044244808615	0
1.75	36.2252131936304	0	1	0	1	0	36.2252131936304	0
1.76	36.1481091474968	0	1	0	1	0	36.1481091474968	0
1.77	36.0730834853272	0	1	0	1	0	36.0730834853272	0
1.78	36.0001079984625	0	1	0	1	0	36.0001079984625	0
1.79	35.9291551086052	0	1	0	1	0	35.9291551086052	0
1.8	35.8601978503086	0	1	0	1	0	35.8601978503086	0
1.81	35.7932098540474	0	1	0	1	0	35.7932098540474	0
1.82	35.7281653298464	0	1	0	1	0	35.7281653298464	0
1.83	35.6650390514458	0	1	0	1	0	35.6650390514458	0
1.84	35.6038063409827	0	1	0	1	0	35.6038063409827	0
1.85	35.5444430541694	0	1	0	1	0	35.5444430541694	0
1.86	35.4869255659506	0	1	0	1	0	35.4869255659506	0
1.87	35.4312307566194	0	1	0	1	0	35.4312307566194	0
1.88	35.3773359983777	0	1	0	1	0	35.3773359983777	0
1.89	35.3252191423227	0	1	0	1	0	35.3252191423227	0
1.9	35.2748585058441	0	1	0	1	0	35.2748585058441	0
1.91	35.2262328604178	0	1	0	1	0	35.2262328604178	0
1.92	35.1793214197807	0	1	0	1	0	35.1793214197807	0
1.93	35.1341038284728	0	1	0	1	0	35.1341038284728	0
1.94	35.0905601507346	0	1	0	1	0	35.0905601507346	0
1.95	35.0486708597451	0	1	0	1	0	35.0486708597451	0
1.96	35.0084168271899	0	1	0	1	0	35.0084168271899	0
1.97	34.9697793131467	0	1	0	1	0	34.9697793131467	0
1.98	34.9327399562776	0	1	0	1	0	34.9327399562776	0
1.99	34.8972807643168	0	1	0	1	0	34.8972807643168	0
2	34.8633841048437	0	1	0	1	0	34.8633841048437	0
2.01	34.8310326963318	0	1	0	1	0	34.8310326963318	0
2.02	34.8002095994629	0	1	0	1	0	34.8002095994629	0
2.03	34.7708982086986	0	1	0	1	0	34.7708982086986	0
2.04	34.7430822440992	0	1	0	1	0	34.7430822440992	0
2.05	34.7167457433824	0	1	0	1	0	34.7167457433824	0
2.06	34.6918730542131	0	1	0	1	0	34.6918730542131	0
2.07	34.6684488267168	0	1	0	1	0	34.6684488267168	0
2.08	34.6464580062089	0	1	0	1	0	34.6464580062089	0
2.09	34.6258858261328	0	1	0	1	0	34.6258858261328	0
2.1	34.6067178011994	0	1	0	1	0	34.6067178011994	0
2.11	34.5889397207226	0	1	0	1	0	34.5889397207226	0
2.12	34.5725376421422	0	1	0	1	0	34.5725376421422	0
2.13	34.5574978847302	0	1	0	1	0	34.5574978847302	0
2.14	34.543807023473	0	1	0	1	0	34.543807023473	0
2.15	34.531451883125	0	1	0	1	0	34.531451883125	0
2.16	34.5204195324263	0	1	0	1	0	34.5204195324263	0
2.17	34.5106972784815	0	1	0	1	0	34.5106972784815	0
2.18	34.5022726612922	0	1	0	1	0	34.5022726612922	0
2.19	34.4951334484399	0	1	0	1	0	34.4951334484399	0
2.2	34.4892676299137	0	1	0	1	0	34.4892676299137	0
2.21	34.4846634130787	0	1	0	1	0	34.4846634130787	0
2.22	34.4813092177795	0	1	0	1	0	34.4813092177795	0
2.23	34.4791936715767	0	1	0	1	0	34.4791936715767	0
2.24	34.4783056051104	0	1	0	1	0	34.4783056051104	0
2.25	34.4786340475866	0	1	0	1	0	34.4786340475866	0
2.26	34.4801682223851	0	1	0	1	0	34.4801682223851	0
2.27	34.4828975427818	0	1	0	1	0	34.4828975427818	0
2.28	34.4868116077848	0	1	0	1	0	34.4868116077848	0
2.29	34.4919001980788	0	1	0	1	0	34.4919001980788	0
2.3	34.4981532720757	0	1	0	1	0	34.4981532720757	0
2.31	34.5055609620678	0	1	0	1	0	34.5055609620678	0
2.32	34.5141135704803	0	1	0	1	0	34.5141135704803	0
2.33	34.5238015662203	0	1	0	1	0	34.5238015662203	0
2.34	34.5346155811195	0	1	0	1	0	34.5346155811195	0
2.35	34.5465464064679	0	1	0	1	0	34.5465464064679	0
2.36	34.5595849896354	0	1	0	1	0	34.5595849896354	0
2.37	34.5737224307788	0	1	0	1	0	34.5737224307788	0
2.38	34.588949979632	0	1	0	1	0	34.588949979632	0
2.39	34.605259032377	0	1	0	1	0	34.605259032377	0
2.4	34.6226411285929	0	1	0	1	0	34.6226411285929	0
2.41	34.6410879482803	0	1	0	1	0	34.6410879482803	0
2.42	34.660591308961	0	1	0	1	0	34.660591308961	0
2.43	34.6811431628472	0	1	0	1	0	34.6811431628472	0
2.44	34.7027355940827	0	1	0	1	0	34.7027355940827	0
2.45	34.7253608160492	0	1	0	1	0	34.7253608160492	0
2.46	34.7490111687403	0	1	0	1	0	34.7490111687403	0
2.47	34.7736791161985	0	1	0	1	0	34.7736791161985	0
2.48	34.7993572440136	0	1	0	1	0	34.7993572440136	0
2.49	34.8260382568827	0	1	0	1	0	34.8260382568827	0
2.5	34.8537149762276	0	1	0	1	0	34.8537149762276	0
2.51	34.8823803378697	0	1	0	1	0	34.8823803378697	0
2.52	34.9120273897605	0	1	0	1	0	34.9120273897605	0
2.53	34.942649289765	0	1	0	1	0	34.942649289765	0
2.54	34.9742393034985	0	1	0	1	0	34.9742393034985	0
2.55	35.0067908022136	0	1	0	1	0	35.0067908022136	0
2.56	35.0402972607373	0	1	0	1	0	35.0402972607373	0
2.57	35.0747522554555	0	1	0	1	0	35.0747522554555	0
2.58	35.1101494623451	0	1	0	1	0	35.1101494623451	0
2.59	35.1464826550513	0	1	0	1	0	35.1464826550513	0
2.6	35.1837457030094	0	1	0	1	0	35.1837457030094	0
2.61	35.2219325696097	0	1	0	1	0	35.2219325696097	0
2.62	35.2610373104044	0	1	0	1	0	35.2610373104044	0
2.63	35.3010540713556	0	1	0	1	0	35.3010540713556	0
2.64	35.3419770871231	0	1	0	1	0	35.3419770871231	0
2.65	35.3838006793905	0	1	0	1	0	35.3838006793905	0
2.66	35.4265192552296	0	1	0	1	0	35.4265192552296	0
2.67	35.4701273055016	0	1	0	1	0	35.4701273055016	0
2.68	35.5146194032935	0	1	0	1	0	35.5146194032935	0
2.69	35.5599902023899	0	1	0	1	0	35.5599902023899	0
2.7	35.6062344357786	0	1	0	1	0	35.6062344357786	0
2.71	35.6533469141892	0	1	0	1	0	35.6533469141892	0
2.72	35.7013225246643	0	1	0	1	0	35.7013225246643	0
2.73	35.7501562291615	0	1	0	1	0	35.7501562291615	0
2.74	35.7998430631865	0	1	0	1	0	35.7998430631865	0
2.75	35.8503781344557	0	1	0	1	0	35.8503781344557	0
2.76	35.9017566215883	0	1	0	1	0	35.9017566215883	0
2.77	35.9539737728263	0	1	0	1	0	35.9539737728263	0
2.78	36.0070249047823	0	1	0	1	0	36.0070249047823	0
2.79	36.0609054012143	0	1	0	1	0	36.0609054012143	0
2.8	36.1156107118265	0	1	0	1	0	36.1156107118265	0
2.81	36.1711363510961	0	1	0	1	0	36.1711363510961	0
2.82	36.2274778971246	0	1	0	1	0	36.2274778971246	0
2.83	36.284630990514	0	1	0	1	0	36.284630990514	0
2.84	36.3425913332662	0	1	0	1	0	36.3425913332662	0
2.85	36.4013546877059	0	1	0	1	0	36.4013546877059	0
2.86	36.4609168754259	0	1	0	1	0	36.4609168754259	0
2.87	36.5212737762548	0	1	0	1	0	36.5212737762548	0
2.88	36.5824213272456	0	1	0	1	0	36.5824213272456	0
2.89	36.6443555216859	0	1	0	1	0	36.6443555216859	0
2.9	36.7070724081286	0	1	0	1	0	36.7070724081286	0
2.91	36.7705680894416	0	1	0	1	0	36.7705680894416	0
2.92	36.8348387218784	0	1	0	1	0	36.8348387218784	0
2.93	36.8998805141669	0	1	0	1	0	36.8998805141669	0
2.94	36.9656897266167	0	1	0	1	0	36.9656897266167	0
2.95	37.0322626702453	0	1	0	1	0	37.0322626702453	0
2.96	37.0995957059213	0	1	0	1	0	37.0995957059213	0
2.97	37.167685243525	0	1	0	1	0	37.167685243525	0
2.98	37.2365277411263	0	1	0	1	0	37.2365277411263	0
2.99	37.3061197041789	0	1	0	1	0	37.3061197041789	0
3	37.3764576847303	0	1	0	1	0	37.3764576847303	0
3.01	37.447538280648	0	1	0	1	0	37.447538280648	0
3.02	37.519358134861	0	1	0	1	0	37.519358134861	0
3.03	37.5919139346159	0	1	0	1	0	37.5919139346159	0
3.04	37.6652024107481	0	1	0	1	0	37.6652024107481	0
3.05	37.7392203369675	0	1	0	1	0	37.7392203369675	0
3.06	37.8139645291576	0	1	0	1	0	37.8139645291576	0
3.07	37.8894318446889	0	1	0	1	0	37.8894318446889	0
3.08	37.965619181745	0	1	0	1	0	37.965619181745	0
3.09	38.0425234786627	0	1	0	1	0	38.0425234786627	0
3.1	38.120141713284	0	1	0	1	0	38.120141713284	0
3.11	38.1984709023212	0	1	0	1	0	38.1984709023212	0
3.12	38.2775081007338	0	1	0	1	0	38.2775081007338	0
3.13	38.3572504011177	0	1	0	1	0	38.3572504011177	0
3.14	38.4376949331057	0	1	0	1	0	38.4376949331057	0
3.15	38.5188388627796	0	1	0	1	0	38.5188388627796	0
3.16	38.6006793920939	0	1	0	1	0	38.6006793920939	0
3.17	38.6832137583094	0	1	0	1	0	38.6832137583094	0
3.18	38.7664392334384	0	1	0	1	0	38.7664392334384	0
3.19	38.8503531237	0	1	0	1	0	38.8503531237	0
3.2	38.9349527689856	0	1	0	1	0	38.9349527689856	0
3.21	39.0202355423341	0	1	0	1	0	39.0202355423341	0
3.22	39.1061988494178	0	1	0	1	0	39.1061988494178	0
3.23	39.1928401280367	0	1	0	1	0	39.1928401280367	0
3.24	39.2801568476229	0	1	0	1	0	39.2801568476229	0
3.25	39.3681465087541	0	1	0	1	0	39.3681465087541	0
3.26	39.4568066426756	0	1	0	1	0	39.4568066426756	0
3.27	39.5461348108316	0	1	0	1	0	39.5461348108316	0
3.28	39.6361286044048	0	1	0	1	0	39.6361286044048	0
3.29	39.7267856438643	0	1	0	1	0	39.7267856438643	0
3.3	39.8181035785223	0	1	0	1	0	39.8181035785223	0
3.31	39.9100800860977	0	1	0	1	0	39.9100800860977	0
3.32	40.0027128722891	0	1	0	1	0	40.0027128722891	0
3.33	40.0959996703539	0	1	0	1	0	40.0959996703539	0
3.34	40.1899382406964	0	1	0	1	0	40.1899382406964	0
3.35	40.2845263704622	0	1	0	1	0	40.2845263704622	0
3.36	40.3797618731405	0	1	0	1	0	40.3797618731405	0
3.37	40.475642588173	0	1	0	1	0	40.475642588173	0
3.38	40.5721663805702	0	1	0	1	0	40.5721663805702	0
3.39	40.6693311405344	0	1	0	1	0	40.6693311405344	0
3.4	40.7671347830888	0	1	0	1	0	40.7671347830888	0
3.41	40.8655752477139	0	1	0	1	0	40.8655752477139	0
3.42	40.9646504979899	0	1	0	1	0	40.9646504979899	0
3.43	41.0643585212452	0	1	0	1	0	41.0643585212452	0
3.44	41.1646973282115	0	1	0	1	0	41.1646973282115	0
3.45	41.2656649526843	0	1	0	1	0	41.2656649526843	0
3.46	41.3672594511901	0	1	0	1	0	41.3672594511901	0
3.47	41.4694789026582	0	1	0	1	0	41.4694789026582	0
3.48	41.5723214080994	0	1	0	1	0	41.5723214080994	0
3.49	41.6757850902893	0	1	0	1	0	41.6757850902893	0
3.5	41.7798680934576	0	1	0	1	0	41.7798680934576	0
3.51	41.8845685829823	0	1	0	1	0	41.8845685829823	0
3.52	41.9898847450894	0	1	0	1	0	41.9898847450894	0
3.53	42.0958147865576	0	1	0	1	0	42.0958147865576	0
3.54	42.2023569344279	0	1	0	1	0	42.2023569344279	0
3.55	42.3095094357185	0	1	0	1	0	42.3095094357185	0
3.56	42.4172705571438	0	1	0	1	0	42.4172705571438	0
3.57	42.5256385848388	0	1	0	1	0	42.5256385848388	0
3.58	42.634611824088	0	1	0	1	0	42.634611824088	0
3.59	42.7441885990584	0	1	0	1	0	42.7441885990584	0
3.6	42.8543672525374	0	1	0	1	0	42.8543672525374	0
3.61	42.9651461456748	0	1	0	1	0	42.9651461456748	0
3.62	43.0765236577292	0	1	0	1	0	43.0765236577292	0
3.63	43.1884981858189	0	1	0	1	0	43.1884981858189	0
3.64	43.301068144676	0	1	0	1	0	43.301068144676	0
3.65	43.4142319664055	0	1	0	1	0	43.4142319664055	0
3.66	43.5279881002478	0	1	0	1	0	43.5279881002478	0
3.67	43.6423350123453	0	1	0	1	0	43.6423350123453	0
3.68	43.757271185513	0	1	0	1	0	43.757271185513	0
3.69	43.872795119012	0	1	0	1	0	43.872795119012	0
3.7	43.988905328328	0	1	0	1	0	43.988905328328	0
3.71	44.1056003449518	0	1	0	1	0	44.1056003449518	0
3.72	44.2228787161649	0	1	0	1	0	44.2228787161649	0
3.73	44.3407390048276	0	1	0	1	0	44.3407390048276	0
3.74	44.4591797891704	0	1	0	1	0	44.4591797891704	0
3.75	44.5781996625897	0	1	0	1	0	44.5781996625897	0
3.76	44.6977972334455	0	1	0	1	0	44.6977972334455	0
3.77	44.8179711248633	0	1	0	1	0	44.8179711248633	0
3.78	44.9387199745387	0	1	0	1	0	44.9387199745387	0
3.79	45.0600424345452	0	1	0	1	0	45.0600424345452	0
3.8	45.1819371711449	0	1	0	1	0	45.1819371711449	0
3.81	45.3044028646025	0	1	0	1	0	45.3044028646025	0
3.82	45.427438209002	0	1	0	1	0	45.427438209002	0
3.83	45.551041912066	0	1	0	1	0	45.551041912066	0
3.84	45.6752126949785	0	1	0	1	0	45.6752126949785	0
3.85	45.7999492922097	0	1	0	1	0	45.7999492922097	0
3.86	45.9252504513443	0	1	0	1	0	45.9252504513443	0
3.87	46.0511149329119	0	1	0	1	0	46.0511149329119	0
3.88	46.1775415102198	0	1	0	1	0	46.1775415102198	0
3.89	46.3045289691895	0	1	0	1	0	46.3045289691895	0
3.9	46.4320761081944	0	1	0	1	0	46.4320761081944	0
3.91	46.5601817379008	0	1	0	1	0	46.5601817379008	0
3.92	46.688844681111	0	1	0	1	0	46.688844681111	0
3.93	46.8180637726089	0	1	0	1	0	46.8180637726089	0
3.94	46.9478378590083	0	1	0	1	0	46.9478378590083	0
3.95	47.0781657986025	0	1	0	1	0	47.0781657986025	0
3.96	47.2090464612175	0	1	0	1	0	47.2090464612175	0
3.97	47.3404787280661	0	1	0	1	0	47.3404787280661	0
3.98	47.4724614916055	0	1	0	1	0	47.4724614916055	0
3.99	47.604993655396	0	1	0	1	0	47.604993655396	0
4	47.7380741339623	0	1	0	1	0	47.7380741339623	0
4.01	47.8717018526566	0	1	0	1	0	47.8717018526566	0
4.02	48.0058757475243	0	1	0	1	0	48.0058757475243	0
4.03	48.1405947651713	0	1	0	1	0	48.1405947651713	0
4.04	48.2758578626327	0	1	0	1	0	48.2758578626327	0
4.05	48.4116640072449	0	1	0	1	0	48.4116640072449	0
4.06	48.5480121765182	0	1	0	1	0	48.5480121765182	0
4.07	48.6849013580117	0	1	0	1	0	48.6849013580117	0
4.08	48.8223305492108	0	1	0	1	0	48.8223305492108	0
4.09	48.9602987574052	0	1	0	1	0	48.9602987574052	0
4.1	49.0988049995696	0	1	0	1	0	49.0988049995696	0
4.11	49.2378483022458	0	1	0	1	0	49.2378483022458	0
4.12	49.3774277014268	0	1	0	1	0	49.3774277014268	0
4.13	49.5175422424422	0	1	0	1	0	49.5175422424422	0
4.14	49.6581909798454	0	1	0	1	0	49.6581909798454	0
4.15	49.7993729773025	0	1	0	1	0	49.7993729773025	0
4.16	49.9410873074829	0	1	0	1	0	49.9410873074829	0
4.17	50.0833330519513	0	1	0	1	0	50.0833330519513	0
4.18	50.2261093010611	0	1	0	1	0	50.2261093010611	0
4.19	50.3694151538498	0	1	0	1	0	50.3694151538498	0
4.2	50.5132497179355	0	1	0	1	0	50.5132497179355	0
4.21	50.6576121094149	0	1	0	1	0	50.6576121094149	0
4.22	50.8025014527629	0	1	0	1	0	50.8025014527629	0
4.23	50.9479168807338	0	1	0	1	0	50.9479168807338	0
4.24	51.0938575342633	0	1	0	1	0	51.0938575342633	0
4.25	51.2403225623724	0	1	0	1	0	51.2403225623724	0
4.26	51.3873111220727	0	1	0	1	0	51.3873111220727	0
4.27	51.5348223782723	0	1	0	1	0	51.5348223782723	0
4.28	51.6828555036842	0	1	0	1	0	51.6828555036842	0
4.29	51.831409678735	0	1	0	1	0	51.831409678735	0
4.3	51.9804840914752	0	1	0	1	0	51.9804840914752	0
4.31	52.1300779374906	0	1	0	1	0	52.1300779374906	0
4.32	52.2801904198155	0	1	0	1	0	52.2801904198155	0
4.33	52.4308207488466	0	1	0	1	0	52.4308207488466	0
4.34	52.5819681422576	0	1	0	1	0	52.5819681422576	0
4.35	52.7336318249165	0	1	0	1	0	52.7336318249165	0
4.36	52.8858110288022	0	1	0	1	0	52.8858110288022	0
4.37	53.0385049929239	0	1	0	1	0	53.0385049929239	0
4.38	53.1917129632401	0	1	0	1	0	53.1917129632401	0
4.39	53.3454341925802	0	1	0	1	0	53.3454341925802	0
4.4	53.4996679405659	0	1	0	1	0	53.4996679405659	0
4.41	53.6544134735342	0	1	0	1	0	53.6544134735342	0
4.42	53.8096700644619	0	1	0	1	0	53.8096700644619	0
4.43	53.9654369928902	0	1	0	1	0	53.9654369928902	0
4.44	54.1217135448507	0	1	0	1	0	54.1217135448507	0
4.45	54.2784990127931	0	1	0	1	0	54.2784990127931	0
4.46	54.4357926955125	0	1	0	1	0	54.4357926955125	0
4.47	54.593593898079	0	1	0	1	0	54.593593898079	0
4.48	54.7519019317673	0	1	0	1	0	54.7519019317673	0
4.49	54.9107161139877	0	1	0	1	0	54.9107161139877	0
4.5	55.0700357682181	0	1	0	1	0	55.0700357682181	0
4.51	55.2298602239365	0	1	0	1	0	55.2298602239365	0
4.52	55.3901888165548	0	1	0	1	0	55.3901888165548	0
4.53	55.5510208873532	0	1	0	1	0	55.5510208873532	0
4.54	55.7123557834155	0	1	0	1	0	55.7123557834155	0
4.55	55.8741928575655	0	1	0	1	0	55.8741928575655	0
4.56	56.036531468304	0	1	0	1	0	56.036531468304	0
4.57	56.1993709797467	0	1	0	1	0	56.1993709797467	0
4.58	56.3627107615628	0	1	0	1	0	56.3627107615628	0
4.59	56.5265501889147	0	1	0	1	0	56.5265501889147	0
4.6	56.6908886423979	0	1	0	1	0	56.6908886423979	0
4.61	56.8557255079826	0	1	0	1	0	56.8557255079826	0
4.62	57.0210601769553	0	1	0	1	0	57.0210601769553	0
4.63	57.1868920458612	0	1	0	1	0	57.1868920458612	0
4.64	57.3532205164477	0	1	0	1	0	57.3532205164477	0
4.65	57.5200449956086	0	1	0	1	0	57.5200449956086	0
4.66	57.6873648953287	0	1	0	1	0	57.6873648953287	0
4.67	57.8551796326291	0	1	0	1	0	57.8551796326291	0
4.68	58.023488629514	0	1	0	1	0	58.023488629514	0
4.69	58.1922913129169	0	1	0	1	0	58.1922913129169	0
4.7	58.3615871146487	0	1	0	1	0	58.3615871146487	0
4.71	58.5313754713455	0	1	0	1	0	58.5313754713455	0
4.72	58.7016558244177	0	1	0	1	0	58.7016558244177	0
4.73	58.8724276199997	0	1	0	1	0	58.8724276199997	0
4.74	59.0436903088995	0	1	0	1	0	59.0436903088995	0
4.75	59.2154433465502	0	1	0	1	0	59.2154433465502	0
4.76	59.3876861929609	0	1	0	1	0	59.3876861929609	0
4.77	59.5604183126691	0	1	0	1	0	59.5604183126691	0
4.78	59.733639174693	0	1	0	1	0	59.733639174693	0
4.79	59.907348252485	0	1	0	1	0	59.907348252485	0
4.8	60.0815450238853	0	1	0	1	0	60.0815450238853	0
4.81	60.2562289710765	0	1	0	1	0	60.2562289710765	0
4.82	60.4313995805382	0	1	0	1	0	60.4313995805382	0
4.83	60.6070563430031	0	1	0	1	0	60.6070563430031	0
4.84	60.7831987534125	0	1	0	1	0	60.7831987534125	0
4.85	60.9598263108731	0	1	0	1	0	60.9598263108731	0
4.86	61.1369385186144	0	1	0	1	0	61.1369385186144	0
4.87	61.3145348839458	0	1	0	1	0	61.3145348839458	0
4.88	61.4926149182156	0	1	0	1	0	61.4926149182156	0
4.89	61.6711781367688	0	1	0	1	0	61.6711781367688	0
4.9	61.8502240589071	0	1	0	1	0	61.8502240589071	0
4.91	62.0297522078481	0	1	0	1	0	62.0297522078481	0
4.92	62.2097621106857	0	1	0	1	0	62.2097621106857	0
4.93	62.3902532983509	0	1	0	1	0	62.3902532983509	0
