# GHZ S RI R 50
1	57.1566134247906	0	1	0	1	0	57.1566134247906	0
1.01	56.6829526765055	0	1	0	1	0	56.6829526765055	0
1.02	56.2196007926395	0	1	0	1	0	56.2196007926395	0
1.03	55.7662675296816	0	1	0	1	0	55.7662675296816	0
1.04	55.3226738073329	0	1	0	1	0	55.3226738073329	0
1.05	54.8885511769248	0	1	0	1	0	54.8885511769248	0
1.06	54.4636413199271	0	1	0	1	0	54.4636413199271	0
1.07	54.0476955745771	0	1	0	1	0	54.0476955745771	0
1.08	53.640474488807	0	1	0	1	0	53.640474488807	0
1.09	53.2417473977811	0	1	0	1	0	53.2417473977811	0
1.1	52.8512920244755	0	1	0	1	0	52.8512920244755	0
1.11	52.4688941018494	0	1	0	1	0	52.4688941018494	0
1.12	52.0943470152562	0	1	0	1	0	52.0943470152562	0
1.13	51.7274514638424	0	1	0	1	0	51.7274514638424	0
1.14	51.3680151397663	0	1	0	1	0	51.3680151397663	0
1.15	51.0158524241552	0	1	0	1	0	51.0158524241552	0
1.16	50.6707840987869	0	1	0	1	0	50.6707840987869	0
1.17	50.332637072558	0	1	0	1	0	50.332637072558	0
1.18	50.00124412186	0	1	0	1	0	50.00124412186	0
1.19	49.6764436440462	0	1	0	1	0	49.6764436440462	0
1.2	49.3580794232246	0	1	0	1	0	49.3580794232246	0
1.21	49.0460004076651	0	1	0	1	0	49.0460004076651	0
1.22	48.7400604981533	0	1	0	1	0	48.7400604981533	0
1.23	48.4401183466687	0	1	0	1	0	48.4401183466687	0
1.24	48.1460371648044	0	1	0	1	0	48.1460371648044	0
1.25	47.8576845413824	0	1	0	1	0	47.8576845413824	0
1.26	47.5749322687545	0	1	0	1	0	47.5749322687545	0
1.27	47.2976561773083	0	1	0	1	0	47.2976561773083	0
1.28	47.0257359777319	0	1	0	1	0	47.0257359777319	0
1.29	46.7590551106147	0	1	0	1	0	46.7590551106147	0
1.3	46.4975006029892	0	1	0	1	0	46.4975006029892	0
1.31	46.2409629314446	0	1	0	1	0	46.2409629314446	0
1.32	45.9893358914608	0	1	0	1	0	45.9893358914608	0
1.33	45.742516472639	0	1	0	1	0	45.742516472639	0
1.34	45.5004047395175	0	1	0	1	0	45.5004047395175	0
1.35	45.2629037176855	0	1	0	1	0	45.2629037176855	0
1.36	45.0299192849205	0	1	0	1	0	45.0299192849205	0
1.37	44.8013600670943	0	1	0	1	0	44.8013600670943	0
1.38	44.577137338604	0	1	0	1	0	44.577137338604	0
1.39	44.3571649271015	0	1	0	1	0	44.3571649271015	0
1.4	44.1413591223059	0	1	0	1	0	44.1413591223059	0
1.41	43.929638588696	0	1	0	1	0	43.929638588696	0
1.42	43.7219242818918	0	1	0	1	0	43.7219242818918	0
1.43	43.5181393685453	0	1	0	1	0	43.5181393685453	0
1.44	43.3182091495679	0	1	0	1	0	43.3182091495679	0
1.45	43.1220609865356	0	1	0	1	0	43.1220609865356	0
1.46	42.9296242311181	0	1	0	1	0	42.9296242311181	0
1.47	42.7408301573889	0	1	0	1	0	42.7408301573889	0
1.48	42.5556118968788	0	1	0	1	0	42.5556118968788	0
1.49	42.3739043762452	0	1	0	1	0	42.3739043762452	0
1.5	42.1956442574348	0	1	0	1	0	42.1956442574348	0
1.51	42.0207698802235	0	1	0	1	0	42.0207698802235	0
1.52	41.8492212070245	0	1	0	1	0	41.8492212070245	0
1.53	41.6809397698615	0	1	0	1	0	41.6809397698615	0
1.54	41.5158686194065	0	1	0	1	0	41.5158686194065	0
1.55	41.3539522759918	0	1	0	1	0	41.3539522759918	0
1.56	41.1951366825052	0	1	0	1	0	41.1951366825052	0
1.57	41.039369159086	0	1	0	1	0	41.039369159086	0
1.58	40.8865983595405	0	1	0	1	0	40.8865983595405	0
1.59	40.7367742294034	0	1	0	1	0	40.7367742294034	0
1.6	40.589847965571	0	1	0	1	0	40.589847965571	0
1.61	40.4457719774389	0	1	0	1	0	40.4457719774389	0
1.62	40.3044998494795	0	1	0	1	0	40.3044998494795	0
1.63	40.1659863051967	0	1	0	1	0	40.1659863051967	0
1.64	40.0301871723987	0	1	0	1	0	40.0301871723987	0
1.65	39.8970593497353	0	1	0	1	0	39.8970593497353	0
1.66	39.7665607744427	0	1	0	1	0	39.7665607744427	0
1.67	39.6386503912484	0	1	0	1	0	39.6386503912484	0
1.68	39.5132881223866	0	1	0	1	0	39.5132881223866	0
1.69	39.3904348386777	0	1	0	1	0	39.3904348386777	0
1.7	39.2700523316284	0	1	0	1	0	39.2700523316284	0
1.71	39.1521032865115	0	1	0	1	0	39.1521032865115	0
1.72	39.0365512563842	0	1	0	1	0	39.0365512563842	0
1.73	38.9233606370076	0	1	0	1	0	38.9233606370076	0
1.74	38.8124966426308	0	1	0	1	0	38.8124966426308	0
1.75	38.703925282606	0	1	0	1	0	38.703925282606	0
1.76	38.5976133388001	0	1	0	1	0	38.5976133388001	0
1.77	38.4935283437723	0	1	0	1	0	38.4935283437723	0
1.78	38.3916385596871	0	1	0	1	0	38.3916385596871	0
1.79	38.2919129579344	0	1	0	1	0	38.2919129579344	0
1.8	38.1943211994289	0	1	0	1	0	38.1943211994289	0
1.81	38.0988336155621	0	1	0	1	0	38.0988336155621	0
1.82	38.0054211897831	0	1	0	1	0	38.0054211897831	0
1.83	37.9140555397822	0	1	0	1	0	37.9140555397822	0
1.84	37.8247089002568	0	1	0	1	0	37.8247089002568	0
1.85	37.737354106235	0	1	0	1	0	37.737354106235	0
1.86	37.6519645769378	0	1	0	1	0	37.6519645769378	0
1.87	37.568514300159	0	1	0	1	0	37.568514300159	0
1.88	37.4869778171438	0	1	0	1	0	37.4869778171438	0
1.89	37.4073302079468	0	1	0	1	0	37.4073302079468	0
1.9	37.329547077253	0	1	0	1	0	37.329547077253	0
1.91	37.2536045406444	0	1	0	1	0	37.2536045406444	0
1.92	37.1794792112946	0	1	0	1	0	37.1794792112946	0
1.93	37.1071481870785	0	1	0	1	0	37.1071481870785	0
1.94	37.0365890380799	0	1	0	1	0	37.0365890380799	0
1.95	36.967779794483	0	1	0	1	0	36.967779794483	0
1.96	36.9006989348361	0	1	0	1	0	36.9006989348361	0
1.97	36.835325374671	0	1	0	1	0	36.835325374671	0
1.98	36.7716384554683	0	1	0	1	0	36.7716384554683	0
1.99	36.7096179339554	0	1	0	1	0	36.7096179339554	0
2	36.6492439717251	0	1	0	1	0	36.6492439717251	0
2.01	36.5904971251644	0	1	0	1	0	36.5904971251644	0
2.02	36.5333583356822	0	1	0	1	0	36.5333583356822	0
2.03	36.4778089202262	0	1	0	1	0	36.4778089202262	0
2.04	36.4238305620786	0	1	0	1	0	36.4238305620786	0
2.05	36.3714053019209	0	1	0	1	0	36.3714053019209	0
2.06	36.320515529159	0	1	0	1	0	36.320515529159	0
2.07	36.2711439735005	0	1	0	1	0	36.2711439735005	0
2.08	36.2232736967738	0	1	0	1	0	36.2232736967738	0
2.09	36.1768880849829	0	1	0	1	0	36.1768880849829	0
2.1	36.1319708405888	0	1	0	1	0	36.1319708405888	0
2.11	36.0885059750105	0	1	0	1	0	36.0885059750105	0
2.12	36.0464778013387	0	1	0	1	0	36.0464778013387	0
2.13	36.0058709272536	0	1	0	1	0	36.0058709272536	0
2.14	35.9666702481424	0	1	0	1	0	35.9666702481424	0
2.15	35.9288609404084	0	1	0	1	0	35.9288609404084	0
2.16	35.892428454966	0	1	0	1	0	35.892428454966	0
2.17	35.8573585109152	0	1	0	1	0	35.8573585109152	0
2.18	35.8236370893914	0	1	0	1	0	35.8236370893914	0
2.19	35.7912504275818	0	1	0	1	0	35.7912504275818	0
2.2	35.7601850129068	0	1	0	1	0	35.7601850129068	0
2.21	35.7304275773584	0	1	0	1	0	35.7304275773584	0
2.22	35.7019650919918	0	1	0	1	0	35.7019650919918	0
2.23	35.6747847615652	0	1	0	1	0	35.6747847615652	0
2.24	35.6488740193232	0	1	0	1	0	35.6488740193232	0
2.25	35.6242205219195	0	1	0	1	0	35.6242205219195	0
2.26	35.600812144474	0	1	0	1	0	35.600812144474	0
2.27	35.578636975761	0	1	0	1	0	35.578636975761	0
2.28	35.5576833135236	0	1	0	1	0	35.5576833135236	0
2.29	35.5379396599112	0	1	0	1	0	35.5379396599112	0
2.3	35.5193947170356	0	1	0	1	0	35.5193947170356	0
2.31	35.5020373826432	0	1	0	1	0	35.5020373826432	0
2.32	35.4858567458987	0	1	0	1	0	35.4858567458987	0
2.33	35.4708420832771	0	1	0	1	0	35.4708420832771	0
2.34	35.4569828545614	0	1	0	1	0	35.4569828545614	0
2.35	35.4442686989429	0	1	0	1	0	35.4442686989429	0
2.36	35.4326894312194	0	1	0	1	0	35.4326894312194	0
2.37	35.4222350380913	0	1	0	1	0	35.4222350380913	0
2.38	35.4128956745494	0	1	0	1	0	35.4128956745494	0
2.39	35.4046616603546	0	1	0	1	0	35.4046616603546	0
2.4	35.3975234766053	0	1	0	1	0	35.3975234766053	0
2.41	35.3914717623897	0	1	0	1	0	35.3914717623897	0
2.42	35.3864973115221	0	1	0	1	0	35.3864973115221	0
2.43	35.3825910693587	0	1	0	1	0	35.3825910693587	0
2.44	35.3797441296926	0	1	0	1	0	35.3797441296926	0
2.45	35.3779477317244	0	1	0	1	0	35.3779477317244	0
2.46	35.3771932571065	0	1	0	1	0	35.3771932571065	0
2.47	35.3774722270601	0	1	0	1	0	35.3774722270601	0
2.48	35.3787762995605	0	1	0	1	0	35.3787762995605	0
2.49	35.3810972665915	0	1	0	1	0	35.3810972665915	0
2.5	35.3844270514654	0	1	0	1	0	35.3844270514654	0
2.51	35.3887577062065	0	1	0	1	0	35.3887577062065	0
2.52	35.3940814089973	0	1	0	1	0	35.3940814089973	0
2.53	35.4003904616855	0	1	0	1	0	35.4003904616855	0
2.54	35.4076772873498	0	1	0	1	0	35.4076772873498	0
2.55	35.4159344279221	0	1	0	1	0	35.4159344279221	0
2.56	35.4251545418671	0	1	0	1	0	35.4251545418671	0
2.57	35.4353304019142	0	1	0	1	0	35.4353304019142	0
2.58	35.4464548928438	0	1	0	1	0	35.4464548928438	0
2.59	35.4585210093237	0	1	0	1	0	35.4585210093237	0
2.6	35.4715218537962	0	1	0	1	0	35.4715218537962	0
2.61	35.4854506344132	0	1	0	1	0	35.4854506344132	0
2.62	35.5003006630189	0	1	0	1	0	35.5003006630189	0
2.63	35.5160653531786	0	1	0	1	0	35.5160653531786	0
2.64	35.5327382182519	0	1	0	1	0	35.5327382182519	0
2.65	35.5503128695102	0	1	0	1	0	35.5503128695102	0
2.66	35.5687830142957	0	1	0	1	0	35.5687830142957	0
2.67	35.588142454223	0	1	0	1	0	35.588142454223	0
2.68	35.6083850834196	0	1	0	1	0	35.6083850834196	0
2.69	35.6295048868067	0	1	0	1	0	35.6295048868067	0
2.7	35.651495938418	0	1	0	1	0	35.651495938418	0
2.71	35.674352399755	0	1	0	1	0	35.674352399755	0
2.72	35.6980685181797	0	1	0	1	0	35.6980685181797	0
2.73	35.7226386253419	0	1	0	1	0	35.7226386253419	0
2.74	35.7480571356407	0	1	0	1	0	35.7480571356407	0
2.75	35.7743185447207	0	1	0	1	0	35.7743185447207	0
2.76	35.8014174279995	0	1	0	1	0	35.8014174279995	0
2.77	35.8293484392281	0	1	0	1	0	35.8293484392281	0
2.78	35.8581063090821	0	1	0	1	0	35.8581063090821	0
2.79	35.8876858437826	0	1	0	1	0	35.8876858437826	0
2.8	35.9180819237479	0	1	0	1	0	35.9180819237479	0
2.81	35.9492895022728	0	1	0	1	0	35.9492895022728	0
2.82	35.9813036042364	0	1	0	1	0	35.9813036042364	0
2.83	36.0141193248378	0	1	0	1	0	36.0141193248378	0
2.84	36.0477318283577	0	1	0	1	0	36.0477318283577	0
2.85	36.0821363469464	0	1	0	1	0	36.0821363469464	0
2.86	36.1173281794376	0	1	0	1	0	36.1173281794376	0
2.87	36.1533026901864	0	1	0	1	0	36.1533026901864	0
2.88	36.1900553079319	0	1	0	1	0	36.1900553079319	0
2.89	36.2275815246832	0	1	0	1	0	36.2275815246832	0
2.9	36.2658768946286	0	1	0	1	0	36.2658768946286	0
2.91	36.3049370330673	0	1	0	1	0	36.3049370330673	0
2.92	36.3447576153627	0	1	0	1	0	36.3447576153627	0
2.93	36.3853343759177	0	1	0	1	0	36.3853343759177	0
2.94	36.4266631071706	0	1	0	1	0	36.4266631071706	0
2.95	36.4687396586114	0	1	0	1	0	36.4687396586114	0
2.96	36.511559935818	0	1	0	1	0	36.511559935818	0
2.97	36.5551198995119	0	1	0	1	0	36.5551198995119	0
2.98	36.5994155646334	0	1	0	1	0	36.5994155646334	0
2.99	36.6444429994345	0	1	0	1	0	36.6444429994345	0
3	36.6901983245904	0	1	0	1	0	36.6901983245904	0
3.01	36.7366777123288	0	1	0	1	0	36.7366777123288	0
3.02	36.7838773855766	0	1	0	1	0	36.7838773855766	0
3.03	36.8317936171229	0	1	0	1	0	36.8317936171229	0
3.04	36.880422728799	0	1	0	1	0	36.880422728799	0
3.05	36.9297610906745	0	1	0	1	0	36.9297610906745	0
3.06	36.9798051202691	0	1	0	1	0	36.9798051202691	0
3.07	37.0305512817798	0	1	0	1	0	37.0305512817798	0
3.08	37.0819960853231	0	1	0	1	0	37.0819960853231	0
3.09	37.1341360861919	0	1	0	1	0	37.1341360861919	0
3.1	37.1869678841271	0	1	0	1	0	37.1869678841271	0
3.11	37.2404881226026	0	1	0	1	0	37.2404881226026	0
3.12	37.294693488125	0	1	0	1	0	37.294693488125	0
3.13	37.3495807095456	0	1	0	1	0	37.3495807095456	0
3.14	37.4051465573864	0	1	0	1	0	37.4051465573864	0
3.15	37.4613878431789	0	1	0	1	0	37.4613878431789	0
3.16	37.5183014188146	0	1	0	1	0	37.5183014188146	0
3.17	37.575884175909	0	1	0	1	0	37.575884175909	0
3.18	37.6341330451768	0	1	0	1	0	37.6341330451768	0
3.19	37.6930449958188	0	1	0	1	0	37.6930449958188	0
3.2	37.7526170349211	0	1	0	1	0	37.7526170349211	0
3.21	37.8128462068645	0	1	0	1	0	37.8128462068645	0
3.22	37.8737295927455	0	1	0	1	0	37.8737295927455	0
3.23	37.9352643098082	0	1	0	1	0	37.9352643098082	0
3.24	37.9974475108861	0	1	0	1	0	37.9974475108861	0
3.25	38.0602763838549	0	1	0	1	0	38.0602763838549	0
3.26	38.1237481510948	0	1	0	1	0	38.1237481510948	0
3.27	38.187860068963	0	1	0	1	0	38.187860068963	0
3.28	38.2526094272758	0	1	0	1	0	38.2526094272758	0
3.29	38.3179935488001	0	1	0	1	0	38.3179935488001	0
3.3	38.3840097887539	0	1	0	1	0	38.3840097887539	0
3.31	38.4506555343166	0	1	0	1	0	38.4506555343166	0
3.32	38.5179282041472	0	1	0	1	0	38.5179282041472	0
3.33	38.5858252479119	0	1	0	1	0	38.5858252479119	0
3.34	38.6543441458196	0	1	0	1	0	38.6543441458196	0
3.35	38.7234824081666	0	1	0	1	0	38.7234824081666	0
3.36	38.7932375748881	0	1	0	1	0	38.7932375748881	0
3.37	38.8636072151193	0	1	0	1	0	38.8636072151193	0
3.38	38.9345889267628	0	1	0	1	0	38.9345889267628	0
3.39	39.0061803360646	0	1	0	1	0	39.0061803360646	0
3.4	39.0783790971972	0	1	0	1	0	39.0783790971972	0
3.41	39.1511828918501	0	1	0	1	0	39.1511828918501	0
3.42	39.2245894288277	0	1	0	1	0	39.2245894288277	0
3.43	39.2985964436536	0	1	0	1	0	39.2985964436536	0
3.44	39.3732016981828	0	1	0	1	0	39.3732016981828	0
3.45	39.4484029802196	0	1	0	1	0	39.4484029802196	0
3.46	39.5241981031431	0	1	0	1	0	39.5241981031431	0
3.47	39.6005849055379	0	1	0	1	0	39.6005849055379	0
3.48	39.6775612508331	0	1	0	1	0	39.6775612508331	0
3.49	39.7551250269452	0	1	0	1	0	39.7551250269452	0
3.5	39.833274145929	0	1	0	1	0	39.833274145929	0
3.51	39.9120065436336	0	1	0	1	0	39.9120065436336	0
3.52	39.9913201793642	0	1	0	1	0	39.9913201793642	0
3.53	40.0712130355502	0	1	0	1	0	40.0712130355502	0
3.54	40.1516831174183	0	1	0	1	0	40.1516831174183	0
3.55	40.2327284526715	0	1	0	1	0	40.2327284526715	0
3.56	40.3143470911735	0	1	0	1	0	40.3143470911735	0
3.57	40.3965371046382	0	1	0	1	0	40.3965371046382	0
3.58	40.4792965863248	0	1	0	1	0	40.4792965863248	0
3.59	40.5626236507372	0	1	0	1	0	40.5626236507372	0
3.6	40.6465164333296	0	1	0	1	0	40.6465164333296	0
3.61	40.7309730902156	0	1	0	1	0	40.7309730902156	0
3.62	40.8159917978835	0	1	0	1	0	40.8159917978835	0
3.63	40.9015707529155	0	1	0	1	0	40.9015707529155	0
3.64	40.9877081717112	0	1	0	1	0	40.9877081717112	0
3.65	41.0744022902169	0	1	0	1	0	41.0744022902169	0
3.66	41.1616513636579	0	1	0	1	0	41.1616513636579	0
3.67	41.2494536662762	0	1	0	1	0	41.2494536662762	0
3.68	41.3378074910721	0	1	0	1	0	41.3378074910721	0
3.69	41.4267111495499	0	1	0	1	0	41.4267111495499	0
3.7	41.5161629714679	0	1	0	1	0	41.5161629714679	0
3.71	41.6061613045925	0	1	0	1	0	41.6061613045925	0
3.72	41.6967045144559	0	1	0	1	0	41.6967045144559	0
3.73	41.7877909841182	0	1	0	1	0	41.7877909841182	0
3.74	41.879419113933	0	1	0	1	0	41.879419113933	0
3.75	41.9715873213166	0	1	0	1	0	41.9715873213166	0
3.76	42.0642940405217	0	1	0	1	0	42.0642940405217	0
3.77	42.1575377224132	0	1	0	1	0	42.1575377224132	0
3.78	42.2513168342493	0	1	0	1	0	42.2513168342493	0
3.79	42.3456298594648	0	1	0	1	0	42.3456298594648	0
3.8	42.4404752974584	0	1	0	1	0	42.4404752974584	0
3.81	42.535851663383	0	1	0	1	0	42.535851663383	0
3.82	42.6317574879399	0	1	0	1	0	42.6317574879399	0
3.83	42.7281913171752	0	1	0	1	0	42.7281913171752	0
3.84	42.8251517122807	0	1	0	1	0	42.8251517122807	0
3.85	42.9226372493966	0	1	0	1	0	42.9226372493966	0
3.86	43.0206465194182	0	1	0	1	0	43.0206465194182	0
3.87	43.1191781278053	0	1	0	1	0	43.1191781278053	0
3.88	43.2182306943942	0	1	0	1	0	43.2182306943942	0
3.89	43.3178028532134	0	1	0	1	0	43.3178028532134	0
3.9	43.417893252301	0	1	0	1	0	43.417893252301	0
3.91	43.5185005535263	0	1	0	1	0	43.5185005535263	0
3.92	43.6196234324127	0	1	0	1	0	43.6196234324127	0
3.93	43.7212605779643	0	1	0	1	0	43.7212605779643	0
3.94	43.823410692495	0	1	0	1	0	43.823410692495	0
3.95	43.9260724914597	0	1	0	1	0	43.9260724914597	0
3.96	44.0292447032884	0	1	0	1	0	44.0292447032884	0
3.97	44.1329260692232	0	1	0	1	0	44.1329260692232	0
3.98	44.2371153431566	0	1	0	1	0	44.2371153431566	0
3.99	44.3418112914738	0	1	0	1	0	44.3418112914738	0
4	44.4470126928959	0	1	0	1	0	44.4470126928959	0
4.01	44.5527183383265	0	1	0	1	0	44.5527183383265	0
4.02	44.6589270306998	0	1	0	1	0	44.6589270306998	0
4.03	44.7656375848319	0	1	0	1	0	44.7656375848319	0
4.04	44.8728488272729	0	1	0	1	0	44.8728488272729	0
4.05	44.9805595961629	0	1	0	1	0	44.9805595961629	0
4.06	45.0887687410889	0	1	0	1	0	45.0887687410889	0
4.07	45.1974751229439	0	1	0	1	0	45.1974751229439	0
4.08	45.3066776137889	0	1	0	1	0	45.3066776137889	0
4.09	45.416375096716	0	1	0	1	0	45.416375096716	0
4.1	45.5265664657138	0	1	0	1	0	45.5265664657138	0
4.11	45.6372506255351	0	1	0	1	0	45.6372506255351	0
4.12	45.7484264915664	0	1	0	1	0	45.7484264915664	0
4.13	45.8600929896985	0	1	0	1	0	45.8600929896985	0
4.14	45.9722490562005	0	1	0	1	0	45.9722490562005	0
4.15	46.084893637594	0	1	0	1	0	46.084893637594	0
4.16	46.1980256905304	0	1	0	1	0	46.1980256905304	0
4.17	46.3116441816691	0	1	0	1	0	46.3116441816691	0
4.18	46.425748087558	0	1	0	1	0	46.425748087558	0
4.19	46.5403363945155	0	1	0	1	0	46.5403363945155	0
4.2	46.6554080985139	0	1	0	1	0	46.6554080985139	0
4.21	46.7709622050651	0	1	0	1	0	46.7709622050651	0
4.22	46.8869977291075	0	1	0	1	0	46.8869977291075	0
4.23	47.0035136948944	0	1	0	1	0	47.0035136948944	0
4.24	47.1205091358843	0	1	0	1	0	47.1205091358843	0
4.25	47.2379830946324	0	1	0	1	0	47.2379830946324	0
4.26	47.3559346226842	0	1	0	1	0	47.3559346226842	0
4.27	47.4743627804699	0	1	0	1	0	47.4743627804699	0
4.28	47.5932666372009	0	1	0	1	0	47.5932666372009	0
4.29	47.712645270767	0	1	0	1	0	47.712645270767	0
4.3	47.832497767636	0	1	0	1	0	47.832497767636	0
4.31	47.9528232227539	0	1	0	1	0	47.9528232227539	0
4.32	48.0736207394468	0	1	0	1	0	48.0736207394468	0
4.33	48.1948894293241	0	1	0	1	0	48.1948894293241	0
4.34	48.3166284121833	0	1	0	1	0	48.3166284121833	0
4.35	48.4388368159155	0	1	0	1	0	48.4388368159155	0
4.36	48.5615137764131	0	1	0	1	0	48.5615137764131	0
4.37	48.6846584374775	0	1	0	1	0	48.6846584374775	0
4.38	48.8082699507298	0	1	0	1	0	48.8082699507298	0
4.39	48.9323474755208	0	1	0	1	0	48.9323474755208	0
4.4	49.0568901788437	0	1	0	1	0	49.0568901788437	0
4.41	49.1818972352474	0	1	0	1	0	49.1818972352474	0
4.42	49.3073678267508	0	1	0	1	0	49.3073678267508	0
4.43	49.4333011427587	0	1	0	1	0	49.4333011427587	0
4.44	49.5596963799786	0	1	0	1	0	49.5596963799786	0
4.45	49.6865527423385	0	1	0	1	0	49.6865527423385	0
4.46	49.8138694409062	0	1	0	1	0	49.8138694409062	0
4.47	49.9416456938092	0	1	0	1	0	49.9416456938092	0
4.48	50.069880726156	0	1	0	1	0	50.069880726156	0
4.49	50.1985737699584	0	1	0	1	0	50.1985737699584	0
4.5	50.3277240640548	0	1	0	1	0	50.3277240640548	0
4.51	50.4573308540343	0	1	0	1	0	50.4573308540343	0
4.52	50.5873933921625	0	1	0	1	0	50.5873933921625	0
4.53	50.7179109373073	0	1	0	1	0	50.7179109373073	0
4.54	50.8488827548663	0	1	0	1	0	50.8488827548663	0
4.55	50.9803081166955	0	1	0	1	0	50.9803081166955	0
4.56	51.1121863010378	0	1	0	1	0	51.1121863010378	0
4.57	51.2445165924536	0	1	0	1	0	51.2445165924536	0
4.58	51.3772982817516	0	1	0	1	0	51.3772982817516	0
4.59	51.5105306659209	0	1	0	1	0	51.5105306659209	0
4.6	51.6442130480636	0	1	0	1	0	51.6442130480636	0
4.61	51.7783447373289	0	1	0	1	0	51.7783447373289	0
4.62	51.9129250488472	0	1	0	1	0	51.9129250488472	0
4.63	52.0479533036656	0	1	0	1	0	52.0479533036656	0
4.64	52.1834288286845	0	1	0	1	0	52.1834288286845	0
4.65	52.3193509565942	0	1	0	1	0	52.3193509565942	0
4.66	52.4557190258131	0	1	0	1	0	52.4557190258131	0
4.67	52.5925323804261	0	1	0	1	0	52.5925323804261	0
4.68	52.7297903701245	0	1	0	1	0	52.7297903701245	0
4.69	52.8674923501456	0	1	0	1	0	52.8674923501456	0
4.7	53.0056376812143	0	1	0	1	0	53.0056376812143	0
4.71	53.1442257294845	0	1	0	1	0	53.1442257294845	0
4.72	53.2832558664816	0	1	0	1	0	53.2832558664816	0
4.73	53.4227274690458	0	1	0	1	0	53.4227274690458	0
4.74	53.5626399192763	0	1	0	1	0	53.5626399192763	0
4.75	53.7029926044753	0	1	0	1	0	53.7029926044753	0
4.76	53.8437849170939	0	1	0	1	0	53.8437849170939	0
4.77	53.9850162546781	0	1	0	1	0	53.9850162546781	0
4.78	54.1266860198151	0	1	0	1	0	54.1266860198151	0
4.79	54.2687936200809	0	1	0	1	0	54.2687936200809	0
4.8	54.4113384679887	0	1	0	1	0	54.4113384679887	0
4.81	54.554319980937	0	1	0	1	0	54.554319980937	0
4.82	54.6977375811591	0	1	0	1	0	54.6977375811591	0
4.83	54.8415906956734	0	1	0	1	0	54.8415906956734	0
4.84	54.9858787562333	0	1	0	1	0	54.9858787562333	0
4.85	55.1306011992792	0	1	0	1	0	55.1306011992792	0
4.86	55.2757574658895	0	1	0	1	0	55.2757574658895	0
4.87	55.4213470017335	0	1	0	1	0	55.4213470017335	0
4.88	55.5673692570242	0	1	0	1	0	55.5673692570242	0
4.89	55.7138236864717	0	1	0	1	0	55.7138236864717	0
4.9	55.8607097492376	0	1	0	1	0	55.8607097492376	0
4.91	56.0080269088895	0	1	0	1	0	56.0080269088895	0
4.92	56.1557746333561	0	1	0	1	0	56.1557746333561	0
4.93	56.3039523948833	0	1	0	1	0	56.3039523948833	0
