# GHZ S RI R 50
1	47.8803191730828	0	1	0	1	0	47.8803191730828	0
1.01	47.4742818317178	0	1	0	1	0	47.4742818317178	0
1.02	47.0773585075859	0	1	0	1	0	47.0773585075859	0
1.03	46.6892950439873	0	1	0	1	0	46.6892950439873	0
1.04	46.30984705948	0	1	0	1	0	46.30984705948	0
1.05	45.9387794823914	0	1	0	1	0	45.9387794823914	0
1.06	45.5758661116778	0	1	0	1	0	45.5758661116778	0
1.07	45.2208892024093	0	1	0	1	0	45.2208892024093	0
1.08	44.8736390742832	0	1	0	1	0	44.8736390742832	0
1.09	44.5339137416868	0	1	0	1	0	44.5339137416868	0
1.1	44.2015185639385	0	1	0	1	0	44.2015185639385	0
1.11	43.8762659144356	0	1	0	1	0	43.8762659144356	0
1.12	43.5579748675255	0	1	0	1	0	43.5579748675255	0
1.13	43.2464709020032	0	1	0	1	0	43.2464709020032	0
1.14	42.941585620215	0	1	0	1	0	42.941585620215	0
1.15	42.6431564818169	0	1	0	1	0	42.6431564818169	0
1.16	42.3510265513042	0	1	0	1	0	42.3510265513042	0
1.17	42.0650442584887	0	1	0	1	0	42.0650442584887	0
1.18	41.7850631711547	0	1	0	1	0	41.7850631711547	0
1.19	41.5109417791776	0	1	0	1	0	41.5109417791776	0
1.2	41.2425432894373	0	1	0	1	0	41.2425432894373	0
1.21	40.9797354309	0	1	0	1	0	40.9797354309	0
1.22	40.7223902692871	0	1	0	1	0	40.7223902692871	0
1.23	40.4703840307847	0	1	0	1	0	40.4703840307847	0
1.24	40.2235969342822	0	1	0	1	0	40.2235969342822	0
1.25	39.9819130316647	0	1	0	1	0	39.9819130316647	0
1.26	39.7452200557098	0	1	0	1	0	39.7452200557098	0
1.27	39.5134092751706	0	1	0	1	0	39.5134092751706	0
1.28	39.2863753566517	0	1	0	1	0	39.2863753566517	0
1.29	39.0640162329095	0	1	0	1	0	39.0640162329095	0
1.3	38.8462329772309	0	1	0	1	0	38.8462329772309	0
1.31	38.632929683566	0	1	0	1	0	38.632929683566	0
1.32	38.4240133521085	0	1	0	1	0	38.4240133521085	0
1.33	38.219393780039	0	1	0	1	0	38.219393780039	0
1.34	38.0189834571596	0	1	0	1	0	38.0189834571596	0
1.35	37.822697466167	0	1	0	1	0	37.822697466167	0
1.36	37.6304533873257	0	1	0	1	0	37.6304533873257	0
1.37	37.4421712073158	0	1	0	1	0	37.4421712073158	0
1.38	37.2577732320443	0	1	0	1	0	37.2577732320443	0
1.39	37.077184003219	0	1	0	1	0	37.077184003219	0
1.4	36.9003302184993	0	1	0	1	0	36.9003302184993	0
1.41	36.7271406550435	0	1	0	1	0	36.7271406550435	0
1.42	36.557546096287	0	1	0	1	0	36.557546096287	0
1.43	36.3914792617931	0	1	0	1	0	36.3914792617931	0
1.44	36.2288747400259	0	1	0	1	0	36.2288747400259	0
1.45	36.0696689239059	0	1	0	1	0	36.0696689239059	0
1.46	35.913799949013	0	1	0	1	0	35.913799949013	0
1.47	35.7612076343131	0	1	0	1	0	35.7612076343131	0
1.48	35.6118334252862	0	1	0	1	0	35.6118334252862	0
1.49	35.4656203393457	0	1	0	1	0	35.4656203393457	0
1.5	35.3225129134409	0	1	0	1	0	35.3225129134409	0
1.51	35.1824571537409	0	1	0	1	0	35.1824571537409	0
1.52	35.0454004873049	0	1	0	1	0	35.0454004873049	0
1.53	34.9112917156483	0	1	0	1	0	34.9112917156483	0
1.54	34.7800809701171	0	1	0	1	0	34.7800809701171	0
1.55	34.6517196689905	0	1	0	1	0	34.6517196689905	0
1.56	34.5261604762326	0	1	0	1	0	34.5261604762326	0
1.57	34.4033572618214	0	1	0	1	0	34.4033572618214	0
1.58	34.2832650635834	0	1	0	1	0	34.2832650635834	0
1.59	34.165840050469	0	1	0	1	0	34.165840050469	0
1.6	34.0510394872048	0	1	0	1	0	34.0510394872048	0
1.61	33.9388217002634	0	1	0	1	0	33.9388217002634	0
1.62	33.8291460450934	0	1	0	1	0	33.8291460450934	0
1.63	33.7219728745556	0	1	0	1	0	33.7219728745556	0
1.64	33.6172635085143	0	1	0	1	0	33.6172635085143	0
1.65	33.5149802045339	0	1	0	1	0	33.5149802045339	0
1.66	33.4150861296354	0	1	0	1	0	33.4150861296354	0
1.67	33.3175453330665	0	1	0	1	0	33.3175453330665	0
1.68	33.2223227200453	0	1	0	1	0	33.2223227200453	0
1.69	33.1293840264356	0	1	0	1	0	33.1293840264356	0
1.7	33.0386957943164	0	1	0	1	0	33.0386957943164	0
1.71	32.9502253484079	0	1	0	1	0	32.9502253484079	0
1.72	32.8639407733205	0	1	0	1	0	32.8639407733205	0
1.73	32.7798108915928	0	1	0	1	0	32.7798108915928	0
1.74	32.6978052424866	0	1	0	1	0	32.6978052424866	0
1.75	32.6178940615091	0	1	0	1	0	32.6178940615091	0
1.76	32.5400482606334	0	1	0	1	0	32.5400482606334	0
1.77	32.464239409189	0	1	0	1	0	32.464239409189	0
1.78	32.390439715397	0	1	0	1	0	32.390439715397	0
1.79	32.3186220085236	0	1	0	1	0	32.3186220085236	0
1.8	32.2487597216292	0	1	0	1	0	32.2487597216292	0
1.81	32.1808268748891	0	1	0	1	0	32.1808268748891	0
1.82	32.1147980594635	0	1	0	1	0	32.1147980594635	0
1.83	32.0506484218972	0	1	0	1	0	32.0506484218972	0
1.84	31.9883536490273	0	1	0	1	0	31.9883536490273	0
1.85	31.9278899533813	0	1	0	1	0	31.9278899533813	0
1.86	31.8692340590449	0	1	0	1	0	31.8692340590449	0
1.87	31.8123631879844	0	1	0	1	0	31.8123631879844	0
1.88	31.7572550468052	0	1	0	1	0	31.7572550468052	0
1.89	31.7038878139305	0	1	0	1	0	31.7038878139305	0
1.9	31.6522401271852	0	1	0	1	0	31.6522401271852	0
1.91	31.6022910717695	0	1	0	1	0	31.6022910717695	0
1.92	31.5540201686087	0	1	0	1	0	31.5540201686087	0
1.93	31.5074073630647	0	1	0	1	0	31.5074073630647	0
1.94	31.4624330139973	0	1	0	1	0	31.4624330139973	0
1.95	31.4190778831613	0	1	0	1	0	31.4190778831613	0
1.96	31.377323124929	0	1	0	1	0	31.377323124929	0
1.97	31.3371502763247	0	1	0	1	0	31.3371502763247	0
1.98	31.2985412473625	0	1	0	1	0	31.2985412473625	0
1.99	31.2614783116739	0	1	0	1	0	31.2614783116739	0
2	31.225944097418	0	1	0	1	0	31.225944097418	0
2.01	31.1919215784622	0	1	0	1	0	31.1919215784622	0
2.02	31.1593940658251	0	1	0	1	0	31.1593940658251	0
2.03	31.1283451993718	0	1	0	1	0	31.1283451993718	0
2.04	31.0987589397549	0	1	0	1	0	31.0987589397549	0
2.05	31.0706195605896	0	1	0	1	0	31.0706195605896	0
2.06	31.0439116408579	0	1	0	1	0	31.0439116408579	0
2.07	31.0186200575322	0	1	0	1	0	31.0186200575322	0
2.08	30.9947299784128	0	1	0	1	0	30.9947299784128	0
2.09	30.9722268551696	0	1	0	1	0	30.9722268551696	0
2.1	30.9510964165835	0	1	0	1	0	30.9510964165835	0
2.11	30.9313246619799	0	1	0	1	0	30.9313246619799	0
2.12	30.912897854848	0	1	0	1	0	30.912897854848	0
2.13	30.8958025166394	0	1	0	1	0	30.8958025166394	0
2.14	30.8800254207414	0	1	0	1	0	30.8800254207414	0
2.15	30.8655535866178	0	1	0	1	0	30.8655535866178	0
2.16	30.8523742741124	0	1	0	1	0	30.8523742741124	0
2.17	30.8404749779111	0	1	0	1	0	30.8404749779111	0
2.18	30.8298434221546	0	1	0	1	0	30.8298434221546	0
2.19	30.8204675552006	0	1	0	1	0	30.8204675552006	0
2.2	30.8123355445272	0	1	0	1	0	30.8123355445272	0
2.21	30.8054357717762	0	1	0	1	0	30.8054357717762	0
2.22	30.7997568279289	0	1	0	1	0	30.7997568279289	0
2.23	30.7952875086128	0	1	0	1	0	30.7952875086128	0
2.24	30.7920168095334	0	1	0	1	0	30.7920168095334	0
2.25	30.7899339220281	0	1	0	1	0	30.7899339220281	0
2.26	30.7890282287381	0	1	0	1	0	30.7890282287381	0
2.27	30.7892892993947	0	1	0	1	0	30.7892892993947	0
2.28	30.7907068867162	0	1	0	1	0	30.7907068867162	0
2.29	30.7932709224129	0	1	0	1	0	30.7932709224129	0
2.3	30.7969715132957	0	1	0	1	0	30.7969715132957	0
2.31	30.8017989374862	0	1	0	1	0	30.8017989374862	0
2.32	30.8077436407244	0	1	0	1	0	30.8077436407244	0
2.33	30.8147962327721	0	1	0	1	0	30.8147962327721	0
2.34	30.8229474839079	0	1	0	1	0	30.8229474839079	0
2.35	30.8321883215123	0	1	0	1	0	30.8321883215123	0
2.36	30.8425098267386	0	1	0	1	0	30.8425098267386	0
2.37	30.8539032312694	0	1	0	1	0	30.8539032312694	0
2.38	30.8663599141541	0	1	0	1	0	30.8663599141541	0
2.39	30.8798713987255	0	1	0	1	0	30.8798713987255	0
2.4	30.8944293495943	0	1	0	1	0	30.8944293495943	0
2.41	30.9100255697181	0	1	0	1	0	30.9100255697181	0
2.42	30.9266519975424	0	1	0	1	0	30.9266519975424	0
2.43	30.9443007042136	0	1	0	1	0	30.9443007042136	0
2.44	30.9629638908591	0	1	0	1	0	30.9629638908591	0
2.45	30.9826338859349	0	1	0	1	0	30.9826338859349	0
2.46	31.0033031426374	0	1	0	1	0	31.0033031426374	0
2.47	31.0249642363787	0	1	0	1	0	31.0249642363787	0
2.48	31.047609862322	0	1	0	1	0	31.047609862322	0
2.49	31.0712328329776	0	1	0	1	0	31.0712328329776	0
2.5	31.0958260758555	0	1	0	1	0	31.0958260758555	0
2.51	31.1213826311746	0	1	0	1	0	31.1213826311746	0
2.52	31.1478956496266	0	1	0	1	0	31.1478956496266	0
2.53	31.1753583901927	0	1	0	1	0	31.1753583901927	0
2.54	31.2037642180119	0	1	0	1	0	31.2037642180119	0
2.55	31.2331066022994	0	1	0	1	0	31.2331066022994	0
2.56	31.2633791143138	0	1	0	1	0	31.2633791143138	0
2.57	31.2945754253721	0	1	0	1	0	31.2945754253721	0
2.58	31.3266893049104	0	1	0	1	0	31.3266893049104	0
2.59	31.3597146185896	0	1	0	1	0	31.3597146185896	0
2.6	31.3936453264451	0	1	0	1	0	31.3936453264451	0
2.61	31.428475481079	0	1	0	1	0	31.428475481079	0
2.62	31.4641992258931	0	1	0	1	0	31.4641992258931	0
2.63	31.500810793363	0	1	0	1	0	31.500810793363	0
2.64	31.5383045033511	0	1	0	1	0	31.5383045033511	0
2.65	31.5766747614577	0	1	0	1	0	31.5766747614577	0
2.66	31.6159160574095	0	1	0	1	0	31.6159160574095	0
2.67	31.6560229634839	0	1	0	1	0	31.6560229634839	0
2.68	31.6969901329693	0	1	0	1	0	31.6969901329693	0
2.69	31.7388122986589	0	1	0	1	0	31.7388122986589	0
2.7	31.7814842713788	0	1	0	1	0	31.7814842713788	0
2.71	31.825000938548	0	1	0	1	0	31.825000938548	0
2.72	31.8693572627704	0	1	0	1	0	31.8693572627704	0
2.73	31.914548280458	0	1	0	1	0	31.914548280458	0
2.74	31.960569100484	0	1	0	1	0	31.960569100484	0
2.75	32.0074149028652	0	1	0	1	0	32.0074149028652	0
2.76	32.0550809374732	0	1	0	1	0	32.0550809374732	0
2.77	32.1035625227735	0	1	0	1	0	32.1035625227735	0
2.78	32.1528550445918	0	1	0	1	0	32.1528550445918	0
2.79	32.2029539549071	0	1	0	1	0	32.2029539549071	0
2.8	32.2538547706697	0	1	0	1	0	32.2538547706697	0
2.81	32.3055530726458	0	1	0	1	0	32.3055530726458	0
2.82	32.3580445042858	0	1	0	1	0	32.3580445042858	0
2.83	32.4113247706166	0	1	0	1	0	32.4113247706166	0
2.84	32.4653896371579	0	1	0	1	0	32.4653896371579	0
2.85	32.5202349288606	0	1	0	1	0	32.5202349288606	0
2.86	32.5758565290677	0	1	0	1	0	32.5758565290677	0
2.87	32.6322503784976	0	1	0	1	0	32.6322503784976	0
2.88	32.6894124742472	0	1	0	1	0	32.6894124742472	0
2.89	32.7473388688173	0	1	0	1	0	32.7473388688173	0
2.9	32.8060256691567	0	1	0	1	0	32.8060256691567	0
2.91	32.865469035727	0	1	0	1	0	32.865469035727	0
2.92	32.9256651815861	0	1	0	1	0	32.9256651815861	0
2.93	32.9866103714911	0	1	0	1	0	32.9866103714911	0
2.94	33.0483009210184	0	1	0	1	0	33.0483009210184	0
2.95	33.1107331957028	0	1	0	1	0	33.1107331957028	0
2.96	33.1739036101935	0	1	0	1	0	33.1739036101935	0
2.97	33.2378086274273	0	1	0	1	0	33.2378086274273	0
2.98	33.3024447578182	0	1	0	1	0	33.3024447578182	0
2.99	33.3678085584639	0	1	0	1	0	33.3678085584639	0
3	33.4338966323671	0	1	0	1	0	33.4338966323671	0
3.01	33.5007056276737	0	1	0	1	0	33.5007056276737	0
3.02	33.5682322369248	0	1	0	1	0	33.5682322369248	0
3.03	33.6364731963242	0	1	0	1	0	33.6364731963242	0
3.04	33.7054252850208	0	1	0	1	0	33.7054252850208	0
3.05	33.7750853244037	0	1	0	1	0	33.7750853244037	0
3.06	33.8454501774129	0	1	0	1	0	33.8454501774129	0
3.07	33.9165167478617	0	1	0	1	0	33.9165167478617	0
3.08	33.988281979774	0	1	0	1	0	33.988281979774	0
3.09	34.0607428567331	0	1	0	1	0	34.0607428567331	0
3.1	34.1338964012438	0	1	0	1	0	34.1338964012438	0
3.11	34.2077396741067	0	1	0	1	0	34.2077396741067	0
3.12	34.2822697738044	0	1	0	1	0	34.2822697738044	0
3.13	34.3574838358996	0	1	0	1	0	34.3574838358996	0
3.14	34.4333790324446	0	1	0	1	0	34.4333790324446	0
3.15	34.5099525714023	0	1	0	1	0	34.5099525714023	0
3.16	34.5872016960778	0	1	0	1	0	34.5872016960778	0
3.17	34.6651236845608	0	1	0	1	0	34.6651236845608	0
3.18	34.7437158491792	0	1	0	1	0	34.7437158491792	0
3.19	34.8229755359617	0	1	0	1	0	34.8229755359617	0
3.2	34.902900124112	0	1	0	1	0	34.902900124112	0
3.21	34.9834870254915	0	1	0	1	0	34.9834870254915	0
3.22	35.0647336841126	0	1	0	1	0	35.0647336841126	0
3.23	35.1466375756405	0	1	0	1	0	35.1466375756405	0
3.24	35.2291962069053	0	1	0	1	0	35.2291962069053	0
3.25	35.312407115422	0	1	0	1	0	35.312407115422	0
3.26	35.3962678689204	0	1	0	1	0	35.3962678689204	0
3.27	35.4807760648827	0	1	0	1	0	35.4807760648827	0
3.28	35.5659293300901	0	1	0	1	0	35.5659293300901	0
3.29	35.6517253201776	0	1	0	1	0	35.6517253201776	0
3.3	35.7381617191967	0	1	0	1	0	35.7381617191967	0
3.31	35.8252362391861	0	1	0	1	0	35.8252362391861	0
3.32	35.9129466197505	0	1	0	1	0	35.9129466197505	0
3.33	36.0012906276463	0	1	0	1	0	36.0012906276463	0
3.34	36.0902660563755	0	1	0	1	0	36.0902660563755	0
3.35	36.1798707257862	0	1	0	1	0	36.1798707257862	0
3.36	36.2701024816808	0	1	0	1	0	36.2701024816808	0
3.37	36.3609591954306	0	1	0	1	0	36.3609591954306	0
3.38	36.4524387635981	0	1	0	1	0	36.4524387635981	0
3.39	36.544539107565	0	1	0	1	0	36.544539107565	0
3.4	36.6372581731671	0	1	0	1	0	36.6372581731671	0
3.41	36.7305939303363	0	1	0	1	0	36.7305939303363	0
3.42	36.8245443727478	0	1	0	1	0	36.8245443727478	0
3.43	36.9191075174741	0	1	0	1	0	36.9191075174741	0
3.44	37.0142814046453	0	1	0	1	0	37.0142814046453	0
3.45	37.1100640971144	0	1	0	1	0	37.1100640971144	0
3.46	37.2064536801291	0	1	0	1	0	37.2064536801291	0
3.47	37.3034482610094	0	1	0	1	0	37.3034482610094	0
3.48	37.4010459688301	0	1	0	1	0	37.4010459688301	0
3.49	37.4992449541091	0	1	0	1	0	37.4992449541091	0
3.5	37.5980433885017	0	1	0	1	0	37.5980433885017	0
3.51	37.6974394644986	0	1	0	1	0	37.6974394644986	0
3.52	37.7974313951306	0	1	0	1	0	37.7974313951306	0
3.53	37.8980174136774	0	1	0	1	0	37.8980174136774	0
3.54	37.9991957733815	0	1	0	1	0	37.9991957733815	0
3.55	38.1009647471675	0	1	0	1	0	38.1009647471675	0
3.56	38.2033226273649	0	1	0	1	0	38.2033226273649	0
3.57	38.3062677254373	0	1	0	1	0	38.3062677254373	0
3.58	38.4097983717141	0	1	0	1	0	38.4097983717141	0
3.59	38.5139129151286	0	1	0	1	0	38.5139129151286	0
3.6	38.6186097229591	0	1	0	1	0	38.6186097229591	0
3.61	38.7238871805752	0	1	0	1	0	38.7238871805752	0
3.62	38.8297436911876	0	1	0	1	0	38.8297436911876	0
3.63	38.9361776756025	0	1	0	1	0	38.9361776756025	0
3.64	39.0431875719797	0	1	0	1	0	39.0431875719797	0
3.65	39.1507718355954	0	1	0	1	0	39.1507718355954	0
3.66	39.2589289386078	0	1	0	1	0	39.2589289386078	0
3.67	39.3676573698274	0	1	0	1	0	39.3676573698274	0
3.68	39.4769556344906	0	1	0	1	0	39.4769556344906	0
3.69	39.5868222540372	0	1	0	1	0	39.5868222540372	0
3.7	39.6972557658916	0	1	0	1	0	39.6972557658916	0
3.71	39.8082547232469	0	1	0	1	0	39.8082547232469	0
3.72	39.9198176948537	0	1	0	1	0	39.9198176948537	0
3.73	40.0319432648107	0	1	0	1	0	40.0319432648107	0
3.74	40.1446300323602	0	1	0	1	0	40.1446300323602	0
3.75	40.2578766116858	0	1	0	1	0	40.2578766116858	0
3.76	40.3716816317137	0	1	0	1	0	40.3716816317137	0
3.77	40.4860437359176	0	1	0	1	0	40.4860437359176	0
3.78	40.6009615821258	0	1	0	1	0	40.6009615821258	0
3.79	40.7164338423321	0	1	0	1	0	40.7164338423321	0
3.8	40.832459202509	0	1	0	1	0	40.832459202509	0
3.81	40.949036362425	0	1	0	1	0	40.949036362425	0
3.82	41.0661640354634	0	1	0	1	0	41.0661640354634	0
3.83	41.1838409484446	0	1	0	1	0	41.1838409484446	0
3.84	41.3020658414515	0	1	0	1	0	41.3020658414515	0
3.85	41.420837467657	0	1	0	1	0	41.420837467657	0
3.86	41.5401545931544	0	1	0	1	0	41.5401545931544	0
3.87	41.6600159967907	0	1	0	1	0	41.6600159967907	0
3.88	41.780420470002	0	1	0	1	0	41.780420470002	0
3.89	41.9013668166518	0	1	0	1	0	41.9013668166518	0
3.9	42.0228538528717	0	1	0	1	0	42.0228538528717	0
3.91	42.1448804069044	0	1	0	1	0	42.1448804069044	0
3.92	42.2674453189495	0	1	0	1	0	42.2674453189495	0
3.93	42.390547441011	0	1	0	1	0	42.390547441011	0
3.94	42.5141856367477	0	1	0	1	0	42.5141856367477	0
3.95	42.6383587813258	0	1	0	1	0	42.6383587813258	0
3.96	42.7630657612733	0	1	0	1	0	42.7630657612733	0
3.97	42.8883054743372	0	1	0	1	0	42.8883054743372	0
3.98	43.0140768293421	0	1	0	1	0	43.0140768293421	0
3.99	43.1403787460522	0	1	0	1	0	43.1403787460522	0
4	43.2672101550337	0	1	0	1	0	43.2672101550337	0
4.01	43.3945699975205	0	1	0	1	0	43.3945699975205	0
4.02	43.5224572252816	0	1	0	1	0	43.5224572252816	0
4.03	43.6508708004903	0	1	0	1	0	43.6508708004903	0
4.04	43.7798096955952	0	1	0	1	0	43.7798096955952	0
4.05	43.9092728931938	0	1	0	1	0	43.9092728931938	0
4.06	44.0392593859071	0	1	0	1	0	44.0392593859071	0
4.07	44.1697681762568	0	1	0	1	0	44.1697681762568	0
4.08	44.3007982765436	0	1	0	1	0	44.3007982765436	0
4.09	44.432348708728	0	1	0	1	0	44.432348708728	0
4.1	44.5644185043122	0	1	0	1	0	44.5644185043122	0
4.11	44.6970067042244	0	1	0	1	0	44.6970067042244	0
4.12	44.830112358704	0	1	0	1	0	44.830112358704	0
4.13	44.963734527189	0	1	0	1	0	44.963734527189	0
4.14	45.0978722782052	0	1	0	1	0	45.0978722782052	0
4.15	45.2325246892561	0	1	0	1	0	45.2325246892561	0
4.16	45.3676908467158	0	1	0	1	0	45.3676908467158	0
4.17	45.5033698457219	0	1	0	1	0	45.5033698457219	0
4.18	45.6395607900709	0	1	0	1	0	45.6395607900709	0
4.19	45.7762627921152	0	1	0	1	0	45.7762627921152	0
4.2	45.913474972661	0	1	0	1	0	45.913474972661	0
4.21	46.0511964608675	0	1	0	1	0	46.0511964608675	0
4.22	46.1894263941486	0	1	0	1	0	46.1894263941486	0
4.23	46.3281639180752	0	1	0	1	0	46.3281639180752	0
4.24	46.4674081862785	0	1	0	1	0	46.4674081862785	0
4.25	46.6071583603557	0	1	0	1	0	46.6071583603557	0
4.26	46.7474136097764	0	1	0	1	0	46.7474136097764	0
4.27	46.8881731117901	0	1	0	1	0	46.8881731117901	0
4.28	47.0294360513359	0	1	0	1	0	47.0294360513359	0
4.29	47.1712016209523	0	1	0	1	0	47.1712016209523	0
4.3	47.313469020689	0	1	0	1	0	47.313469020689	0
4.31	47.4562374580201	0	1	0	1	0	47.4562374580201	0
4.32	47.5995061477576	0	1	0	1	0	47.5995061477576	0
4.33	47.7432743119673	0	1	0	1	0	47.7432743119673	0
4.34	47.8875411798846	0	1	0	1	0	47.8875411798846	0
4.35	48.0323059878325	0	1	0	1	0	48.0323059878325	0
4.36	48.1775679791403	0	1	0	1	0	48.1775679791403	0
4.37	48.3233264040633	0	1	0	1	0	48.3233264040633	0
4.38	48.4695805197037	0	1	0	1	0	48.4695805197037	0
4.39	48.6163295899327	0	1	0	1	0	48.6163295899327	0
4.4	48.7635728853137	0	1	0	1	0	48.7635728853137	0
4.41	48.9113096830263	0	1	0	1	0	48.9113096830263	0
4.42	49.0595392667913	0	1	0	1	0	49.0595392667913	0
4.43	49.2082609267972	0	1	0	1	0	49.2082609267972	0
4.44	49.3574739596271	0	1	0	1	0	49.3574739596271	0
4.45	49.507177668187	0	1	0	1	0	49.507177668187	0
4.46	49.6573713616348	0	1	0	1	0	49.6573713616348	0
4.47	49.8080543553106	0	1	0	1	0	49.8080543553106	0
4.48	49.9592259706673	0	1	0	1	0	49.9592259706673	0
4.49	50.1108855352029	0	1	0	1	0	50.1108855352029	0
4.5	50.2630323823932	0	1	0	1	0	50.2630323823932	0
4.51	50.4156658516254	0	1	0	1	0	50.4156658516254	0
4.52	50.5687852881331	0	1	0	1	0	50.5687852881331	0
4.53	50.7223900429312	0	1	0	1	0	50.7223900429312	0
4.54	50.8764794727526	0	1	0	1	0	50.8764794727526	0
4.55	51.0310529399856	0	1	0	1	0	51.0310529399856	0
4.56	51.1861098126111	0	1	0	1	0	51.1861098126111	0
4.57	51.3416494641422	0	1	0	1	0	51.3416494641422	0
4.58	51.4976712735634	0	1	0	1	0	51.4976712735634	0
4.59	51.6541746252712	0	1	0	1	0	51.6541746252712	0
4.6	51.8111589090152	0	1	0	1	0	51.8111589090152	0
4.61	51.9686235198397	0	1	0	1	0	51.9686235198397	0
4.62	52.1265678580271	0	1	0	1	0	52.1265678580271	0
4.63	52.2849913290407	0	1	0	1	0	52.2849913290407	0
4.64	52.4438933434693	0	1	0	1	0	52.4438933434693	0
4.65	52.6032733169717	0	1	0	1	0	52.6032733169717	0
4.66	52.7631306702226	0	1	0	1	0	52.7631306702226	0
4.67	52.9234648288588	0	1	0	1	0	52.9234648288588	0
4.68	53.0842752234263	0	1	0	1	0	53.0842752234263	0
4.69	53.2455612893277	0	1	0	1	0	53.2455612893277	0
4.7	53.4073224667707	0	1	0	1	0	53.4073224667707	0
4.71	53.569558200717	0	1	0	1	0	53.569558200717	0
4.72	53.7322679408323	0	1	0	1	0	53.7322679408323	0
4.73	53.8954511414361	0	1	0	1	0	53.8954511414361	0
4.74	54.0591072614527	0	1	0	1	0	54.0591072614527	0
4.75	54.2232357643629	0	1	0	1	0	54.2232357643629	0
4.76	54.3878361181563	0	1	0	1	0	54.3878361181563	0
4.77	54.5529077952834	0	1	0	1	0	54.5529077952834	0
4.78	54.7184502726096	0	1	0	1	0	54.7184502726096	0
4.79	54.8844630313688	0	1	0	1	0	54.8844630313688	0
4.8	55.050945557118	0	1	0	1	0	55.050945557118	0
4.81	55.2178973396922	0	1	0	1	0	55.2178973396922	0
4.82	55.3853178731602	0	1	0	1	0	55.3853178731602	0
4.83	55.5532066557807	0	1	0	1	0	55.5532066557807	0
4.84	55.7215631899591	0	1	0	1	0	55.7215631899591	0
4.85	55.8903869822045	0	1	0	1	0	55.8903869822045	0
4.86	56.0596775430878	0	1	0	1	0	56.0596775430878	0
4.87	56.2294343871997	0	1	0	1	0	56.2294343871997	0
4.88	56.39965703311	0	1	0	1	0	56.39965703311	0
4.89	56.5703450033261	0	1	0	1	0	56.5703450033261	0
4.9	56.7414978242536	0	1	0	1	0	56.7414978242536	0
4.91	56.9131150261564	0	1	0	1	0	56.9131150261564	0
4.92	57.0851961431171	0	1	0	1	0	57.0851961431171	0
4.93	57.2577407129987	0	1	0	1	0	57.2577407129987	0
