# GHZ S RI R 50
1	52.2120416817098	0	1	0	1	0	52.2120416817098	0
1.01	51.7839158987392	0	1	0	1	0	51.7839158987392	0
1.02	51.365248417007	0	1	0	1	0	51.365248417007	0
1.03	50.9557741812296	0	1	0	1	0	50.9557741812296	0
1.04	50.5552383305573	0	1	0	1	0	50.5552383305573	0
1.05	50.1633957131255	0	1	0	1	0	50.1633957131255	0
1.06	49.780010428083	0	1	0	1	0	49.780010428083	0
1.07	49.4048553933022	0	1	0	1	0	49.4048553933022	0
1.08	49.0377119371046	0	1	0	1	0	49.0377119371046	0
1.09	48.6783694124604	0	1	0	1	0	48.6783694124604	0
1.1	48.326624832232	0	1	0	1	0	48.326624832232	0
1.11	47.9822825241333	0	1	0	1	0	47.9822825241333	0
1.12	47.6451538041745	0	1	0	1	0	47.6451538041745	0
1.13	47.3150566674446	0	1	0	1	0	47.3150566674446	0
1.14	46.9918154951704	0	1	0	1	0	46.9918154951704	0
1.15	46.6752607770573	0	1	0	1	0	46.6752607770573	0
1.16	46.3652288479935	0	1	0	1	0	46.3652288479935	0
1.17	46.0615616382556	0	1	0	1	0	46.0615616382556	0
1.18	45.7641064364158	0	1	0	1	0	45.7641064364158	0
1.19	45.4727156642038	0	1	0	1	0	45.4727156642038	0
1.2	45.1872466626247	0	1	0	1	0	45.1872466626247	0
1.21	44.9075614886835	0	1	0	1	0	44.9075614886835	0
1.22	44.6335267221065	0	1	0	1	0	44.6335267221065	0
1.23	44.3650132814906	0	1	0	1	0	44.3650132814906	0
1.24	44.1018962493487	0	1	0	1	0	44.1018962493487	0
1.25	43.8440547055537	0	1	0	1	0	43.8440547055537	0
1.26	43.5913715687124	0	1	0	1	0	43.5913715687124	0
1.27	43.3437334450347	0	1	0	1	0	43.3437334450347	0
1.28	43.1010304842863	0	1	0	1	0	43.1010304842863	0
1.29	42.8631562424417	0	1	0	1	0	42.8631562424417	0
1.3	42.6300075506764	0	1	0	1	0	42.6300075506764	0
1.31	42.4014843903588	0	1	0	1	0	42.4014843903588	0
1.32	42.1774897737251	0	1	0	1	0	42.1774897737251	0
1.33	41.9579296299365	0	1	0	1	0	41.9579296299365	0
1.34	41.7427126962391	0	1	0	1	0	41.7427126962391	0
1.35	41.5317504139607	0	1	0	1	0	41.5317504139607	0
1.36	41.3249568290956	0	1	0	1	0	41.3249568290956	0
1.37	41.1222484972444	0	1	0	1	0	41.1222484972444	0
1.38	40.9235443926859	0	1	0	1	0	40.9235443926859	0
1.39	40.7287658213742	0	1	0	1	0	40.7287658213742	0
1.4	40.5378363376648	0	1	0	1	0	40.5378363376648	0
1.41	40.3506816645839	0	1	0	1	0	40.3506816645839	0
1.42	40.167229617467	0	1	0	1	0	40.167229617467	0
1.43	39.9874100308008	0	1	0	1	0	39.9874100308008	0
1.44	39.8111546881143	0	1	0	1	0	39.8111546881143	0
1.45	39.6383972547699	0	1	0	1	0	39.6383972547699	0
1.46	39.4690732135176	0	1	0	1	0	39.4690732135176	0
1.47	39.3031198026787	0	1	0	1	0	39.3031198026787	0
1.48	39.140475956836	0	1	0	1	0	39.140475956836	0
1.49	38.9810822499125	0	1	0	1	0	38.9810822499125	0
1.5	38.8248808405266	0	1	0	1	0	38.8248808405266	0
1.51	38.6718154195186	0	1	0	1	0	38.6718154195186	0
1.52	38.5218311595488	0	1	0	1	0	38.5218311595488	0
1.53	38.3748746666722	0	1	0	1	0	38.3748746666722	0
1.54	38.2308939337994	0	1	0	1	0	38.2308939337994	0
1.55	38.0898382959593	0	1	0	1	0	38.0898382959593	0
1.56	37.9516583872827	0	1	0	1	0	37.9516583872827	0
1.57	37.8163060996297	0	1	0	1	0	37.8163060996297	0
1.58	37.6837345427879	0	1	0	1	0	37.6837345427879	0
1.59	37.5538980061727	0	1	0	1	0	37.5538980061727	0
1.6	37.4267519219645	0	1	0	1	0	37.4267519219645	0
1.61	37.3022528296183	0	1	0	1	0	37.3022528296183	0
1.62	37.1803583416894	0	1	0	1	0	37.1803583416894	0
1.63	37.0610271109153	0	1	0	1	0	37.0610271109153	0
1.64	36.9442187985038	0	1	0	1	0	36.9442187985038	0
1.65	36.8298940435725	0	1	0	1	0	36.8298940435725	0
1.66	36.7180144336942	0	1	0	1	0	36.7180144336942	0
1.67	36.6085424764996	0	1	0	1	0	36.6085424764996	0
1.68	36.501441572295	0	1	0	1	0	36.501441572295	0
1.69	36.3966759876518	0	1	0	1	0	36.3966759876518	0
1.7	36.2942108299276	0	1	0	1	0	36.2942108299276	0
1.71	36.1940120226825	0	1	0	1	0	36.1940120226825	0
1.72	36.0960462819517	0	1	0	1	0	36.0960462819517	0
1.73	36.000281093342	0	1	0	1	0	36.000281093342	0
1.74	35.9066846899174	0	1	0	1	0	35.9066846899174	0
1.75	35.8152260308434	0	1	0	1	0	35.8152260308434	0
1.76	35.725874780759	0	1	0	1	0	35.725874780759	0
1.77	35.6386012898478	0	1	0	1	0	35.6386012898478	0
1.78	35.553376574582	0	1	0	1	0	35.553376574582	0
1.79	35.4701722991098	0	1	0	1	0	35.4701722991098	0
1.8	35.3889607572653	0	1	0	1	0	35.3889607572653	0
1.81	35.3097148551735	0	1	0	1	0	35.3097148551735	0
1.82	35.2324080944292	0	1	0	1	0	35.2324080944292	0
1.83	35.1570145558273	0	1	0	1	0	35.1570145558273	0
1.84	35.0835088836237	0	1	0	1	0	35.0835088836237	0
1.85	35.0118662703066	0	1	0	1	0	35.0118662703066	0
1.86	34.942062441859	0	1	0	1	0	34.942062441859	0
1.87	34.8740736434942	0	1	0	1	0	34.8740736434942	0
1.88	34.8078766258467	0	1	0	1	0	34.8078766258467	0
1.89	34.7434486316009	0	1	0	1	0	34.7434486316009	0
1.9	34.6807673825426	0	1	0	1	0	34.6807673825426	0
1.91	34.619811067017	0	1	0	1	0	34.619811067017	0
1.92	34.560558327779	0	1	0	1	0	34.560558327779	0
1.93	34.5029882502203	0	1	0	1	0	34.5029882502203	0
1.94	34.4470803509621	0	1	0	1	0	34.4470803509621	0
1.95	34.3928145667972	0	1	0	1	0	34.3928145667972	0
1.96	34.3401712439716	0	1	0	1	0	34.3401712439716	0
1.97	34.2891311277925	0	1	0	1	0	34.2891311277925	0
1.98	34.2396753525504	0	1	0	1	0	34.2396753525504	0
1.99	34.1917854317466	0	1	0	1	0	34.1917854317466	0
2	34.1454432486119	0	1	0	1	0	34.1454432486119	0
2.01	34.1006310469099	0	1	0	1	0	34.1006310469099	0
2.02	34.0573314220131	0	1	0	1	0	34.0573314220131	0
2.03	34.0155273122422	0	1	0	1	0	34.0155273122422	0
2.04	33.9752019904604	0	1	0	1	0	33.9752019904604	0
2.05	33.9363390559143	0	1	0	1	0	33.9363390559143	0
2.06	33.8989224263117	0	1	0	1	0	33.8989224263117	0
2.07	33.8629363301293	0	1	0	1	0	33.8629363301293	0
2.08	33.8283652991424	0	1	0	1	0	33.8283652991424	0
2.09	33.7951941611687	0	1	0	1	0	33.7951941611687	0
2.1	33.76340803302	0	1	0	1	0	33.76340803302	0
2.11	33.7329923136538	0	1	0	1	0	33.7329923136538	0
2.12	33.703932677519	0	1	0	1	0	33.703932677519	0
2.13	33.6762150680889	0	1	0	1	0	33.6762150680889	0
2.14	33.6498256915756	0	1	0	1	0	33.6498256915756	0
2.15	33.6247510108198	0	1	0	1	0	33.6247510108198	0
2.16	33.6009777393505	0	1	0	1	0	33.6009777393505	0
2.17	33.5784928356084	0	1	0	1	0	33.5784928356084	0
2.18	33.5572834973289	0	1	0	1	0	33.5572834973289	0
2.19	33.5373371560788	0	1	0	1	0	33.5373371560788	0
2.2	33.5186414719419	0	1	0	1	0	33.5186414719419	0
2.21	33.5011843283487	0	1	0	1	0	33.5011843283487	0
2.22	33.4849538270464	0	1	0	1	0	33.4849538270464	0
2.23	33.469938283204	0	1	0	1	0	33.469938283204	0
2.24	33.4561262206477	0	1	0	1	0	33.4561262206477	0
2.25	33.4435063672249	0	1	0	1	0	33.4435063672249	0
2.26	33.4320676502901	0	1	0	1	0	33.4320676502901	0
2.27	33.4217991923105	0	1	0	1	0	33.4217991923105	0
2.28	33.4126903065871	0	1	0	1	0	33.4126903065871	0
2.29	33.4047304930882	0	1	0	1	0	33.4047304930882	0
2.3	33.3979094343914	0	1	0	1	0	33.3979094343914	0
2.31	33.3922169917309	0	1	0	1	0	33.3922169917309	0
2.32	33.3876432011471	0	1	0	1	0	33.3876432011471	0
2.33	33.3841782697357	0	1	0	1	0	33.3841782697357	0
2.34	33.3818125719925	0	1	0	1	0	33.3818125719925	0
2.35	33.3805366462513	0	1	0	1	0	33.3805366462513	0
2.36	33.3803411912136	0	1	0	1	0	33.3803411912136	0
2.37	33.3812170625646	0	1	0	1	0	33.3812170625646	0
2.38	33.3831552696754	0	1	0	1	0	33.3831552696754	0
2.39	33.386146972388	0	1	0	1	0	33.386146972388	0
2.4	33.3901834778803	0	1	0	1	0	33.3901834778803	0
2.41	33.3952562376096	0	1	0	1	0	33.3952562376096	0
2.42	33.401356844331	0	1	0	1	0	33.401356844331	0
2.43	33.4084770291909	0	1	0	1	0	33.4084770291909	0
2.44	33.4166086588905	0	1	0	1	0	33.4166086588905	0
2.45	33.4257437329195	0	1	0	1	0	33.4257437329195	0
2.46	33.4358743808572	0	1	0	1	0	33.4358743808572	0
2.47	33.4469928597393	0	1	0	1	0	33.4469928597393	0
2.48	33.4590915514877	0	1	0	1	0	33.4590915514877	0
2.49	33.4721629604034	0	1	0	1	0	33.4721629604034	0
2.5	33.4861997107184	0	1	0	1	0	33.4861997107184	0
2.51	33.5011945442068	0	1	0	1	0	33.5011945442068	0
2.52	33.5171403178527	0	1	0	1	0	33.5171403178527	0
2.53	33.5340300015732	0	1	0	1	0	33.5340300015732	0
2.54	33.5518566759954	0	1	0	1	0	33.5518566759954	0
2.55	33.5706135302857	0	1	0	1	0	33.5706135302857	0
2.56	33.5902938600296	0	1	0	1	0	33.5902938600296	0
2.57	33.6108910651615	0	1	0	1	0	33.6108910651615	0
2.58	33.6323986479424	0	1	0	1	0	33.6323986479424	0
2.59	33.6548102109846	0	1	0	1	0	33.6548102109846	0
2.6	33.6781194553216	0	1	0	1	0	33.6781194553216	0
2.61	33.7023201785229	0	1	0	1	0	33.7023201785229	0
2.62	33.7274062728514	0	1	0	1	0	33.7274062728514	0
2.63	33.7533717234636	0	1	0	1	0	33.7533717234636	0
2.64	33.7802106066498	0	1	0	1	0	33.7802106066498	0
2.65	33.8079170881149	0	1	0	1	0	33.8079170881149	0
2.66	33.8364854212975	0	1	0	1	0	33.8364854212975	0
2.67	33.8659099457271	0	1	0	1	0	33.8659099457271	0
2.68	33.8961850854176	0	1	0	1	0	33.8961850854176	0
2.69	33.9273053472975	0	1	0	1	0	33.9273053472975	0
2.7	33.9592653196739	0	1	0	1	0	33.9592653196739	0
2.71	33.9920596707314	0	1	0	1	0	33.9920596707314	0
2.72	34.0256831470636	0	1	0	1	0	34.0256831470636	0
2.73	34.0601305722371	0	1	0	1	0	34.0601305722371	0
2.74	34.095396845387	0	1	0	1	0	34.095396845387	0
2.75	34.1314769398425	0	1	0	1	0	34.1314769398425	0
2.76	34.1683659017834	0	1	0	1	0	34.1683659017834	0
2.77	34.2060588489246	0	1	0	1	0	34.2060588489246	0
2.78	34.2445509692299	0	1	0	1	0	34.2445509692299	0
2.79	34.2838375196528	0	1	0	1	0	34.2838375196528	0
2.8	34.3239138249044	0	1	0	1	0	34.3239138249044	0
2.81	34.3647752762482	0	1	0	1	0	34.3647752762482	0
2.82	34.4064173303199	0	1	0	1	0	34.4064173303199	0
2.83	34.448835507972	0	1	0	1	0	34.448835507972	0
2.84	34.492025393144	0	1	0	1	0	34.492025393144	0
2.85	34.535982631755	0	1	0	1	0	34.535982631755	0
2.86	34.5807029306203	0	1	0	1	0	34.5807029306203	0
2.87	34.6261820563906	0	1	0	1	0	34.6261820563906	0
2.88	34.6724158345131	0	1	0	1	0	34.6724158345131	0
2.89	34.7194001482143	0	1	0	1	0	34.7194001482143	0
2.9	34.7671309375038	0	1	0	1	0	34.7671309375038	0
2.91	34.8156041981984	0	1	0	1	0	34.8156041981984	0
2.92	34.8648159809672	0	1	0	1	0	34.8648159809672	0
2.93	34.9147623903945	0	1	0	1	0	34.9147623903945	0
2.94	34.965439584064	0	1	0	1	0	34.965439584064	0
2.95	35.0168437716595	0	1	0	1	0	35.0168437716595	0
2.96	35.0689712140856	0	1	0	1	0	35.0689712140856	0
2.97	35.121818222605	0	1	0	1	0	35.121818222605	0
2.98	35.1753811579936	0	1	0	1	0	35.1753811579936	0
2.99	35.2296564297127	0	1	0	1	0	35.2296564297127	0
3	35.2846404950972	0	1	0	1	0	35.2846404950972	0
3.01	35.3403298585608	0	1	0	1	0	35.3403298585608	0
3.02	35.3967210708164	0	1	0	1	0	35.3967210708164	0
3.03	35.4538107281119	0	1	0	1	0	35.4538107281119	0
3.04	35.5115954714815	0	1	0	1	0	35.5115954714815	0
3.05	35.5700719860113	0	1	0	1	0	35.5700719860113	0
3.06	35.6292370001198	0	1	0	1	0	35.6292370001198	0
3.07	35.6890872848519	0	1	0	1	0	35.6890872848519	0
3.08	35.7496196531868	0	1	0	1	0	35.7496196531868	0
3.09	35.8108309593599	0	1	0	1	0	35.8108309593599	0
3.1	35.8727180981969	0	1	0	1	0	35.8727180981969	0
3.11	35.9352780044616	0	1	0	1	0	35.9352780044616	0
3.12	35.9985076522155	0	1	0	1	0	35.9985076522155	0
3.13	36.0624040541905	0	1	0	1	0	36.0624040541905	0
3.14	36.1269642611726	0	1	0	1	0	36.1269642611726	0
3.15	36.1921853613984	0	1	0	1	0	36.1921853613984	0
3.16	36.258064479962	0	1	0	1	0	36.258064479962	0
3.17	36.3245987782342	0	1	0	1	0	36.3245987782342	0
3.18	36.3917854532915	0	1	0	1	0	36.3917854532915	0
3.19	36.4596217373571	0	1	0	1	0	36.4596217373571	0
3.2	36.5281048972512	0	1	0	1	0	36.5281048972512	0
3.21	36.5972322338524	0	1	0	1	0	36.5972322338524	0
3.22	36.6670010815687	0	1	0	1	0	36.6670010815687	0
3.23	36.7374088078185	0	1	0	1	0	36.7374088078185	0
3.24	36.8084528125215	0	1	0	1	0	36.8084528125215	0
3.25	36.8801305275979	0	1	0	1	0	36.8801305275979	0
3.26	36.9524394164784	0	1	0	1	0	36.9524394164784	0
3.27	37.0253769736221	0	1	0	1	0	37.0253769736221	0
3.28	37.0989407240434	0	1	0	1	0	37.0989407240434	0
3.29	37.1731282228476	0	1	0	1	0	37.1731282228476	0
3.3	37.2479370547752	0	1	0	1	0	37.2479370547752	0
3.31	37.3233648337542	0	1	0	1	0	37.3233648337542	0
3.32	37.3994092024602	0	1	0	1	0	37.3994092024602	0
3.33	37.4760678318854	0	1	0	1	0	37.4760678318854	0
3.34	37.5533384209139	0	1	0	1	0	37.5533384209139	0
3.35	37.631218695906	0	1	0	1	0	37.631218695906	0
3.36	37.7097064102893	0	1	0	1	0	37.7097064102893	0
3.37	37.7887993441566	0	1	0	1	0	37.7887993441566	0
3.38	37.868495303872	0	1	0	1	0	37.868495303872	0
3.39	37.9487921216833	0	1	0	1	0	37.9487921216833	0
3.4	38.0296876553411	0	1	0	1	0	38.0296876553411	0
3.41	38.111179787725	0	1	0	1	0	38.111179787725	0
3.42	38.1932664264764	0	1	0	1	0	38.1932664264764	0
3.43	38.2759455036373	0	1	0	1	0	38.2759455036373	0
3.44	38.3592149752956	0	1	0	1	0	38.3592149752956	0
3.45	38.443072821237	0	1	0	1	0	38.443072821237	0
3.46	38.5275170446021	0	1	0	1	0	38.5275170446021	0
3.47	38.61254567155	0	1	0	1	0	38.61254567155	0
3.48	38.6981567509278	0	1	0	1	0	38.6981567509278	0
3.49	38.7843483539453	0	1	0	1	0	38.7843483539453	0
3.5	38.8711185738556	0	1	0	1	0	38.8711185738556	0
3.51	38.9584655256411	0	1	0	1	0	38.9584655256411	0
3.52	39.0463873457049	0	1	0	1	0	39.0463873457049	0
3.53	39.1348821915673	0	1	0	1	0	39.1348821915673	0
3.54	39.2239482415676	0	1	0	1	0	39.2239482415676	0
3.55	39.3135836945709	0	1	0	1	0	39.3135836945709	0
3.56	39.4037867696796	0	1	0	1	0	39.4037867696796	0
3.57	39.4945557059505	0	1	0	1	0	39.4945557059505	0
3.58	39.5858887621153	0	1	0	1	0	39.5858887621153	0
3.59	39.6777842163072	0	1	0	1	0	39.6777842163072	0
3.6	39.7702403657915	0	1	0	1	0	39.7702403657915	0
3.61	39.8632555266999	0	1	0	1	0	39.8632555266999	0
3.62	39.9568280337707	0	1	0	1	0	39.9568280337707	0
3.63	40.0509562400922	0	1	0	1	0	40.0509562400922	0
3.64	40.1456385168505	0	1	0	1	0	40.1456385168505	0
3.65	40.2408732530818	0	1	0	1	0	40.2408732530818	0
3.66	40.3366588554282	0	1	0	1	0	40.3366588554282	0
3.67	40.4329937478986	0	1	0	1	0	40.4329937478986	0
3.68	40.5298763716318	0	1	0	1	0	40.5298763716318	0
3.69	40.627305184665	0	1	0	1	0	40.627305184665	0
3.7	40.7252786617054	0	1	0	1	0	40.7252786617054	0
3.71	40.823795293905	0	1	0	1	0	40.823795293905	0
3.72	40.9228535886404	0	1	0	1	0	40.9228535886404	0
3.73	41.0224520692947	0	1	0	1	0	41.0224520692947	0
3.74	41.1225892750436	0	1	0	1	0	41.1225892750436	0
3.75	41.2232637606452	0	1	0	1	0	41.2232637606452	0
3.76	41.3244740962322	0	1	0	1	0	41.3244740962322	0
3.77	41.4262188671085	0	1	0	1	0	41.4262188671085	0
3.78	41.5284966735483	0	1	0	1	0	41.5284966735483	0
3.79	41.6313061305986	0	1	0	1	0	41.6313061305986	0
3.8	41.7346458678849	0	1	0	1	0	41.7346458678849	0
3.81	41.8385145294198	0	1	0	1	0	41.8385145294198	0
3.82	41.9429107734146	0	1	0	1	0	41.9429107734146	0
3.83	42.0478332720944	0	1	0	1	0	42.0478332720944	0
3.84	42.1532807115148	0	1	0	1	0	42.1532807115148	0
3.85	42.2592517913833	0	1	0	1	0	42.2592517913833	0
3.86	42.3657452248815	0	1	0	1	0	42.3657452248815	0
3.87	42.4727597384917	0	1	0	1	0	42.4727597384917	0
3.88	42.5802940718251	0	1	0	1	0	42.5802940718251	0
3.89	42.6883469774533	0	1	0	1	0	42.6883469774533	0
3.9	42.796917220742	0	1	0	1	0	42.796917220742	0
3.91	42.9060035796875	0	1	0	1	0	42.9060035796875	0
3.92	43.0156048447554	0	1	0	1	0	43.0156048447554	0
3.93	43.1257198187222	0	1	0	1	0	43.1257198187222	0
3.94	43.2363473165187	0	1	0	1	0	43.2363473165187	0
3.95	43.3474861650769	0	1	0	1	0	43.3474861650769	0
3.96	43.4591352031774	0	1	0	1	0	43.4591352031774	0
3.97	43.5712932813011	0	1	0	1	0	43.5712932813011	0
3.98	43.6839592614818	0	1	0	1	0	43.6839592614818	0
3.99	43.7971320171614	0	1	0	1	0	43.7971320171614	0
4	43.9108104330475	0	1	0	1	0	43.9108104330475	0
4.01	44.0249934049727	0	1	0	1	0	44.0249934049727	0
4.02	44.1396798397564	0	1	0	1	0	44.1396798397564	0
4.03	44.2548686550684	0	1	0	1	0	44.2548686550684	0
4.04	44.3705587792946	0	1	0	1	0	44.3705587792946	0
4.05	44.4867491514048	0	1	0	1	0	44.4867491514048	0
4.06	44.6034387208224	0	1	0	1	0	44.6034387208224	0
4.07	44.7206264472956	0	1	0	1	0	44.7206264472956	0
4.08	44.8383113007715	0	1	0	1	0	44.8383113007715	0
4.09	44.9564922612708	0	1	0	1	0	44.9564922612708	0
4.1	45.0751683187652	0	1	0	1	0	45.0751683187652	0
4.11	45.1943384730566	0	1	0	1	0	45.1943384730566	0
4.12	45.3140017336574	0	1	0	1	0	45.3140017336574	0
4.13	45.4341571196731	0	1	0	1	0	45.4341571196731	0
4.14	45.5548036596865	0	1	0	1	0	45.5548036596865	0
4.15	45.6759403916433	0	1	0	1	0	45.6759403916433	0
4.16	45.7975663627399	0	1	0	1	0	45.7975663627399	0
4.17	45.9196806293124	0	1	0	1	0	45.9196806293124	0
4.18	46.0422822567268	0	1	0	1	0	46.0422822567268	0
4.19	46.1653703192719	0	1	0	1	0	46.1653703192719	0
4.2	46.2889439000529	0	1	0	1	0	46.2889439000529	0
4.21	46.4130020908862	0	1	0	1	0	46.4130020908862	0
4.22	46.5375439921969	0	1	0	1	0	46.5375439921969	0
4.23	46.6625687129167	0	1	0	1	0	46.6625687129167	0
4.24	46.7880753703834	0	1	0	1	0	46.7880753703834	0
4.25	46.9140630902424	0	1	0	1	0	46.9140630902424	0
4.26	47.0405310063489	0	1	0	1	0	47.0405310063489	0
4.27	47.167478260672	0	1	0	1	0	47.167478260672	0
4.28	47.2949040031996	0	1	0	1	0	47.2949040031996	0
4.29	47.4228073918453	0	1	0	1	0	47.4228073918453	0
4.3	47.5511875923559	0	1	0	1	0	47.5511875923559	0
4.31	47.6800437782207	0	1	0	1	0	47.6800437782207	0
4.32	47.809375130582	0	1	0	1	0	47.809375130582	0
4.33	47.9391808381466	0	1	0	1	0	47.9391808381466	0
4.34	48.0694600970985	0	1	0	1	0	48.0694600970985	0
4.35	48.2002121110132	0	1	0	1	0	48.2002121110132	0
4.36	48.331436090773	0	1	0	1	0	48.331436090773	0
4.37	48.463131254483	0	1	0	1	0	48.463131254483	0
4.38	48.595296827389	0	1	0	1	0	48.595296827389	0
4.39	48.727932041796	0	1	0	1	0	48.727932041796	0
4.4	48.8610361369883	0	1	0	1	0	48.8610361369883	0
4.41	48.9946083591497	0	1	0	1	0	48.9946083591497	0
4.42	49.1286479612861	0	1	0	1	0	49.1286479612861	0
4.43	49.2631542031484	0	1	0	1	0	49.2631542031484	0
4.44	49.3981263511562	0	1	0	1	0	49.3981263511562	0
4.45	49.5335636783232	0	1	0	1	0	49.5335636783232	0
4.46	49.6694654641829	0	1	0	1	0	49.6694654641829	0
4.47	49.8058309947164	0	1	0	1	0	49.8058309947164	0
4.48	49.9426595622794	0	1	0	1	0	49.9426595622794	0
4.49	50.0799504655324	0	1	0	1	0	50.0799504655324	0
4.5	50.2177030093695	0	1	0	1	0	50.2177030093695	0
4.51	50.35591650485	0	1	0	1	0	50.35591650485	0
4.52	50.4945902691302	0	1	0	1	0	50.4945902691302	0
4.53	50.6337236253957	0	1	0	1	0	50.6337236253957	0
4.54	50.7733159027953	0	1	0	1	0	50.7733159027953	0
4.55	50.9133664363753	0	1	0	1	0	50.9133664363753	0
4.56	51.0538745670152	0	1	0	1	0	51.0538745670152	0
4.57	51.1948396413633	0	1	0	1	0	51.1948396413633	0
4.58	51.3362610117741	0	1	0	1	0	51.3362610117741	0
4.59	51.4781380362462	0	1	0	1	0	51.4781380362462	0
4.6	51.6204700783607	0	1	0	1	0	51.6204700783607	0
4.61	51.7632565072209	0	1	0	1	0	51.7632565072209	0
4.62	51.9064966973923	0	1	0	1	0	51.9064966973923	0
4.63	52.0501900288436	0	1	0	1	0	52.0501900288436	0
4.64	52.1943358868889	0	1	0	1	0	52.1943358868889	0
4.65	52.3389336621297	0	1	0	1	0	52.3389336621297	0
4.66	52.4839827503985	0	1	0	1	0	52.4839827503985	0
4.67	52.6294825527025	0	1	0	1	0	52.6294825527025	0
4.68	52.7754324751688	0	1	0	1	0	52.7754324751688	0
4.69	52.9218319289893	0	1	0	1	0	52.9218319289893	0
4.7	53.068680330367	0	1	0	1	0	53.068680330367	0
4.71	53.215977100463	0	1	0	1	0	53.215977100463	0
4.72	53.3637216653436	0	1	0	1	0	53.3637216653436	0
4.73	53.5119134559289	0	1	0	1	0	53.5119134559289	0
4.74	53.6605519079413	0	1	0	1	0	53.6605519079413	0
4.75	53.8096364618548	0	1	0	1	0	53.8096364618548	0
4.76	53.9591665628456	0	1	0	1	0	53.9591665628456	0
4.77	54.1091416607423	0	1	0	1	0	54.1091416607423	0
4.78	54.2595612099776	0	1	0	1	0	54.2595612099776	0
4.79	54.4104246695399	0	1	0	1	0	54.4104246695399	0
4.8	54.5617315029261	0	1	0	1	0	54.5617315029261	0
4.81	54.7134811780949	0	1	0	1	0	54.7134811780949	0
4.82	54.8656731674199	0	1	0	1	0	54.8656731674199	0
4.83	55.0183069476445	0	1	0	1	0	55.0183069476445	0
4.84	55.1713819998364	0	1	0	1	0	55.1713819998364	0
4.85	55.3248978093435	0	1	0	1	0	55.3248978093435	0
4.86	55.478853865749	0	1	0	1	0	55.478853865749	0
4.87	55.6332496628288	0	1	0	1	0	55.6332496628288	0
4.88	55.7880846985081	0	1	0	1	0	55.7880846985081	0
4.89	55.943358474819	0	1	0	1	0	55.943358474819	0
4.9	56.0990704978586	0	1	0	1	0	56.0990704978586	0
4.91	56.2552202777479	0	1	0	1	0	56.2552202777479	0
4.92	56.4118073285903	0	1	0	1	0	56.4118073285903	0
4.93	56.5688311684318	0	1	0	1	0	56.5688311684318	0
