# GHZ S RI R 50
1	56.8150352990321	0	1	0	1	0	56.8150352990321	0
1.01	56.3626983353444	0	1	0	1	0	56.3626983353444	0
1.02	55.9202949140696	0	1	0	1	0	55.9202949140696	0
1.03	55.4875461429695	0	1	0	1	0	55.4875461429695	0
1.04	55.0641838564307	0	1	0	1	0	55.0641838564307	0
1.05	54.6499501046725	0	1	0	1	0	54.6499501046725	0
1.06	54.2445966718684	0	1	0	1	0	54.2445966718684	0
1.07	53.847884621288	0	1	0	1	0	53.847884621288	0
1.08	53.4595838657096	0	1	0	1	0	53.4595838657096	0
1.09	53.0794727614792	0	1	0	1	0	53.0794727614792	0
1.1	52.707337724712	0	1	0	1	0	52.707337724712	0
1.11	52.3429728682398	0	1	0	1	0	52.3429728682398	0
1.12	51.9861796580076	0	1	0	1	0	51.9861796580076	0
1.13	51.6367665877145	0	1	0	1	0	51.6367665877145	0
1.14	51.2945488705789	0	1	0	1	0	51.2945488705789	0
1.15	50.9593481471856	0	1	0	1	0	50.9593481471856	0
1.16	50.630992208444	0	1	0	1	0	50.630992208444	0
1.17	50.3093147327538	0	1	0	1	0	50.3093147327538	0
1.18	49.9941550365352	0	1	0	1	0	49.9941550365352	0
1.19	49.6853578373367	0	1	0	1	0	49.6853578373367	0
1.2	49.3827730287891	0	1	0	1	0	49.3827730287891	0
1.21	49.0862554667167	0	1	0	1	0	49.0862554667167	0
1.22	48.7956647657695	0	1	0	1	0	48.7956647657695	0
1.23	48.5108651059748	0	1	0	1	0	48.5108651059748	0
1.24	48.2317250486491	0	1	0	1	0	48.2317250486491	0
1.25	47.958117361147	0	1	0	1	0	47.958117361147	0
1.26	47.6899188499546	0	1	0	1	0	47.6899188499546	0
1.27	47.4270102016686	0	1	0	1	0	47.4270102016686	0
1.28	47.1692758314297	0	1	0	1	0	47.1692758314297	0
1.29	46.9166037384051	0	1	0	1	0	46.9166037384051	0
1.3	46.6688853679417	0	1	0	1	0	46.6688853679417	0
1.31	46.426015480032	0	1	0	1	0	46.426015480032	0
1.32	46.1878920237599	0	1	0	1	0	46.1878920237599	0
1.33	45.9544160174095	0	1	0	1	0	45.9544160174095	0
1.34	45.7254914339433	0	1	0	1	0	45.7254914339433	0
1.35	45.5010250915691	0	1	0	1	0	45.5010250915691	0
1.36	45.2809265491359	0	1	0	1	0	45.2809265491359	0
1.37	45.06510800611	0	1	0	1	0	45.06510800611	0
1.38	44.8534842069008	0	1	0	1	0	44.8534842069008	0
1.39	44.645972349316	0	1	0	1	0	44.645972349316	0
1.4	44.4424919969402	0	1	0	1	0	44.4424919969402	0
1.41	44.2429649952423	0	1	0	1	0	44.2429649952423	0
1.42	44.0473153912269	0	1	0	1	0	44.0473153912269	0
1.43	43.8554693564584	0	1	0	1	0	43.8554693564584	0
1.44	43.6673551132906	0	1	0	1	0	43.6673551132906	0
1.45	43.4829028641506	0	1	0	1	0	43.4829028641506	0
1.46	43.3020447237277	0	1	0	1	0	43.3020447237277	0
1.47	43.1247146539305	0	1	0	1	0	43.1247146539305	0
1.48	42.950848401481	0	1	0	1	0	42.950848401481	0
1.49	42.7803834380213	0	1	0	1	0	42.7803834380213	0
1.5	42.6132589026163	0	1	0	1	0	42.6132589026163	0
1.51	42.4494155465413	0	1	0	1	0	42.4494155465413	0
1.52	42.2887956802485	0	1	0	1	0	42.2887956802485	0
1.53	42.1313431224134	0	1	0	1	0	42.1313431224134	0
1.54	41.977003150967	0	1	0	1	0	41.977003150967	0
1.55	41.8257224560225	0	1	0	1	0	41.8257224560225	0
1.56	41.6774490946132	0	1	0	1	0	41.6774490946132	0
1.57	41.5321324471604	0	1	0	1	0	41.5321324471604	0
1.58	41.3897231755934	0	1	0	1	0	41.3897231755934	0
1.59	41.250173183051	0	1	0	1	0	41.250173183051	0
1.6	41.1134355750935	0	1	0	1	0	41.1134355750935	0
1.61	40.9794646223605	0	1	0	1	0	40.9794646223605	0
1.62	40.8482157246114	0	1	0	1	0	40.8482157246114	0
1.63	40.7196453760903	0	1	0	1	0	40.7196453760903	0
1.64	40.5937111321571	0	1	0	1	0	40.5937111321571	0
1.65	40.4703715771327	0	1	0	1	0	40.4703715771327	0
1.66	40.3495862933064	0	1	0	1	0	40.3495862933064	0
1.67	40.2313158310561	0	1	0	1	0	40.2313158310561	0
1.68	40.1155216800365	0	1	0	1	0	40.1155216800365	0
1.69	40.0021662413898	0	1	0	1	0	40.0021662413898	0
1.7	39.8912128009371	0	1	0	1	0	39.8912128009371	0
1.71	39.7826255033109	0	1	0	1	0	39.7826255033109	0
1.72	39.6763693269893	0	1	0	1	0	39.6763693269893	0
1.73	39.5724100601967	0	1	0	1	0	39.5724100601967	0
1.74	39.4707142776348	0	1	0	1	0	39.4707142776348	0
1.75	39.3712493180126	0	1	0	1	0	39.3712493180126	0
1.76	39.2739832623407	0	1	0	1	0	39.2739832623407	0
1.77	39.178884912963	0	1	0	1	0	39.178884912963	0
1.78	39.0859237732945	0	1	0	1	0	39.0859237732945	0
1.79	38.9950700282377	0	1	0	1	0	38.9950700282377	0
1.8	38.9062945252533	0	1	0	1	0	38.9062945252533	0
1.81	38.8195687560566	0	1	0	1	0	38.8195687560566	0
1.82	38.7348648389189	0	1	0	1	0	38.7348648389189	0
1.83	38.6521555015481	0	1	0	1	0	38.6521555015481	0
1.84	38.571414064528	0	1	0	1	0	38.571414064528	0
1.85	38.4926144252945	0	1	0	1	0	38.4926144252945	0
1.86	38.4157310426293	0	1	0	1	0	38.4157310426293	0
1.87	38.3407389216501	0	1	0	1	0	38.3407389216501	0
1.88	38.2676135992805	0	1	0	1	0	38.2676135992805	0
1.89	38.1963311301813	0	1	0	1	0	38.1963311301813	0
1.9	38.1268680731259	0	1	0	1	0	38.1268680731259	0
1.91	38.0592014778031	0	1	0	1	0	38.0592014778031	0
1.92	37.9933088720334	0	1	0	1	0	37.9933088720334	0
1.93	37.9291682493817	0	1	0	1	0	37.9291682493817	0
1.94	37.8667580571543	0	1	0	1	0	37.8667580571543	0
1.95	37.8060571847635	0	1	0	1	0	37.8060571847635	0
1.96	37.7470449524504	0	1	0	1	0	37.7470449524504	0
1.97	37.6897011003492	0	1	0	1	0	37.6897011003492	0
1.98	37.6340057778848	0	1	0	1	0	37.6340057778848	0
1.99	37.5799395334882	0	1	0	1	0	37.5799395334882	0
2	37.5274833046221	0	1	0	1	0	37.5274833046221	0
2.01	37.476618408103	0	1	0	1	0	37.476618408103	0
2.02	37.4273265307116	0	1	0	1	0	37.4273265307116	0
2.03	37.37958972008	0	1	0	1	0	37.37958972008	0
2.04	37.3333903758477	0	1	0	1	0	37.3333903758477	0
2.05	37.2887112410757	0	1	0	1	0	37.2887112410757	0
2.06	37.2455353939113	0	1	0	1	0	37.2455353939113	0
2.07	37.2038462394941	0	1	0	1	0	37.2038462394941	0
2.08	37.1636275020956	0	1	0	1	0	37.1636275020956	0
2.09	37.1248632174846	0	1	0	1	0	37.1248632174846	0
2.1	37.0875377255105	0	1	0	1	0	37.0875377255105	0
2.11	37.0516356628973	0	1	0	1	0	37.0516356628973	0
2.12	37.0171419562424	0	1	0	1	0	37.0171419562424	0
2.13	36.9840418152119	0	1	0	1	0	36.9840418152119	0
2.14	36.9523207259264	0	1	0	1	0	36.9523207259264	0
2.15	36.9219644445324	0	1	0	1	0	36.9219644445324	0
2.16	36.8929589909515	0	1	0	1	0	36.8929589909515	0
2.17	36.8652906428024	0	1	0	1	0	36.8652906428024	0
2.18	36.8389459294907	0	1	0	1	0	36.8389459294907	0
2.19	36.8139116264604	0	1	0	1	0	36.8139116264604	0
2.2	36.7901747496017	0	1	0	1	0	36.7901747496017	0
2.21	36.7677225498115	0	1	0	1	0	36.7677225498115	0
2.22	36.7465425077003	0	1	0	1	0	36.7465425077003	0
2.23	36.7266223284414	0	1	0	1	0	36.7266223284414	0
2.24	36.707949936759	0	1	0	1	0	36.707949936759	0
2.25	36.6905134720484	0	1	0	1	0	36.6905134720484	0
2.26	36.6743012836274	0	1	0	1	0	36.6743012836274	0
2.27	36.659301926112	0	1	0	1	0	36.659301926112	0
2.28	36.6455041549146	0	1	0	1	0	36.6455041549146	0
2.29	36.6328969218596	0	1	0	1	0	36.6328969218596	0
2.3	36.6214693709132	0	1	0	1	0	36.6214693709132	0
2.31	36.6112108340254	0	1	0	1	0	36.6112108340254	0
2.32	36.6021108270778	0	1	0	1	0	36.6021108270778	0
2.33	36.5941590459369	0	1	0	1	0	36.5941590459369	0
2.34	36.5873453626082	0	1	0	1	0	36.5873453626082	0
2.35	36.5816598214887	0	1	0	1	0	36.5816598214887	0
2.36	36.5770926357145	0	1	0	1	0	36.5770926357145	0
2.37	36.5736341836005	0	1	0	1	0	36.5736341836005	0
2.38	36.571275005171	0	1	0	1	0	36.571275005171	0
2.39	36.570005798776	0	1	0	1	0	36.570005798776	0
2.4	36.5698174177931	0	1	0	1	0	36.5698174177931	0
2.41	36.5707008674109	0	1	0	1	0	36.5707008674109	0
2.42	36.5726473014929	0	1	0	1	0	36.5726473014929	0
2.43	36.5756480195177	0	1	0	1	0	36.5756480195177	0
2.44	36.5796944635955	0	1	0	1	0	36.5796944635955	0
2.45	36.5847782155572	0	1	0	1	0	36.5847782155572	0
2.46	36.5908909941144	0	1	0	1	0	36.5908909941144	0
2.47	36.5980246520888	0	1	0	1	0	36.5980246520888	0
2.48	36.606171173708	0	1	0	1	0	36.606171173708	0
2.49	36.6153226719672	0	1	0	1	0	36.6153226719672	0
2.5	36.6254713860535	0	1	0	1	0	36.6254713860535	0
2.51	36.6366096788325	0	1	0	1	0	36.6366096788325	0
2.52	36.648730034394	0	1	0	1	0	36.648730034394	0
2.53	36.6618250556564	0	1	0	1	0	36.6618250556564	0
2.54	36.6758874620278	0	1	0	1	0	36.6758874620278	0
2.55	36.6909100871214	0	1	0	1	0	36.6909100871214	0
2.56	36.7068858765253	0	1	0	1	0	36.7068858765253	0
2.57	36.7238078856239	0	1	0	1	0	36.7238078856239	0
2.58	36.7416692774701	0	1	0	1	0	36.7416692774701	0
2.59	36.7604633207066	0	1	0	1	0	36.7604633207066	0
2.6	36.7801833875356	0	1	0	1	0	36.7801833875356	0
2.61	36.8008229517346	0	1	0	1	0	36.8008229517346	0
2.62	36.8223755867181	0	1	0	1	0	36.8223755867181	0
2.63	36.8448349636435	0	1	0	1	0	36.8448349636435	0
2.64	36.8681948495595	0	1	0	1	0	36.8681948495595	0
2.65	36.8924491055974	0	1	0	1	0	36.8924491055974	0
2.66	36.9175916852019	0	1	0	1	0	36.9175916852019	0
2.67	36.9436166324033	0	1	0	1	0	36.9436166324033	0
2.68	36.9705180801266	0	1	0	1	0	36.9705180801266	0
2.69	36.9982902485396	0	1	0	1	0	36.9982902485396	0
2.7	37.0269274434374	0	1	0	1	0	37.0269274434374	0
2.71	37.0564240546623	0	1	0	1	0	37.0564240546623	0
2.72	37.0867745545588	0	1	0	1	0	37.0867745545588	0
2.73	37.117973496463	0	1	0	1	0	37.117973496463	0
2.74	37.150015513224	0	1	0	1	0	37.150015513224	0
2.75	37.1828953157588	0	1	0	1	0	37.1828953157588	0
2.76	37.2166076916377	0	1	0	1	0	37.2166076916377	0
2.77	37.2511475037006	0	1	0	1	0	37.2511475037006	0
2.78	37.2865096887037	0	1	0	1	0	37.2865096887037	0
2.79	37.3226892559941	0	1	0	1	0	37.3226892559941	0
2.8	37.3596812862144	0	1	0	1	0	37.3596812862144	0
2.81	37.3974809300331	0	1	0	1	0	37.3974809300331	0
2.82	37.4360834069041	0	1	0	1	0	37.4360834069041	0
2.83	37.4754840038504	0	1	0	1	0	37.4754840038504	0
2.84	37.5156780742752	0	1	0	1	0	37.5156780742752	0
2.85	37.5566610367971	0	1	0	1	0	37.5566610367971	0
2.86	37.5984283741099	0	1	0	1	0	37.5984283741099	0
2.87	37.6409756318663	0	1	0	1	0	37.6409756318663	0
2.88	37.684298417585	0	1	0	1	0	37.684298417585	0
2.89	37.7283923995805	0	1	0	1	0	37.7283923995805	0
2.9	37.7732533059143	0	1	0	1	0	37.7732533059143	0
2.91	37.8188769233689	0	1	0	1	0	37.8188769233689	0
2.92	37.8652590964422	0	1	0	1	0	37.8652590964422	0
2.93	37.9123957263623	0	1	0	1	0	37.9123957263623	0
2.94	37.9602827701231	0	1	0	1	0	37.9602827701231	0
2.95	38.0089162395387	0	1	0	1	0	38.0089162395387	0
2.96	38.0582922003179	0	1	0	1	0	38.0582922003179	0
2.97	38.1084067711563	0	1	0	1	0	38.1084067711563	0
2.98	38.1592561228478	0	1	0	1	0	38.1592561228478	0
2.99	38.2108364774128	0	1	0	1	0	38.2108364774128	0
3	38.2631441072452	0	1	0	1	0	38.2631441072452	0
3.01	38.3161753342747	0	1	0	1	0	38.3161753342747	0
3.02	38.3699265291477	0	1	0	1	0	38.3699265291477	0
3.03	38.4243941104224	0	1	0	1	0	38.4243941104224	0
3.04	38.4795745437814	0	1	0	1	0	38.4795745437814	0
3.05	38.5354643412591	0	1	0	1	0	38.5354643412591	0
3.06	38.5920600604842	0	1	0	1	0	38.5920600604842	0
3.07	38.6493583039369	0	1	0	1	0	38.6493583039369	0
3.08	38.7073557182214	0	1	0	1	0	38.7073557182214	0
3.09	38.7660489933512	0	1	0	1	0	38.7660489933512	0
3.1	38.8254348620496	0	1	0	1	0	38.8254348620496	0
3.11	38.8855100990626	0	1	0	1	0	38.8855100990626	0
3.12	38.9462715204857	0	1	0	1	0	38.9462715204857	0
3.13	39.0077159831031	0	1	0	1	0	39.0077159831031	0
3.14	39.0698403837401	0	1	0	1	0	39.0698403837401	0
3.15	39.1326416586274	0	1	0	1	0	39.1326416586274	0
3.16	39.1961167827775	0	1	0	1	0	39.1961167827775	0
3.17	39.2602627693733	0	1	0	1	0	39.2602627693733	0
3.18	39.3250766691674	0	1	0	1	0	39.3250766691674	0
3.19	39.3905555698938	0	1	0	1	0	39.3905555698938	0
3.2	39.4566965956899	0	1	0	1	0	39.4566965956899	0
3.21	39.523496906529	0	1	0	1	0	39.523496906529	0
3.22	39.5909536976647	0	1	0	1	0	39.5909536976647	0
3.23	39.6590641990839	0	1	0	1	0	39.6590641990839	0
3.24	39.7278256749716	0	1	0	1	0	39.7278256749716	0
3.25	39.797235423184	0	1	0	1	0	39.797235423184	0
3.26	39.8672907747326	0	1	0	1	0	39.8672907747326	0
3.27	39.9379890932772	0	1	0	1	0	39.9379890932772	0
3.28	40.0093277746278	0	1	0	1	0	40.0093277746278	0
3.29	40.0813042462565	0	1	0	1	0	40.0813042462565	0
3.3	40.1539159668175	0	1	0	1	0	40.1539159668175	0
3.31	40.2271604256761	0	1	0	1	0	40.2271604256761	0
3.32	40.3010351424463	0	1	0	1	0	40.3010351424463	0
3.33	40.3755376665365	0	1	0	1	0	40.3755376665365	0
3.34	40.4506655767033	0	1	0	1	0	40.4506655767033	0
3.35	40.526416480614	0	1	0	1	0	40.526416480614	0
3.36	40.6027880144158	0	1	0	1	0	40.6027880144158	0
3.37	40.6797778423136	0	1	0	1	0	40.6797778423136	0
3.38	40.7573836561548	0	1	0	1	0	40.7573836561548	0
3.39	40.8356031750218	0	1	0	1	0	40.8356031750218	0
3.4	40.914434144831	0	1	0	1	0	40.914434144831	0
3.41	40.99387433794	0	1	0	1	0	40.99387433794	0
3.42	41.0739215527606	0	1	0	1	0	41.0739215527606	0
3.43	41.1545736133789	0	1	0	1	0	41.1545736133789	0
3.44	41.2358283691826	0	1	0	1	0	41.2358283691826	0
3.45	41.3176836944939	0	1	0	1	0	41.3176836944939	0
3.46	41.4001374882092	0	1	0	1	0	41.4001374882092	0
3.47	41.4831876734454	0	1	0	1	0	41.4831876734454	0
3.48	41.5668321971914	0	1	0	1	0	41.5668321971914	0
3.49	41.6510690299663	0	1	0	1	0	41.6510690299663	0
3.5	41.7358961654834	0	1	0	1	0	41.7358961654834	0
3.51	41.8213116203197	0	1	0	1	0	41.8213116203197	0
3.52	41.9073134335908	0	1	0	1	0	41.9073134335908	0
3.53	41.9938996666323	0	1	0	1	0	41.9938996666323	0
3.54	42.0810684026855	0	1	0	1	0	42.0810684026855	0
3.55	42.1688177465888	0	1	0	1	0	42.1688177465888	0
3.56	42.2571458244748	0	1	0	1	0	42.2571458244748	0
3.57	42.3460507834717	0	1	0	1	0	42.3460507834717	0
3.58	42.4355307914101	0	1	0	1	0	42.4355307914101	0
3.59	42.525584036535	0	1	0	1	0	42.525584036535	0
3.6	42.6162087272218	0	1	0	1	0	42.6162087272218	0
3.61	42.7074030916976	0	1	0	1	0	42.7074030916976	0
3.62	42.7991653777675	0	1	0	1	0	42.7991653777675	0
3.63	42.891493852544	0	1	0	1	0	42.891493852544	0
3.64	42.9843868021827	0	1	0	1	0	42.9843868021827	0
3.65	43.0778425316211	0	1	0	1	0	43.0778425316211	0
3.66	43.1718593643216	0	1	0	1	0	43.1718593643216	0
3.67	43.2664356420198	0	1	0	1	0	43.2664356420198	0
3.68	43.3615697244759	0	1	0	1	0	43.3615697244759	0
3.69	43.4572599892304	0	1	0	1	0	43.4572599892304	0
3.7	43.5535048313637	0	1	0	1	0	43.5535048313637	0
3.71	43.6503026632604	0	1	0	1	0	43.6503026632604	0
3.72	43.7476519143758	0	1	0	1	0	43.7476519143758	0
3.73	43.8455510310077	0	1	0	1	0	43.8455510310077	0
3.74	43.9439984760709	0	1	0	1	0	43.9439984760709	0
3.75	44.0429927288761	0	1	0	1	0	44.0429927288761	0
3.76	44.1425322849111	0	1	0	1	0	44.1425322849111	0
3.77	44.242615655627	0	1	0	1	0	44.242615655627	0
3.78	44.3432413682266	0	1	0	1	0	44.3432413682266	0
3.79	44.4444079654568	0	1	0	1	0	44.4444079654568	0
3.8	44.5461140054041	0	1	0	1	0	44.5461140054041	0
3.81	44.6483580612929	0	1	0	1	0	44.6483580612929	0
3.82	44.751138721288	0	1	0	1	0	44.751138721288	0
3.83	44.854454588299	0	1	0	1	0	44.854454588299	0
3.84	44.9583042797886	0	1	0	1	0	44.9583042797886	0
3.85	45.0626864275835	0	1	0	1	0	45.0626864275835	0
3.86	45.1675996776884	0	1	0	1	0	45.1675996776884	0
3.87	45.2730426901027	0	1	0	1	0	45.2730426901027	0
3.88	45.3790141386404	0	1	0	1	0	45.3790141386404	0
3.89	45.4855127107521	0	1	0	1	0	45.4855127107521	0
3.9	45.5925371073508	0	1	0	1	0	45.5925371073508	0
3.91	45.7000860426392	0	1	0	1	0	45.7000860426392	0
3.92	45.8081582439402	0	1	0	1	0	45.8081582439402	0
3.93	45.9167524515306	0	1	0	1	0	45.9167524515306	0
3.94	46.0258674184758	0	1	0	1	0	46.0258674184758	0
3.95	46.1355019104687	0	1	0	1	0	46.1355019104687	0
3.96	46.2456547056698	0	1	0	1	0	46.2456547056698	0
3.97	46.3563245945505	0	1	0	1	0	46.3563245945505	0
3.98	46.4675103797379	0	1	0	1	0	46.4675103797379	0
3.99	46.5792108758633	0	1	0	1	0	46.5792108758633	0
4	46.6914249094114	0	1	0	1	0	46.6914249094114	0
4.01	46.8041513185728	0	1	0	1	0	46.8041513185728	0
4.02	46.9173889530985	0	1	0	1	0	46.9173889530985	0
4.03	47.0311366741564	0	1	0	1	0	47.0311366741564	0
4.04	47.1453933541896	0	1	0	1	0	47.1453933541896	0
4.05	47.2601578767781	0	1	0	1	0	47.2601578767781	0
4.06	47.3754291365008	0	1	0	1	0	47.3754291365008	0
4.07	47.4912060388006	0	1	0	1	0	47.4912060388006	0
4.08	47.6074874998516	0	1	0	1	0	47.6074874998516	0
4.09	47.7242724464276	0	1	0	1	0	47.7242724464276	0
4.1	47.8415598157728	0	1	0	1	0	47.8415598157728	0
4.11	47.9593485554746	0	1	0	1	0	47.9593485554746	0
4.12	48.0776376233379	0	1	0	1	0	48.0776376233379	0
4.13	48.1964259872617	0	1	0	1	0	48.1964259872617	0
4.14	48.3157126251168	0	1	0	1	0	48.3157126251168	0
4.15	48.4354965246259	0	1	0	1	0	48.4354965246259	0
4.16	48.5557766832452	0	1	0	1	0	48.5557766832452	0
4.17	48.6765521080475	0	1	0	1	0	48.6765521080475	0
4.18	48.7978218156074	0	1	0	1	0	48.7978218156074	0
4.19	48.9195848318878	0	1	0	1	0	48.9195848318878	0
4.2	49.0418401921281	0	1	0	1	0	49.0418401921281	0
4.21	49.1645869407342	0	1	0	1	0	49.1645869407342	0
4.22	49.2878241311696	0	1	0	1	0	49.2878241311696	0
4.23	49.4115508258484	0	1	0	1	0	49.4115508258484	0
4.24	49.5357660960302	0	1	0	1	0	49.5357660960302	0
4.25	49.6604690217155	0	1	0	1	0	49.6604690217155	0
4.26	49.7856586915432	0	1	0	1	0	49.7856586915432	0
4.27	49.9113342026897	0	1	0	1	0	49.9113342026897	0
4.28	50.0374946607689	0	1	0	1	0	50.0374946607689	0
4.29	50.1641391797339	0	1	0	1	0	50.1641391797339	0
4.3	50.2912668817804	0	1	0	1	0	50.2912668817804	0
4.31	50.4188768972504	0	1	0	1	0	50.4188768972504	0
4.32	50.5469683645386	0	1	0	1	0	50.5469683645386	0
4.33	50.6755404299988	0	1	0	1	0	50.6755404299988	0
4.34	50.8045922478528	0	1	0	1	0	50.8045922478528	0
4.35	50.9341229800995	0	1	0	1	0	50.9341229800995	0
4.36	51.0641317964259	0	1	0	1	0	51.0641317964259	0
4.37	51.1946178741192	0	1	0	1	0	51.1946178741192	0
4.38	51.3255803979798	0	1	0	1	0	51.3255803979798	0
4.39	51.457018560236	0	1	0	1	0	51.457018560236	0
4.4	51.5889315604596	0	1	0	1	0	51.5889315604596	0
4.41	51.7213186054823	0	1	0	1	0	51.7213186054823	0
4.42	51.8541789093138	0	1	0	1	0	51.8541789093138	0
4.43	51.987511693061	0	1	0	1	0	51.987511693061	0
4.44	52.1213161848477	0	1	0	1	0	52.1213161848477	0
4.45	52.2555916197358	0	1	0	1	0	52.2555916197358	0
4.46	52.3903372396478	0	1	0	1	0	52.3903372396478	0
4.47	52.52555229329	0	1	0	1	0	52.52555229329	0
4.48	52.6612360360763	0	1	0	1	0	52.6612360360763	0
4.49	52.7973877300543	0	1	0	1	0	52.7973877300543	0
4.5	52.9340066438309	0	1	0	1	0	52.9340066438309	0
4.51	53.0710920524999	0	1	0	1	0	53.0710920524999	0
4.52	53.2086432375703	0	1	0	1	0	53.2086432375703	0
4.53	53.3466594868954	0	1	0	1	0	53.3466594868954	0
4.54	53.4851400946028	0	1	0	1	0	53.4851400946028	0
4.55	53.6240843610256	0	1	0	1	0	53.6240843610256	0
4.56	53.7634915926344	0	1	0	1	0	53.7634915926344	0
4.57	53.9033611019699	0	1	0	1	0	53.9033611019699	0
4.58	54.0436922075772	0	1	0	1	0	54.0436922075772	0
4.59	54.1844842339395	0	1	0	1	0	54.1844842339395	0
4.6	54.3257365114145	0	1	0	1	0	54.3257365114145	0
4.61	54.46744837617	0	1	0	1	0	54.46744837617	0
4.62	54.6096191701213	0	1	0	1	0	54.6096191701213	0
4.63	54.7522482408691	0	1	0	1	0	54.7522482408691	0
4.64	54.8953349416383	0	1	0	1	0	54.8953349416383	0
4.65	55.0388786312173	0	1	0	1	0	55.0388786312173	0
4.66	55.1828786738987	0	1	0	1	0	55.1828786738987	0
4.67	55.3273344394199	0	1	0	1	0	55.3273344394199	0
4.68	55.4722453029054	0	1	0	1	0	55.4722453029054	0
4.69	55.6176106448089	0	1	0	1	0	55.6176106448089	0
4.7	55.7634298508569	0	1	0	1	0	55.7634298508569	0
4.71	55.9097023119926	0	1	0	1	0	55.9097023119926	0
4.72	56.056427424321	0	1	0	1	0	56.056427424321	0
4.73	56.2036045890537	0	1	0	1	0	56.2036045890537	0
4.74	56.3512332124555	0	1	0	1	0	56.3512332124555	0
4.75	56.499312705791	0	1	0	1	0	56.499312705791	0
4.76	56.6478424852723	0	1	0	1	0	56.6478424852723	0
4.77	56.7968219720069	0	1	0	1	0	56.7968219720069	0
4.78	56.9462505919465	0	1	0	1	0	56.9462505919465	0
4.79	57.0961277758368	0	1	0	1	0	57.0961277758368	0
4.8	57.2464529591669	0	1	0	1	0	57.2464529591669	0
4.81	57.3972255821207	0	1	0	1	0	57.3972255821207	0
4.82	57.5484450895278	0	1	0	1	0	57.5484450895278	0
4.83	57.7001109308154	0	1	0	1	0	57.7001109308154	0
4.84	57.8522225599609	0	1	0	1	0	57.8522225599609	0
4.85	58.0047794354451	0	1	0	1	0	58.0047794354451	0
4.86	58.1577810202055	0	1	0	1	0	58.1577810202055	0
4.87	58.3112267815912	0	1	0	1	0	58.3112267815912	0
4.88	58.4651161913168	0	1	0	1	0	58.4651161913168	0
4.89	58.6194487254187	0	1	0	1	0	58.6194487254187	0
4.9	58.7742238642102	0	1	0	1	0	58.7742238642102	0
4.91	58.9294410922385	0	1	0	1	0	58.9294410922385	0
4.92	59.0850998982414	0	1	0	1	0	59.0850998982414	0
4.93	59.241199775105	0	1	0	1	0	59.241199775105	0
