# GHZ S RI R 50
1	57.4327585844564	0	1	0	1	0	57.4327585844564	0
1.01	56.9593348399323	0	1	0	1	0	56.9593348399323	0
1.02	56.4965165512793	0	1	0	1	0	56.4965165512793	0
1.03	56.0440077900037	0	1	0	1	0	56.0440077900037	0
1.04	55.6015240094772	0	1	0	1	0	55.6015240094772	0
1.05	55.1687915029427	0	1	0	1	0	55.1687915029427	0
1.06	54.7455468922003	0	1	0	1	0	54.7455468922003	0
1.07	54.3315366449638	0	1	0	1	0	54.3315366449638	0
1.08	53.926516619032	0	1	0	1	0	53.926516619032	0
1.09	53.5302516315502	0	1	0	1	0	53.5302516315502	0
1.1	53.1425150517679	0	1	0	1	0	53.1425150517679	0
1.11	52.763088415808	0	1	0	1	0	52.763088415808	0
1.12	52.3917610620752	0	1	0	1	0	52.3917610620752	0
1.13	52.0283297860216	0	1	0	1	0	52.0283297860216	0
1.14	51.6725985130833	0	1	0	1	0	51.6725985130833	0
1.15	51.3243779886815	0	1	0	1	0	51.3243779886815	0
1.16	50.9834854842572	0	1	0	1	0	50.9834854842572	0
1.17	50.6497445183817	0	1	0	1	0	50.6497445183817	0
1.18	50.3229845920476	0	1	0	1	0	50.3229845920476	0
1.19	50.0030409373065	0	1	0	1	0	50.0030409373065	0
1.2	49.689754278475	0	1	0	1	0	49.689754278475	0
1.21	49.3829706051815	0	1	0	1	0	49.3829706051815	0
1.22	49.0825409565749	0	1	0	1	0	49.0825409565749	0
1.23	48.7883212160593	0	1	0	1	0	48.7883212160593	0
1.24	48.5001719159614	0	1	0	1	0	48.5001719159614	0
1.25	48.2179580515731	0	1	0	1	0	48.2179580515731	0
1.26	47.9415489040505	0	1	0	1	0	47.9415489040505	0
1.27	47.6708178716783	0	1	0	1	0	47.6708178716783	0
1.28	47.4056423090451	0	1	0	1	0	47.4056423090451	0
1.29	47.1459033736976	0	1	0	1	0	47.1459033736976	0
1.3	46.8914858798737	0	1	0	1	0	46.8914858798737	0
1.31	46.6422781589338	0	1	0	1	0	46.6422781589338	0
1.32	46.3981719261362	0	1	0	1	0	46.3981719261362	0
1.33	46.1590621534234	0	1	0	1	0	46.1590621534234	0
1.34	45.9248469479038	0	1	0	1	0	45.9248469479038	0
1.35	45.6954274357343	0	1	0	1	0	45.6954274357343	0
1.36	45.470707651126	0	1	0	1	0	45.470707651126	0
1.37	45.2505944302111	0	1	0	1	0	45.2505944302111	0
1.38	45.0349973095234	0	1	0	1	0	45.0349973095234	0
1.39	44.8238284288623	0	1	0	1	0	44.8238284288623	0
1.4	44.6170024383183	0	1	0	1	0	44.6170024383183	0
1.41	44.4144364092561	0	1	0	1	0	44.4144364092561	0
1.42	44.2160497490582	0	1	0	1	0	44.2160497490582	0
1.43	44.0217641194463	0	1	0	1	0	44.0217641194463	0
1.44	43.8315033582051	0	1	0	1	0	43.8315033582051	0
1.45	43.645193404146	0	1	0	1	0	43.645193404146	0
1.46	43.4627622251542	0	1	0	1	0	43.4627622251542	0
1.47	43.2841397491722	0	1	0	1	0	43.2841397491722	0
1.48	43.1092577979822	0	1	0	1	0	43.1092577979822	0
1.49	42.9380500236538	0	1	0	1	0	42.9380500236538	0
1.5	42.7704518475351	0	1	0	1	0	42.7704518475351	0
1.51	42.6064004016665	0	1	0	1	0	42.6064004016665	0
1.52	42.4458344725089	0	1	0	1	0	42.4458344725089	0
1.53	42.2886944468768	0	1	0	1	0	42.2886944468768	0
1.54	42.1349222599793	0	1	0	1	0	42.1349222599793	0
1.55	41.9844613454717	0	1	0	1	0	41.9844613454717	0
1.56	41.8372565874282	0	1	0	1	0	41.8372565874282	0
1.57	41.6932542741508	0	1	0	1	0	41.6932542741508	0
1.58	41.5524020537309	0	1	0	1	0	41.5524020537309	0
1.59	41.4146488912894	0	1	0	1	0	41.4146488912894	0
1.6	41.2799450278189	0	1	0	1	0	41.2799450278189	0
1.61	41.1482419405608	0	1	0	1	0	41.1482419405608	0
1.62	41.0194923048492	0	1	0	1	0	41.0194923048492	0
1.63	40.8936499573598	0	1	0	1	0	40.8936499573598	0
1.64	40.770669860703	0	1	0	1	0	40.770669860703	0
1.65	40.6505080693047	0	1	0	1	0	40.6505080693047	0
1.66	40.5331216965203	0	1	0	1	0	40.5331216965203	0
1.67	40.4184688829301	0	1	0	1	0	40.4184688829301	0
1.68	40.3065087657675	0	1	0	1	0	40.3065087657675	0
1.69	40.1972014494318	0	1	0	1	0	40.1972014494318	0
1.7	40.0905079770423	0	1	0	1	0	40.0905079770423	0
1.71	39.9863903029904	0	1	0	1	0	39.9863903029904	0
1.72	39.8848112664492	0	1	0	1	0	39.8848112664492	0
1.73	39.7857345658015	0	1	0	1	0	39.7857345658015	0
1.74	39.6891247339501	0	1	0	1	0	39.6891247339501	0
1.75	39.5949471144744	0	1	0	1	0	39.5949471144744	0
1.76	39.5031678385996	0	1	0	1	0	39.5031678385996	0
1.77	39.4137538029471	0	1	0	1	0	39.4137538029471	0
1.78	39.3266726480341	0	1	0	1	0	39.3266726480341	0
1.79	39.2418927374952	0	1	0	1	0	39.2418927374952	0
1.8	39.1593831379949	0	1	0	1	0	39.1593831379949	0
1.81	39.0791135998077	0	1	0	1	0	39.0791135998077	0
1.82	39.0010545380371	0	1	0	1	0	39.0010545380371	0
1.83	38.9251770144508	0	1	0	1	0	38.9251770144508	0
1.84	38.8514527199088	0	1	0	1	0	38.8514527199088	0
1.85	38.7798539573604	0	1	0	1	0	38.7798539573604	0
1.86	38.7103536253906	0	1	0	1	0	38.7103536253906	0
1.87	38.6429252022936	0	1	0	1	0	38.6429252022936	0
1.88	38.5775427306554	0	1	0	1	0	38.5775427306554	0
1.89	38.5141808024251	0	1	0	1	0	38.5141808024251	0
1.9	38.4528145444582	0	1	0	1	0	38.4528145444582	0
1.91	38.3934196045139	0	1	0	1	0	38.3934196045139	0
1.92	38.3359721376895	0	1	0	1	0	38.3359721376895	0
1.93	38.2804487932773	0	1	0	1	0	38.2804487932773	0
1.94	38.2268267020274	0	1	0	1	0	38.2268267020274	0
1.95	38.1750834638029	0	1	0	1	0	38.1750834638029	0
1.96	38.1251971356124	0	1	0	1	0	38.1251971356124	0
1.97	38.0771462200075	0	1	0	1	0	38.0771462200075	0
1.98	38.0309096538318	0	1	0	1	0	38.0309096538318	0
1.99	37.9864667973087	0	1	0	1	0	37.9864667973087	0
2	37.9437974234573	0	1	0	1	0	37.9437974234573	0
2.01	37.9028817078237	0	1	0	1	0	37.9028817078237	0
2.02	37.8637002185173	0	1	0	1	0	37.8637002185173	0
2.03	37.8262339065421	0	1	0	1	0	37.8262339065421	0
2.04	37.7904640964116	0	1	0	1	0	37.7904640964116	0
2.05	37.7563724770392	0	1	0	1	0	37.7563724770392	0
2.06	37.7239410928934	0	1	0	1	0	37.7239410928934	0
2.07	37.6931523354093	0	1	0	1	0	37.6931523354093	0
2.08	37.6639889346484	0	1	0	1	0	37.6639889346484	0
2.09	37.6364339511973	0	1	0	1	0	37.6364339511973	0
2.1	37.6104707682981	0	1	0	1	0	37.6104707682981	0
2.11	37.5860830842026	0	1	0	1	0	37.5860830842026	0
2.12	37.5632549047426	0	1	0	1	0	37.5632549047426	0
2.13	37.54197053611	0	1	0	1	0	37.54197053611	0
2.14	37.5222145778388	0	1	0	1	0	37.5222145778388	0
2.15	37.5039719159834	0	1	0	1	0	37.5039719159834	0
2.16	37.4872277164861	0	1	0	1	0	37.4872277164861	0
2.17	37.4719674187278	0	1	0	1	0	37.4719674187278	0
2.18	37.4581767292571	0	1	0	1	0	37.4581767292571	0
2.19	37.4458416156899	0	1	0	1	0	37.4458416156899	0
2.2	37.4349483007765	0	1	0	1	0	37.4349483007765	0
2.21	37.4254832566292	0	1	0	1	0	37.4254832566292	0
2.22	37.417433199106	0	1	0	1	0	37.417433199106	0
2.23	37.4107850823453	0	1	0	1	0	37.4107850823453	0
2.24	37.4055260934476	0	1	0	1	0	37.4055260934476	0
2.25	37.4016436472982	0	1	0	1	0	37.4016436472982	0
2.26	37.3991253815276	0	1	0	1	0	37.3991253815276	0
2.27	37.3979591516056	0	1	0	1	0	37.3979591516056	0
2.28	37.398133026064	0	1	0	1	0	37.398133026064	0
2.29	37.3996352818443	0	1	0	1	0	37.3996352818443	0
2.3	37.4024543997674	0	1	0	1	0	37.4024543997674	0
2.31	37.4065790601205	0	1	0	1	0	37.4065790601205	0
2.32	37.4119981383582	0	1	0	1	0	37.4119981383582	0
2.33	37.4187007009146	0	1	0	1	0	37.4187007009146	0
2.34	37.4266760011222	0	1	0	1	0	37.4266760011222	0
2.35	37.4359134752355	0	1	0	1	0	37.4359134752355	0
2.36	37.4464027385556	0	1	0	1	0	37.4464027385556	0
2.37	37.4581335816527	0	1	0	1	0	37.4581335816527	0
2.38	37.4710959666842	0	1	0	1	0	37.4710959666842	0
2.39	37.4852800238047	0	1	0	1	0	37.4852800238047	0
2.4	37.5006760476663	0	1	0	1	0	37.5006760476663	0
2.41	37.5172744940058	0	1	0	1	0	37.5172744940058	0
2.42	37.5350659763162	0	1	0	1	0	37.5350659763162	0
2.43	37.5540412626011	0	1	0	1	0	37.5540412626011	0
2.44	37.5741912722083	0	1	0	1	0	37.5741912722083	0
2.45	37.5955070727409	0	1	0	1	0	37.5955070727409	0
2.46	37.6179798770445	0	1	0	1	0	37.6179798770445	0
2.47	37.6416010402668	0	1	0	1	0	37.6416010402668	0
2.48	37.6663620569884	0	1	0	1	0	37.6663620569884	0
2.49	37.6922545584232	0	1	0	1	0	37.6922545584232	0
2.5	37.7192703096858	0	1	0	1	0	37.7192703096858	0
2.51	37.7474012071239	0	1	0	1	0	37.7474012071239	0
2.52	37.7766392757147	0	1	0	1	0	37.7766392757147	0
2.53	37.8069766665227	0	1	0	1	0	37.8069766665227	0
2.54	37.8384056542176	0	1	0	1	0	37.8384056542176	0
2.55	37.8709186346509	0	1	0	1	0	37.8709186346509	0
2.56	37.9045081224887	0	1	0	1	0	37.9045081224887	0
2.57	37.9391667489006	0	1	0	1	0	37.9391667489006	0
2.58	37.9748872593014	0	1	0	1	0	37.9748872593014	0
2.59	38.011662511146	0	1	0	1	0	38.011662511146	0
2.6	38.0494854717746	0	1	0	1	0	38.0494854717746	0
2.61	38.0883492163076	0	1	0	1	0	38.0883492163076	0
2.62	38.1282469255886	0	1	0	1	0	38.1282469255886	0
2.63	38.1691718841747	0	1	0	1	0	38.1691718841747	0
2.64	38.2111174783724	0	1	0	1	0	38.2111174783724	0
2.65	38.2540771943171	0	1	0	1	0	38.2540771943171	0
2.66	38.2980446160974	0	1	0	1	0	38.2980446160974	0
2.67	38.3430134239201	0	1	0	1	0	38.3430134239201	0
2.68	38.3889773923176	0	1	0	1	0	38.3889773923176	0
2.69	38.4359303883941	0	1	0	1	0	38.4359303883941	0
2.7	38.4838663701117	0	1	0	1	0	38.4838663701117	0
2.71	38.5327793846135	0	1	0	1	0	38.5327793846135	0
2.72	38.5826635665851	0	1	0	1	0	38.5826635665851	0
2.73	38.6335131366504	0	1	0	1	0	38.6335131366504	0
2.74	38.6853223998039	0	1	0	1	0	38.6853223998039	0
2.75	38.7380857438765	0	1	0	1	0	38.7380857438765	0
2.76	38.791797638035	0	1	0	1	0	38.791797638035	0
2.77	38.8464526313137	0	1	0	1	0	38.8464526313137	0
2.78	38.9020453511782	0	1	0	1	0	38.9020453511782	0
2.79	38.9585705021194	0	1	0	1	0	38.9585705021194	0
2.8	39.0160228642786	0	1	0	1	0	39.0160228642786	0
2.81	39.0743972921011	0	1	0	1	0	39.0743972921011	0
2.82	39.1336887130187	0	1	0	1	0	39.1336887130187	0
2.83	39.1938921261603	0	1	0	1	0	39.1938921261603	0
2.84	39.2550026010896	0	1	0	1	0	39.2550026010896	0
2.85	39.3170152765696	0	1	0	1	0	39.3170152765696	0
2.86	39.3799253593523	0	1	0	1	0	39.3799253593523	0
2.87	39.4437281229947	0	1	0	1	0	39.4437281229947	0
2.88	39.508418906699	0	1	0	1	0	39.508418906699	0
2.89	39.5739931141765	0	1	0	1	0	39.5739931141765	0
2.9	39.6404462125356	0	1	0	1	0	39.6404462125356	0
2.91	39.7077737311925	0	1	0	1	0	39.7077737311925	0
2.92	39.7759712608044	0	1	0	1	0	39.7759712608044	0
2.93	39.8450344522243	0	1	0	1	0	39.8450344522243	0
2.94	39.914959015477	0	1	0	1	0	39.914959015477	0
2.95	39.9857407187567	0	1	0	1	0	39.9857407187567	0
2.96	40.0573753874442	0	1	0	1	0	40.0573753874442	0
2.97	40.129858903144	0	1	0	1	0	40.129858903144	0
2.98	40.203187202741	0	1	0	1	0	40.203187202741	0
2.99	40.2773562774764	0	1	0	1	0	40.2773562774764	0
3	40.3523621720414	0	1	0	1	0	40.3523621720414	0
3.01	40.4282009836893	0	1	0	1	0	40.4282009836893	0
3.02	40.5048688613655	0	1	0	1	0	40.5048688613655	0
3.03	40.5823620048547	0	1	0	1	0	40.5823620048547	0
3.04	40.6606766639439	0	1	0	1	0	40.6606766639439	0
3.05	40.7398091376036	0	1	0	1	0	40.7398091376036	0
3.06	40.8197557731837	0	1	0	1	0	40.8197557731837	0
3.07	40.9005129656256	0	1	0	1	0	40.9005129656256	0
3.08	40.9820771566896	0	1	0	1	0	40.9820771566896	0
3.09	41.0644448341974	0	1	0	1	0	41.0644448341974	0
3.1	41.1476125312891	0	1	0	1	0	41.1476125312891	0
3.11	41.2315768256948	0	1	0	1	0	41.2315768256948	0
3.12	41.3163343390195	0	1	0	1	0	41.3163343390195	0
3.13	41.4018817360429	0	1	0	1	0	41.4018817360429	0
3.14	41.4882157240316	0	1	0	1	0	41.4882157240316	0
3.15	41.5753330520644	0	1	0	1	0	41.5753330520644	0
3.16	41.6632305103712	0	1	0	1	0	41.6632305103712	0
3.17	41.7519049296837	0	1	0	1	0	41.7519049296837	0
3.18	41.8413531805986	0	1	0	1	0	41.8413531805986	0
3.19	41.9315721729529	0	1	0	1	0	41.9315721729529	0
3.2	42.0225588552104	0	1	0	1	0	42.0225588552104	0
3.21	42.1143102138604	0	1	0	1	0	42.1143102138604	0
3.22	42.206823272827	0	1	0	1	0	42.206823272827	0
3.23	42.30009509289	0	1	0	1	0	42.30009509289	0
3.24	42.3941227711157	0	1	0	1	0	42.3941227711157	0
3.25	42.4889034402987	0	1	0	1	0	42.4889034402987	0
3.26	42.5844342684142	0	1	0	1	0	42.5844342684142	0
3.27	42.6807124580798	0	1	0	1	0	42.6807124580798	0
3.28	42.7777352460277	0	1	0	1	0	42.7777352460277	0
3.29	42.8754999025858	0	1	0	1	0	42.8754999025858	0
3.3	42.9740037311691	0	1	0	1	0	42.9740037311691	0
3.31	43.0732440677798	0	1	0	1	0	43.0732440677798	0
3.32	43.1732182805162	0	1	0	1	0	43.1732182805162	0
3.33	43.2739237690914	0	1	0	1	0	43.2739237690914	0
3.34	43.3753579643592	0	1	0	1	0	43.3753579643592	0
3.35	43.4775183278503	0	1	0	1	0	43.4775183278503	0
3.36	43.5804023513147	0	1	0	1	0	43.5804023513147	0
3.37	43.6840075562745	0	1	0	1	0	43.6840075562745	0
3.38	43.7883314935824	0	1	0	1	0	43.7883314935824	0
3.39	43.8933717429899	0	1	0	1	0	43.8933717429899	0
3.4	43.9991259127219	0	1	0	1	0	43.9991259127219	0
3.41	44.1055916390593	0	1	0	1	0	44.1055916390593	0
3.42	44.2127665859289	0	1	0	1	0	44.2127665859289	0
3.43	44.3206484445003	0	1	0	1	0	44.3206484445003	0
3.44	44.42923493279	0	1	0	1	0	44.42923493279	0
3.45	44.5385237952722	0	1	0	1	0	44.5385237952722	0
3.46	44.6485128024966	0	1	0	1	0	44.6485128024966	0
3.47	44.7591997507126	0	1	0	1	0	44.7591997507126	0
3.48	44.8705824615001	0	1	0	1	0	44.8705824615001	0
3.49	44.9826587814065	0	1	0	1	0	44.9826587814065	0
3.5	45.0954265815901	0	1	0	1	0	45.0954265815901	0
3.51	45.2088837574697	0	1	0	1	0	45.2088837574697	0
3.52	45.3230282283794	0	1	0	1	0	45.3230282283794	0
3.53	45.4378579372305	0	1	0	1	0	45.4378579372305	0
3.54	45.5533708501784	0	1	0	1	0	45.5533708501784	0
3.55	45.6695649562947	0	1	0	1	0	45.6695649562947	0
3.56	45.786438267246	0	1	0	1	0	45.786438267246	0
3.57	45.9039888169769	0	1	0	1	0	45.9039888169769	0
3.58	46.0222146613993	0	1	0	1	0	46.0222146613993	0
3.59	46.1411138780862	0	1	0	1	0	46.1411138780862	0
3.6	46.2606845659707	0	1	0	1	0	46.2606845659707	0
3.61	46.3809248450507	0	1	0	1	0	46.3809248450507	0
3.62	46.5018328560974	0	1	0	1	0	46.5018328560974	0
3.63	46.6234067603693	0	1	0	1	0	46.6234067603693	0
3.64	46.745644739331	0	1	0	1	0	46.745644739331	0
3.65	46.8685449943763	0	1	0	1	0	46.8685449943763	0
3.66	46.9921057465556	0	1	0	1	0	46.9921057465556	0
3.67	47.1163252363087	0	1	0	1	0	47.1163252363087	0
3.68	47.241201723201	0	1	0	1	0	47.241201723201	0
3.69	47.3667334856643	0	1	0	1	0	47.3667334856643	0
3.7	47.492918820742	0	1	0	1	0	47.492918820742	0
3.71	47.6197560438382	0	1	0	1	0	47.6197560438382	0
3.72	47.747243488471	0	1	0	1	0	47.747243488471	0
3.73	47.8753795060295	0	1	0	1	0	47.8753795060295	0
3.74	48.0041624655351	0	1	0	1	0	48.0041624655351	0
3.75	48.1335907534063	0	1	0	1	0	48.1335907534063	0
3.76	48.2636627732274	0	1	0	1	0	48.2636627732274	0
3.77	48.3943769455205	0	1	0	1	0	48.3943769455205	0
3.78	48.5257317075223	0	1	0	1	0	48.5257317075223	0
3.79	48.6577255129625	0	1	0	1	0	48.6577255129625	0
3.8	48.7903568318477	0	1	0	1	0	48.7903568318477	0
3.81	48.9236241502471	0	1	0	1	0	48.9236241502471	0
3.82	49.057525970083	0	1	0	1	0	49.057525970083	0
3.83	49.1920608089231	0	1	0	1	0	49.1920608089231	0
3.84	49.327227199777	0	1	0	1	0	49.327227199777	0
3.85	49.4630236908963	0	1	0	1	0	49.4630236908963	0
3.86	49.5994488455759	0	1	0	1	0	49.5994488455759	0
3.87	49.736501241961	0	1	0	1	0	49.736501241961	0
3.88	49.8741794728547	0	1	0	1	0	49.8741794728547	0
3.89	50.0124821455302	0	1	0	1	0	50.0124821455302	0
3.9	50.1514078815449	0	1	0	1	0	50.1514078815449	0
3.91	50.2909553165581	0	1	0	1	0	50.2909553165581	0
3.92	50.4311231001508	0	1	0	1	0	50.4311231001508	0
3.93	50.5719098956488	0	1	0	1	0	50.5719098956488	0
3.94	50.7133143799482	0	1	0	1	0	50.7133143799482	0
3.95	50.8553352433436	0	1	0	1	0	50.8553352433436	0
3.96	50.997971189359	0	1	0	1	0	50.997971189359	0
3.97	51.1412209345809	0	1	0	1	0	51.1412209345809	0
3.98	51.2850832084948	0	1	0	1	0	51.2850832084948	0
3.99	51.4295567533228	0	1	0	1	0	51.4295567533228	0
4	51.5746403238651	0	1	0	1	0	51.5746403238651	0
4.01	51.7203326873427	0	1	0	1	0	51.7203326873427	0
4.02	51.8666326232431	0	1	0	1	0	51.8666326232431	0
4.03	52.013538923168	0	1	0	1	0	52.013538923168	0
4.04	52.1610503906835	0	1	0	1	0	52.1610503906835	0
4.05	52.3091658411722	0	1	0	1	0	52.3091658411722	0
4.06	52.4578841016881	0	1	0	1	0	52.4578841016881	0
4.07	52.6072040108127	0	1	0	1	0	52.6072040108127	0
4.08	52.7571244185138	0	1	0	1	0	52.7571244185138	0
4.09	52.907644186007	0	1	0	1	0	52.907644186007	0
4.1	53.0587621856174	0	1	0	1	0	53.0587621856174	0
4.11	53.2104773006453	0	1	0	1	0	53.2104773006453	0
4.12	53.3627884252329	0	1	0	1	0	53.3627884252329	0
4.13	53.5156944642325	0	1	0	1	0	53.5156944642325	0
4.14	53.669194333078	0	1	0	1	0	53.669194333078	0
4.15	53.8232869576565	0	1	0	1	0	53.8232869576565	0
4.16	53.9779712741834	0	1	0	1	0	53.9779712741834	0
4.17	54.1332462290782	0	1	0	1	0	54.1332462290782	0
4.18	54.2891107788425	0	1	0	1	0	54.2891107788425	0
4.19	54.4455638899396	0	1	0	1	0	54.4455638899396	0
4.2	54.6026045386762	0	1	0	1	0	54.6026045386762	0
4.21	54.7602317110852	0	1	0	1	0	54.7602317110852	0
4.22	54.9184444028106	0	1	0	1	0	54.9184444028106	0
4.23	55.0772416189936	0	1	0	1	0	55.0772416189936	0
4.24	55.2366223741614	0	1	0	1	0	55.2366223741614	0
4.25	55.3965856921156	0	1	0	1	0	55.3965856921156	0
4.26	55.5571306058246	0	1	0	1	0	55.5571306058246	0
4.27	55.7182561573151	0	1	0	1	0	55.7182561573151	0
4.28	55.8799613975672	0	1	0	1	0	55.8799613975672	0
4.29	56.0422453864095	0	1	0	1	0	56.0422453864095	0
4.3	56.2051071924165	0	1	0	1	0	56.2051071924165	0
4.31	56.3685458928068	0	1	0	1	0	56.3685458928068	0
4.32	56.5325605733435	0	1	0	1	0	56.5325605733435	0
4.33	56.6971503282352	0	1	0	1	0	56.6971503282352	0
4.34	56.8623142600388	0	1	0	1	0	56.8623142600388	0
4.35	57.0280514795636	0	1	0	1	0	57.0280514795636	0
4.36	57.1943611057766	0	1	0	1	0	57.1943611057766	0
4.37	57.3612422657092	0	1	0	1	0	57.3612422657092	0
4.38	57.5286940943649	0	1	0	1	0	57.5286940943649	0
4.39	57.6967157346291	0	1	0	1	0	57.6967157346291	0
4.4	57.8653063371789	0	1	0	1	0	57.8653063371789	0
4.41	58.0344650603949	0	1	0	1	0	58.0344650603949	0
4.42	58.2041910702745	0	1	0	1	0	58.2041910702745	0
4.43	58.3744835403454	0	1	0	1	0	58.3744835403454	0
4.44	58.545341651581	0	1	0	1	0	58.545341651581	0
4.45	58.7167645923167	0	1	0	1	0	58.7167645923167	0
4.46	58.8887515581674	0	1	0	1	0	58.8887515581674	0
4.47	59.0613017519463	0	1	0	1	0	59.0613017519463	0
4.48	59.2344143835841	0	1	0	1	0	59.2344143835841	0
4.49	59.40808867005	0	1	0	1	0	59.40808867005	0
4.5	59.5823238352736	0	1	0	1	0	59.5823238352736	0
4.51	59.7571191100675	0	1	0	1	0	59.7571191100675	0
4.52	59.9324737320513	0	1	0	1	0	59.9324737320513	0
4.53	60.1083869455764	0	1	0	1	0	60.1083869455764	0
4.54	60.284858001652	0	1	0	1	0	60.284858001652	0
4.55	60.4618861578718	0	1	0	1	0	60.4618861578718	0
4.56	60.6394706783417	0	1	0	1	0	60.6394706783417	0
4.57	60.8176108336088	0	1	0	1	0	60.8176108336088	0
4.58	60.996305900591	0	1	0	1	0	60.996305900591	0
4.59	61.1755551625075	0	1	0	1	0	61.1755551625075	0
4.6	61.3553579088104	0	1	0	1	0	61.3553579088104	0
4.61	61.5357134351171	0	1	0	1	0	61.5357134351171	0
4.62	61.7166210431435	0	1	0	1	0	61.7166210431435	0
4.63	61.8980800406383	0	1	0	1	0	61.8980800406383	0
4.64	62.0800897413178	0	1	0	1	0	62.0800897413178	0
4.65	62.2626494648017	0	1	0	1	0	62.2626494648017	0
4.66	62.44575853655	0	1	0	1	0	62.44575853655	0
4.67	62.6294162878005	0	1	0	1	0	62.6294162878005	0
4.68	62.8136220555066	0	1	0	1	0	62.8136220555066	0
4.69	62.9983751822769	0	1	0	1	0	62.9983751822769	0
4.7	63.1836750163148	0	1	0	1	0	63.1836750163148	0
4.71	63.369520911359	0	1	0	1	0	63.369520911359	0
4.72	63.5559122266251	0	1	0	1	0	63.5559122266251	0
4.73	63.7428483267475	0	1	0	1	0	63.7428483267475	0
4.74	63.9303285817226	0	1	0	1	0	63.9303285817226	0
4.75	64.1183523668517	0	1	0	1	0	64.1183523668517	0
4.76	64.306919062686	0	1	0	1	0	64.306919062686	0
4.77	64.4960280549711	0	1	0	1	0	64.4960280549711	0
4.78	64.6856787345927	0	1	0	1	0	64.6856787345927	0
4.79	64.8758704975233	0	1	0	1	0	64.8758704975233	0
4.8	65.0666027447687	0	1	0	1	0	65.0666027447687	0
4.81	65.2578748823161	0	1	0	1	0	65.2578748823161	0
4.82	65.4496863210823	0	1	0	1	0	65.4496863210823	0
4.83	65.6420364768625	0	1	0	1	0	65.6420364768625	0
4.84	65.8349247702801	0	1	0	1	0	65.8349247702801	0
4.85	66.0283506267369	0	1	0	1	0	66.0283506267369	0
4.86	66.2223134763639	0	1	0	1	0	66.2223134763639	0
4.87	66.4168127539727	0	1	0	1	0	66.4168127539727	0
4.88	66.6118478990076	0	1	0	1	0	66.6118478990076	0
4.89	66.8074183554982	0	1	0	1	0	66.8074183554982	0
4.9	67.0035235720127	0	1	0	1	0	67.0035235720127	0
4.91	67.2001630016116	0	1	0	1	0	67.2001630016116	0
4.92	67.397336101802	0	1	0	1	0	67.397336101802	0
4.93	67.5950423344927	0	1	0	1	0	67.5950423344927	0
