# GHZ S RI R 50
1	53.3900978910575	0	1	0	1	0	53.3900978910575	0
1.01	52.9538190451872	0	1	0	1	0	52.9538190451872	0
1.02	52.5273849480811	0	1	0	1	0	52.5273849480811	0
1.03	52.1105215103233	0	1	0	1	0	52.1105215103233	0
1.04	51.7029651843986	0	1	0	1	0	51.7029651843986	0
1.05	51.3044624626971	0	1	0	1	0	51.3044624626971	0
1.06	50.9147694039336	0	1	0	1	0	50.9147694039336	0
1.07	50.5336511861237	0	1	0	1	0	50.5336511861237	0
1.08	50.1608816843931	0	1	0	1	0	50.1608816843931	0
1.09	49.7962430720283	0	1	0	1	0	49.7962430720283	0
1.1	49.4395254432872	0	1	0	1	0	49.4395254432872	0
1.11	49.0905264565983	0	1	0	1	0	49.0905264565983	0
1.12	48.7490509968752	0	1	0	1	0	48.7490509968752	0
1.13	48.41491085576	0	1	0	1	0	48.41491085576	0
1.14	48.0879244286967	0	1	0	1	0	48.0879244286967	0
1.15	47.7679164278099	0	1	0	1	0	47.7679164278099	0
1.16	47.4547176096332	0	1	0	1	0	47.4547176096332	0
1.17	47.1481645168021	0	1	0	1	0	47.1481645168021	0
1.18	46.8480992328794	0	1	0	1	0	46.8480992328794	0
1.19	46.5543691495434	0	1	0	1	0	46.5543691495434	0
1.2	46.2668267454168	0	1	0	1	0	46.2668267454168	0
1.21	45.9853293758617	0	1	0	1	0	45.9853293758617	0
1.22	45.7097390731137	0	1	0	1	0	45.7097390731137	0
1.23	45.439922356165	0	1	0	1	0	45.439922356165	0
1.24	45.1757500498467	0	1	0	1	0	45.1757500498467	0
1.25	44.9170971125954	0	1	0	1	0	44.9170971125954	0
1.26	44.663842472421	0	1	0	1	0	44.663842472421	0
1.27	44.4158688706245	0	1	0	1	0	44.4158688706245	0
1.28	44.1730627128412	0	1	0	1	0	44.1730627128412	0
1.29	43.9353139270124	0	1	0	1	0	43.9353139270124	0
1.3	43.7025158279119	0	1	0	1	0	43.7025158279119	0
1.31	43.4745649878776	0	1	0	1	0	43.4745649878776	0
1.32	43.2513611134191	0	1	0	1	0	43.2513611134191	0
1.33	43.0328069273915	0	1	0	1	0	43.0328069273915	0
1.34	42.8188080564453	0	1	0	1	0	42.8188080564453	0
1.35	42.6092729234783	0	1	0	1	0	42.6092729234783	0
1.36	42.4041126448326	0	1	0	1	0	42.4041126448326	0
1.37	42.2032409319936	0	1	0	1	0	42.2032409319936	0
1.38	42.0065739975629	0	1	0	1	0	42.0065739975629	0
1.39	41.8140304652905	0	1	0	1	0	41.8140304652905	0
1.4	41.625531283962	0	1	0	1	0	41.625531283962	0
1.41	41.4409996449505	0	1	0	1	0	41.4409996449505	0
1.42	41.2603609032527	0	1	0	1	0	41.2603609032527	0
1.43	41.0835425018371	0	1	0	1	0	41.0835425018371	0
1.44	40.9104738991455	0	1	0	1	0	40.9104738991455	0
1.45	40.7410864995936	0	1	0	1	0	40.7410864995936	0
1.46	40.5753135869283	0	1	0	1	0	40.5753135869283	0
1.47	40.4130902603047	0	1	0	1	0	40.4130902603047	0
1.48	40.2543533729548	0	1	0	1	0	40.2543533729548	0
1.49	40.0990414733257	0	1	0	1	0	40.0990414733257	0
1.5	39.9470947485729	0	1	0	1	0	39.9470947485729	0
1.51	39.7984549702977	0	1	0	1	0	39.7984549702977	0
1.52	39.653065442428	0	1	0	1	0	39.653065442428	0
1.53	39.5108709511418	0	1	0	1	0	39.5108709511418	0
1.54	39.3718177167425	0	1	0	1	0	39.3718177167425	0
1.55	39.2358533473964	0	1	0	1	0	39.2358533473964	0
1.56	39.1029267946504	0	1	0	1	0	39.1029267946504	0
1.57	38.9729883106487	0	1	0	1	0	38.9729883106487	0
1.58	38.8459894069751	0	1	0	1	0	38.8459894069751	0
1.59	38.7218828150475	0	1	0	1	0	38.7218828150475	0
1.6	38.6006224479988	0	1	0	1	0	38.6006224479988	0
1.61	38.4821633639767	0	1	0	1	0	38.4821633639767	0
1.62	38.3664617308047	0	1	0	1	0	38.3664617308047	0
1.63	38.2534747919422	0	1	0	1	0	38.2534747919422	0
1.64	38.1431608336913	0	1	0	1	0	38.1431608336913	0
1.65	38.0354791535951	0	1	0	1	0	38.0354791535951	0
1.66	37.930390029979	0	1	0	1	0	37.930390029979	0
1.67	37.8278546925855	0	1	0	1	0	37.8278546925855	0
1.68	37.7278352942586	0	1	0	1	0	37.7278352942586	0
1.69	37.6302948836329	0	1	0	1	0	37.6302948836329	0
1.7	37.5351973787871	0	1	0	1	0	37.5351973787871	0
1.71	37.4425075418212	0	1	0	1	0	37.4425075418212	0
1.72	37.3521909543214	0	1	0	1	0	37.3521909543214	0
1.73	37.2642139936753	0	1	0	1	0	37.2642139936753	0
1.74	37.1785438102042	0	1	0	1	0	37.1785438102042	0
1.75	37.095148305079	0	1	0	1	0	37.095148305079	0
1.76	37.0139961089898	0	1	0	1	0	37.0139961089898	0
1.77	36.9350565615372	0	1	0	1	0	36.9350565615372	0
1.78	36.85829969132	0	1	0	1	0	36.85829969132	0
1.79	36.7836961966886	0	1	0	1	0	36.7836961966886	0
1.8	36.7112174271414	0	1	0	1	0	36.7112174271414	0
1.81	36.640835365337	0	1	0	1	0	36.640835365337	0
1.82	36.5725226096998	0	1	0	1	0	36.5725226096998	0
1.83	36.5062523575956	0	1	0	1	0	36.5062523575956	0
1.84	36.4419983890562	0	1	0	1	0	36.4419983890562	0
1.85	36.3797350510317	0	1	0	1	0	36.3797350510317	0
1.86	36.3194372421507	0	1	0	1	0	36.3194372421507	0
1.87	36.2610803979695	0	1	0	1	0	36.2610803979695	0
1.88	36.2046404766921	0	1	0	1	0	36.2046404766921	0
1.89	36.1500939453436	0	1	0	1	0	36.1500939453436	0
1.9	36.0974177663803	0	1	0	1	0	36.0974177663803	0
1.91	36.0465893847198	0	1	0	1	0	36.0465893847198	0
1.92	35.9975867151775	0	1	0	1	0	35.9975867151775	0
1.93	35.9503881302929	0	1	0	1	0	35.9503881302929	0
1.94	35.9049724485324	0	1	0	1	0	35.9049724485324	0
1.95	35.8613189228554	0	1	0	1	0	35.8613189228554	0
1.96	35.8194072296302	0	1	0	1	0	35.8194072296302	0
1.97	35.7792174578879	0	1	0	1	0	35.7792174578879	0
1.98	35.7407300989012	0	1	0	1	0	35.7407300989012	0
1.99	35.7039260360781	0	1	0	1	0	35.7039260360781	0
2	35.6687865351585	0	1	0	1	0	35.6687865351585	0
2.01	35.6352932347032	0	1	0	1	0	35.6352932347032	0
2.02	35.6034281368662	0	1	0	1	0	35.6034281368662	0
2.03	35.5731735984384	0	1	0	1	0	35.5731735984384	0
2.04	35.5445123221564	0	1	0	1	0	35.5445123221564	0
2.05	35.5174273482641	0	1	0	1	0	35.5174273482641	0
2.06	35.4919020463212	0	1	0	1	0	35.4919020463212	0
2.07	35.4679201072485	0	1	0	1	0	35.4679201072485	0
2.08	35.445465535603	0	1	0	1	0	35.445465535603	0
2.09	35.4245226420744	0	1	0	1	0	35.4245226420744	0
2.1	35.4050760361967	0	1	0	1	0	35.4050760361967	0
2.11	35.3871106192661	0	1	0	1	0	35.3871106192661	0
2.12	35.37061157746	0	1	0	1	0	35.37061157746	0
2.13	35.3555643751497	0	1	0	1	0	35.3555643751497	0
2.14	35.3419547484004	0	1	0	1	0	35.3419547484004	0
2.15	35.329768698653	0	1	0	1	0	35.329768698653	0
2.16	35.3189924865809	0	1	0	1	0	35.3189924865809	0
2.17	35.309612626117	0	1	0	1	0	35.309612626117	0
2.18	35.3016158786448	0	1	0	1	0	35.3016158786448	0
2.19	35.2949892473493	0	1	0	1	0	35.2949892473493	0
2.2	35.2897199717209	0	1	0	1	0	35.2897199717209	0
2.21	35.2857955222098	0	1	0	1	0	35.2857955222098	0
2.22	35.2832035950236	0	1	0	1	0	35.2832035950236	0
2.23	35.2819321070658	0	1	0	1	0	35.2819321070658	0
2.24	35.2819691910096	0	1	0	1	0	35.2819691910096	0
2.25	35.2833031905026	0	1	0	1	0	35.2833031905026	0
2.26	35.2859226554999	0	1	0	1	0	35.2859226554999	0
2.27	35.2898163377192	0	1	0	1	0	35.2898163377192	0
2.28	35.2949731862167	0	1	0	1	0	35.2949731862167	0
2.29	35.301382343078	0	1	0	1	0	35.301382343078	0
2.3	35.309033139222	0	1	0	1	0	35.309033139222	0
2.31	35.3179150903139	0	1	0	1	0	35.3179150903139	0
2.32	35.328017892783	0	1	0	1	0	35.328017892783	0
2.33	35.3393314199439	0	1	0	1	0	35.3393314199439	0
2.34	35.351845718217	0	1	0	1	0	35.351845718217	0
2.35	35.3655510034456	0	1	0	1	0	35.3655510034456	0
2.36	35.3804376573058	0	1	0	1	0	35.3804376573058	0
2.37	35.3964962238083	0	1	0	1	0	35.3964962238083	0
2.38	35.4137174058883	0	1	0	1	0	35.4137174058883	0
2.39	35.4320920620801	0	1	0	1	0	35.4320920620801	0
2.4	35.451611203276	0	1	0	1	0	35.451611203276	0
2.41	35.4722659895648	0	1	0	1	0	35.4722659895648	0
2.42	35.4940477271498	0	1	0	1	0	35.4940477271498	0
2.43	35.516947865342	0	1	0	1	0	35.516947865342	0
2.44	35.5409579936276	0	1	0	1	0	35.5409579936276	0
2.45	35.5660698388073	0	1	0	1	0	35.5660698388073	0
2.46	35.5922752622054	0	1	0	1	0	35.5922752622054	0
2.47	35.6195662569467	0	1	0	1	0	35.6195662569467	0
2.48	35.6479349452989	0	1	0	1	0	35.6479349452989	0
2.49	35.6773735760799	0	1	0	1	0	35.6773735760799	0
2.5	35.7078745221263	0	1	0	1	0	35.7078745221263	0
2.51	35.7394302778233	0	1	0	1	0	35.7394302778233	0
2.52	35.7720334566926	0	1	0	1	0	35.7720334566926	0
2.53	35.8056767890385	0	1	0	1	0	35.8056767890385	0
2.54	35.8403531196483	0	1	0	1	0	35.8403531196483	0
2.55	35.8760554055483	0	1	0	1	0	35.8760554055483	0
2.56	35.912776713811	0	1	0	1	0	35.912776713811	0
2.57	35.9505102194146	0	1	0	1	0	35.9505102194146	0
2.58	35.9892492031514	0	1	0	1	0	35.9892492031514	0
2.59	36.0289870495853	0	1	0	1	0	36.0289870495853	0
2.6	36.0697172450563	0	1	0	1	0	36.0697172450563	0
2.61	36.1114333757304	0	1	0	1	0	36.1114333757304	0
2.62	36.1541291256948	0	1	0	1	0	36.1541291256948	0
2.63	36.1977982750963	0	1	0	1	0	36.1977982750963	0
2.64	36.2424346983216	0	1	0	1	0	36.2424346983216	0
2.65	36.28803236222	0	1	0	1	0	36.28803236222	0
2.66	36.3345853243643	0	1	0	1	0	36.3345853243643	0
2.67	36.3820877313529	0	1	0	1	0	36.3820877313529	0
2.68	36.4305338171481	0	1	0	1	0	36.4305338171481	0
2.69	36.4799179014527	0	1	0	1	0	36.4799179014527	0
2.7	36.5302343881219	0	1	0	1	0	36.5302343881219	0
2.71	36.5814777636111	0	1	0	1	0	36.5814777636111	0
2.72	36.6336425954569	0	1	0	1	0	36.6336425954569	0
2.73	36.6867235307926	0	1	0	1	0	36.6867235307926	0
2.74	36.7407152948955	0	1	0	1	0	36.7407152948955	0
2.75	36.7956126897663	0	1	0	1	0	36.7956126897663	0
2.76	36.8514105927388	0	1	0	1	0	36.8514105927388	0
2.77	36.9081039551204	0	1	0	1	0	36.9081039551204	0
2.78	36.9656878008617	0	1	0	1	0	36.9656878008617	0
2.79	37.0241572252542	0	1	0	1	0	37.0241572252542	0
2.8	37.0835073936569	0	1	0	1	0	37.0835073936569	0
2.81	37.1437335402492	0	1	0	1	0	37.1437335402492	0
2.82	37.204830966811	0	1	0	1	0	37.204830966811	0
2.83	37.2667950415279	0	1	0	1	0	37.2667950415279	0
2.84	37.3296211978224	0	1	0	1	0	37.3296211978224	0
2.85	37.3933049332093	0	1	0	1	0	37.3933049332093	0
2.86	37.4578418081754	0	1	0	1	0	37.4578418081754	0
2.87	37.5232274450818	0	1	0	1	0	37.5232274450818	0
2.88	37.5894575270907	0	1	0	1	0	37.5894575270907	0
2.89	37.6565277971126	0	1	0	1	0	37.6565277971126	0
2.9	37.7244340567764	0	1	0	1	0	37.7244340567764	0
2.91	37.7931721654208	0	1	0	1	0	37.7931721654208	0
2.92	37.8627380391058	0	1	0	1	0	37.8627380391058	0
2.93	37.9331276496447	0	1	0	1	0	37.9331276496447	0
2.94	38.0043370236564	0	1	0	1	0	38.0043370236564	0
2.95	38.0763622416358	0	1	0	1	0	38.0763622416358	0
2.96	38.1491994370443	0	1	0	1	0	38.1491994370443	0
2.97	38.2228447954178	0	1	0	1	0	38.2228447954178	0
2.98	38.2972945534931	0	1	0	1	0	38.2972945534931	0
2.99	38.3725449983516	0	1	0	1	0	38.3725449983516	0
3	38.4485924665804	0	1	0	1	0	38.4485924665804	0
3.01	38.5254333434497	0	1	0	1	0	38.5254333434497	0
3.02	38.603064062107	0	1	0	1	0	38.603064062107	0
3.03	38.6814811027869	0	1	0	1	0	38.6814811027869	0
3.04	38.7606809920367	0	1	0	1	0	38.7606809920367	0
3.05	38.8406603019573	0	1	0	1	0	38.8406603019573	0
3.06	38.9214156494586	0	1	0	1	0	38.9214156494586	0
3.07	39.00294369553	0	1	0	1	0	39.00294369553	0
3.08	39.0852411445244	0	1	0	1	0	39.0852411445244	0
3.09	39.1683047434571	0	1	0	1	0	39.1683047434571	0
3.1	39.2521312813172	0	1	0	1	0	39.2521312813172	0
3.11	39.3367175883931	0	1	0	1	0	39.3367175883931	0
3.12	39.4220605356105	0	1	0	1	0	39.4220605356105	0
3.13	39.5081570338831	0	1	0	1	0	39.5081570338831	0
3.14	39.5950040334763	0	1	0	1	0	39.5950040334763	0
3.15	39.6825985233822	0	1	0	1	0	39.6825985233822	0
3.16	39.7709375307067	0	1	0	1	0	39.7709375307067	0
3.17	39.8600181200688	0	1	0	1	0	39.8600181200688	0
3.18	39.9498373930105	0	1	0	1	0	39.9498373930105	0
3.19	40.040392487418	0	1	0	1	0	40.040392487418	0
3.2	40.1316805769541	0	1	0	1	0	40.1316805769541	0
3.21	40.2236988705005	0	1	0	1	0	40.2236988705005	0
3.22	40.3164446116115	0	1	0	1	0	40.3164446116115	0
3.23	40.4099150779766	0	1	0	1	0	40.4099150779766	0
3.24	40.5041075808943	0	1	0	1	0	40.5041075808943	0
3.25	40.5990194647548	0	1	0	1	0	40.5990194647548	0
3.26	40.6946481065323	0	1	0	1	0	40.6946481065323	0
3.27	40.7909909152872	0	1	0	1	0	40.7909909152872	0
3.28	40.8880453316766	0	1	0	1	0	40.8880453316766	0
3.29	40.9858088274741	0	1	0	1	0	40.9858088274741	0
3.3	41.0842789050986	0	1	0	1	0	41.0842789050986	0
3.31	41.1834530971513	0	1	0	1	0	41.1834530971513	0
3.32	41.2833289659611	0	1	0	1	0	41.2833289659611	0
3.33	41.383904103138	0	1	0	1	0	41.383904103138	0
3.34	41.4851761291353	0	1	0	1	0	41.4851761291353	0
3.35	41.5871426928186	0	1	0	1	0	41.5871426928186	0
3.36	41.6898014710432	0	1	0	1	0	41.6898014710432	0
3.37	41.793150168239	0	1	0	1	0	41.793150168239	0
3.38	41.8971865160023	0	1	0	1	0	41.8971865160023	0
3.39	42.001908272695	0	1	0	1	0	42.001908272695	0
3.4	42.1073132230516	0	1	0	1	0	42.1073132230516	0
3.41	42.2133991777919	0	1	0	1	0	42.2133991777919	0
3.42	42.3201639732413	0	1	0	1	0	42.3201639732413	0
3.43	42.4276054709578	0	1	0	1	0	42.4276054709578	0
3.44	42.5357215573645	0	1	0	1	0	42.5357215573645	0
3.45	42.6445101433904	0	1	0	1	0	42.6445101433904	0
3.46	42.753969164115	0	1	0	1	0	42.753969164115	0
3.47	42.8640965784214	0	1	0	1	0	42.8640965784214	0
3.48	42.9748903686534	0	1	0	1	0	42.9748903686534	0
3.49	43.0863485402802	0	1	0	1	0	43.0863485402802	0
3.5	43.1984691215652	0	1	0	1	0	43.1984691215652	0
3.51	43.3112501632422	0	1	0	1	0	43.3112501632422	0
3.52	43.4246897381954	0	1	0	1	0	43.4246897381954	0
3.53	43.5387859411462	0	1	0	1	0	43.5387859411462	0
3.54	43.6535368883444	0	1	0	1	0	43.6535368883444	0
3.55	43.7689407172653	0	1	0	1	0	43.7689407172653	0
3.56	43.8849955863114	0	1	0	1	0	43.8849955863114	0
3.57	44.0016996745194	0	1	0	1	0	44.0016996745194	0
3.58	44.1190511812718	0	1	0	1	0	44.1190511812718	0
3.59	44.2370483260139	0	1	0	1	0	44.2370483260139	0
3.6	44.3556893479747	0	1	0	1	0	44.3556893479747	0
3.61	44.4749725058934	0	1	0	1	0	44.4749725058934	0
3.62	44.5948960777495	0	1	0	1	0	44.5948960777495	0
3.63	44.7154583604978	0	1	0	1	0	44.7154583604978	0
3.64	44.8366576698082	0	1	0	1	0	44.8366576698082	0
3.65	44.9584923398088	0	1	0	1	0	44.9584923398088	0
3.66	45.0809607228339	0	1	0	1	0	45.0809607228339	0
3.67	45.2040611891762	0	1	0	1	0	45.2040611891762	0
3.68	45.3277921268424	0	1	0	1	0	45.3277921268424	0
3.69	45.4521519413136	0	1	0	1	0	45.4521519413136	0
3.7	45.5771390553089	0	1	0	1	0	45.5771390553089	0
3.71	45.7027519085528	0	1	0	1	0	45.7027519085528	0
3.72	45.8289889575474	0	1	0	1	0	45.8289889575474	0
3.73	45.9558486753469	0	1	0	1	0	45.9558486753469	0
3.74	46.0833295513363	0	1	0	1	0	46.0833295513363	0
3.75	46.2114300910141	0	1	0	1	0	46.2114300910141	0
3.76	46.3401488157776	0	1	0	1	0	46.3401488157776	0
3.77	46.4694842627121	0	1	0	1	0	46.4694842627121	0
3.78	46.5994349843837	0	1	0	1	0	46.5994349843837	0
3.79	46.7299995486347	0	1	0	1	0	46.7299995486347	0
3.8	46.8611765383828	0	1	0	1	0	46.8611765383828	0
3.81	46.9929645514231	0	1	0	1	0	46.9929645514231	0
3.82	47.1253622002337	0	1	0	1	0	47.1253622002337	0
3.83	47.2583681117836	0	1	0	1	0	47.2583681117836	0
3.84	47.3919809273442	0	1	0	1	0	47.3919809273442	0
3.85	47.5261993023037	0	1	0	1	0	47.5261993023037	0
3.86	47.661021905984	0	1	0	1	0	47.661021905984	0
3.87	47.7964474214608	0	1	0	1	0	47.7964474214608	0
3.88	47.9324745453862	0	1	0	1	0	47.9324745453862	0
3.89	48.0691019878147	0	1	0	1	0	48.0691019878147	0
3.9	48.2063284720306	0	1	0	1	0	48.2063284720306	0
3.91	48.3441527343795	0	1	0	1	0	48.3441527343795	0
3.92	48.4825735241014	0	1	0	1	0	48.4825735241014	0
3.93	48.6215896031665	0	1	0	1	0	48.6215896031665	0
3.94	48.761199746114	0	1	0	1	0	48.761199746114	0
3.95	48.9014027398928	0	1	0	1	0	48.9014027398928	0
3.96	49.0421973837048	0	1	0	1	0	49.0421973837048	0
3.97	49.1835824888507	0	1	0	1	0	49.1835824888507	0
3.98	49.3255568785779	0	1	0	1	0	49.3255568785779	0
3.99	49.4681193879307	0	1	0	1	0	49.4681193879307	0
4	49.6112688636031	0	1	0	1	0	49.6112688636031	0
4.01	49.7550041637934	0	1	0	1	0	49.7550041637934	0
4.02	49.899324158061	0	1	0	1	0	49.899324158061	0
4.03	50.0442277271856	0	1	0	1	0	50.0442277271856	0
4.04	50.1897137630283	0	1	0	1	0	50.1897137630283	0
4.05	50.3357811683949	0	1	0	1	0	50.3357811683949	0
4.06	50.4824288569008	0	1	0	1	0	50.4824288569008	0
4.07	50.6296557528384	0	1	0	1	0	50.6296557528384	0
4.08	50.7774607910465	0	1	0	1	0	50.7774607910465	0
4.09	50.9258429167809	0	1	0	1	0	50.9258429167809	0
4.1	51.0748010855875	0	1	0	1	0	51.0748010855875	0
4.11	51.2243342631776	0	1	0	1	0	51.2243342631776	0
4.12	51.3744414253037	0	1	0	1	0	51.3744414253037	0
4.13	51.5251215576386	0	1	0	1	0	51.5251215576386	0
4.14	51.6763736556554	0	1	0	1	0	51.6763736556554	0
4.15	51.8281967245092	0	1	0	1	0	51.8281967245092	0
4.16	51.9805897789211	0	1	0	1	0	51.9805897789211	0
4.17	52.1335518430631	0	1	0	1	0	52.1335518430631	0
4.18	52.2870819504456	0	1	0	1	0	52.2870819504456	0
4.19	52.4411791438054	0	1	0	1	0	52.4411791438054	0
4.2	52.5958424749961	0	1	0	1	0	52.5958424749961	0
4.21	52.7510710048798	0	1	0	1	0	52.7510710048798	0
4.22	52.9068638032205	0	1	0	1	0	52.9068638032205	0
4.23	53.0632199485787	0	1	0	1	0	53.0632199485787	0
4.24	53.2201385282076	0	1	0	1	0	53.2201385282076	0
4.25	53.3776186379512	0	1	0	1	0	53.3776186379512	0
4.26	53.535659382143	0	1	0	1	0	53.535659382143	0
4.27	53.694259873507	0	1	0	1	0	53.694259873507	0
4.28	53.8534192330594	0	1	0	1	0	53.8534192330594	0
4.29	54.0131365900121	0	1	0	1	0	54.0131365900121	0
4.3	54.1734110816772	0	1	0	1	0	54.1734110816772	0
4.31	54.3342418533734	0	1	0	1	0	54.3342418533734	0
4.32	54.495628058333	0	1	0	1	0	54.495628058333	0
4.33	54.6575688576107	0	1	0	1	0	54.6575688576107	0
4.34	54.8200634199933	0	1	0	1	0	54.8200634199933	0
4.35	54.9831109219111	0	1	0	1	0	54.9831109219111	0
4.36	55.1467105473499	0	1	0	1	0	55.1467105473499	0
4.37	55.310861487765	0	1	0	1	0	55.310861487765	0
4.38	55.4755629419953	0	1	0	1	0	55.4755629419953	0
4.39	55.6408141161799	0	1	0	1	0	55.6408141161799	0
4.4	55.8066142236747	0	1	0	1	0	55.8066142236747	0
4.41	55.9729624849706	0	1	0	1	0	55.9729624849706	0
4.42	56.1398581276131	0	1	0	1	0	56.1398581276131	0
4.43	56.3073003861223	0	1	0	1	0	56.3073003861223	0
4.44	56.4752885019144	0	1	0	1	0	56.4752885019144	0
4.45	56.6438217232247	0	1	0	1	0	56.6438217232247	0
4.46	56.8128993050304	0	1	0	1	0	56.8128993050304	0
4.47	56.9825205089758	0	1	0	1	0	56.9825205089758	0
4.48	57.1526846032976	0	1	0	1	0	57.1526846032976	0
4.49	57.3233908627514	0	1	0	1	0	57.3233908627514	0
4.5	57.4946385685398	0	1	0	1	0	57.4946385685398	0
4.51	57.6664270082401	0	1	0	1	0	57.6664270082401	0
4.52	57.8387554757345	0	1	0	1	0	57.8387554757345	0
4.53	58.0116232711403	0	1	0	1	0	58.0116232711403	0
4.54	58.1850297007408	0	1	0	1	0	58.1850297007408	0
4.55	58.3589740769182	0	1	0	1	0	58.3589740769182	0
4.56	58.5334557180865	0	1	0	1	0	58.5334557180865	0
4.57	58.7084739486251	0	1	0	1	0	58.7084739486251	0
4.58	58.8840280988145	0	1	0	1	0	58.8840280988145	0
4.59	59.0601175047711	0	1	0	1	0	59.0601175047711	0
4.6	59.2367415083844	0	1	0	1	0	59.2367415083844	0
4.61	59.4138994572541	0	1	0	1	0	59.4138994572541	0
4.62	59.5915907046286	0	1	0	1	0	59.5915907046286	0
4.63	59.7698146093435	0	1	0	1	0	59.7698146093435	0
4.64	59.9485705357618	0	1	0	1	0	59.9485705357618	0
4.65	60.1278578537144	0	1	0	1	0	60.1278578537144	0
4.66	60.3076759384413	0	1	0	1	0	60.3076759384413	0
4.67	60.4880241705339	0	1	0	1	0	60.4880241705339	0
4.68	60.6689019358775	0	1	0	1	0	60.6689019358775	0
4.69	60.8503086255951	0	1	0	1	0	60.8503086255951	0
4.7	61.0322436359917	0	1	0	1	0	61.0322436359917	0
4.71	61.2147063684992	0	1	0	1	0	61.2147063684992	0
4.72	61.3976962296222	0	1	0	1	0	61.3976962296222	0
4.73	61.581212630884	0	1	0	1	0	61.581212630884	0
4.74	61.7652549887743	0	1	0	1	0	61.7652549887743	0
4.75	61.9498227246963	0	1	0	1	0	61.9498227246963	0
4.76	62.1349152649155	0	1	0	1	0	62.1349152649155	0
4.77	62.3205320405086	0	1	0	1	0	62.3205320405086	0
4.78	62.5066724873131	0	1	0	1	0	62.5066724873131	0
4.79	62.6933360458777	0	1	0	1	0	62.6933360458777	0
4.8	62.8805221614131	0	1	0	1	0	62.8805221614131	0
4.81	63.0682302837438	0	1	0	1	0	63.0682302837438	0
4.82	63.25645986726	0	1	0	1	0	63.25645986726	0
4.83	63.4452103708704	0	1	0	1	0	63.4452103708704	0
4.84	63.6344812579555	0	1	0	1	0	63.6344812579555	0
4.85	63.8242719963215	0	1	0	1	0	63.8242719963215	0
4.86	64.0145820581549	0	1	0	1	0	64.0145820581549	0
4.87	64.2054109199775	0	1	0	1	0	64.2054109199775	0
4.88	64.3967580626015	0	1	0	1	0	64.3967580626015	0
4.89	64.5886229710866	0	1	0	1	0	64.5886229710866	0
4.9	64.7810051346956	0	1	0	1	0	64.7810051346956	0
4.91	64.9739040468524	0	1	0	1	0	64.9739040468524	0
4.92	65.1673192050993	0	1	0	1	0	65.1673192050993	0
4.93	65.3612501110554	0	1	0	1	0	65.3612501110554	0
