# GHZ S RI R 50
1	55.8899124979296	0	1	0	1	0	55.8899124979296	0
1.01	55.4386638615966	0	1	0	1	0	55.4386638615966	0
1.02	54.9973088034631	0	1	0	1	0	54.9973088034631	0
1.03	54.5655694126871	0	1	0	1	0	54.5655694126871	0
1.04	54.1431784673049	0	1	0	1	0	54.1431784673049	0
1.05	53.7298789252374	0	1	0	1	0	53.7298789252374	0
1.06	53.3254234441062	0	1	0	1	0	53.3254234441062	0
1.07	52.9295739279773	0	1	0	1	0	52.9295739279773	0
1.08	52.5421010992846	0	1	0	1	0	52.5421010992846	0
1.09	52.1627840943174	0	1	0	1	0	52.1627840943174	0
1.1	51.7914100807729	0	1	0	1	0	51.7914100807729	0
1.11	51.4277738959806	0	1	0	1	0	51.4277738959806	0
1.12	51.0716777045086	0	1	0	1	0	51.0716777045086	0
1.13	50.7229306739488	0	1	0	1	0	50.7229306739488	0
1.14	50.3813486677671	0	1	0	1	0	50.3813486677671	0
1.15	50.0467539541785	0	1	0	1	0	50.0467539541785	0
1.16	49.7189749300804	0	1	0	1	0	49.7189749300804	0
1.17	49.3978458591426	0	1	0	1	0	49.3978458591426	0
1.18	49.0832066232159	0	1	0	1	0	49.0832066232159	0
1.19	48.7749024862735	0	1	0	1	0	48.7749024862735	0
1.2	48.4727838701563	0	1	0	1	0	48.4727838701563	0
1.21	48.1767061414378	0	1	0	1	0	48.1767061414378	0
1.22	47.8865294087709	0	1	0	1	0	47.8865294087709	0
1.23	47.6021183301206	0	1	0	1	0	47.6021183301206	0
1.24	47.3233419293242	0	1	0	1	0	47.3233419293242	0
1.25	47.050073421456	0	1	0	1	0	47.050073421456	0
1.26	46.7821900465086	0	1	0	1	0	46.7821900465086	0
1.27	46.5195729109317	0	1	0	1	0	46.5195729109317	0
1.28	46.2621068365983	0	1	0	1	0	46.2621068365983	0
1.29	46.0096802167961	0	1	0	1	0	46.0096802167961	0
1.3	45.7621848788657	0	1	0	1	0	45.7621848788657	0
1.31	45.5195159531295	0	1	0	1	0	45.5195159531295	0
1.32	45.281571747779	0	1	0	1	0	45.281571747779	0
1.33	45.048253629406	0	1	0	1	0	45.048253629406	0
1.34	44.819465908883	0	1	0	1	0	44.819465908883	0
1.35	44.595115732316	0	1	0	1	0	44.595115732316	0
1.36	44.3751129768079	0	1	0	1	0	44.3751129768079	0
1.37	44.1593701507871	0	1	0	1	0	44.1593701507871	0
1.38	43.9478022986694	0	1	0	1	0	43.9478022986694	0
1.39	43.7403269096357	0	1	0	1	0	43.7403269096357	0
1.4	43.5368638303191	0	1	0	1	0	43.5368638303191	0
1.41	43.3373351812067	0	1	0	1	0	43.3373351812067	0
1.42	43.1416652765749	0	1	0	1	0	43.1416652765749	0
1.43	42.9497805477833	0	1	0	1	0	42.9497805477833	0
1.44	42.7616094697648	0	1	0	1	0	42.7616094697648	0
1.45	42.5770824905576	0	1	0	1	0	42.5770824905576	0
1.46	42.3961319637331	0	1	0	1	0	42.3961319637331	0
1.47	42.2186920835818	0	1	0	1	0	42.2186920835818	0
1.48	42.044698822927	0	1	0	1	0	42.044698822927	0
1.49	41.8740898734423	0	1	0	1	0	41.8740898734423	0
1.5	41.7068045883567	0	1	0	1	0	41.7068045883567	0
1.51	41.5427839274361	0	1	0	1	0	41.5427839274361	0
1.52	41.3819704041369	0	1	0	1	0	41.3819704041369	0
1.53	41.2243080348316	0	1	0	1	0	41.2243080348316	0
1.54	41.0697422900129	0	1	0	1	0	41.0697422900129	0
1.55	40.9182200473865	0	1	0	1	0	40.9182200473865	0
1.56	40.7696895467685	0	1	0	1	0	40.7696895467685	0
1.57	40.6241003467055	0	1	0	1	0	40.6241003467055	0
1.58	40.481403282743	0	1	0	1	0	40.481403282743	0
1.59	40.3415504272682	0	1	0	1	0	40.3415504272682	0
1.6	40.2044950508586	0	1	0	1	0	40.2044950508586	0
1.61	40.070191585071	0	1	0	1	0	40.070191585071	0
1.62	39.9385955866091	0	1	0	1	0	39.9385955866091	0
1.63	39.8096637028097	0	1	0	1	0	39.8096637028097	0
1.64	39.6833536383914	0	1	0	1	0	39.6833536383914	0
1.65	39.5596241234132	0	1	0	1	0	39.5596241234132	0
1.66	39.4384348823902	0	1	0	1	0	39.4384348823902	0
1.67	39.3197466045201	0	1	0	1	0	39.3197466045201	0
1.68	39.203520914972	0	1	0	1	0	39.203520914972	0
1.69	39.0897203471948	0	1	0	1	0	39.0897203471948	0
1.7	38.9783083162036	0	1	0	1	0	38.9783083162036	0
1.71	38.8692490928024	0	1	0	1	0	38.8692490928024	0
1.72	38.7625077787069	0	1	0	1	0	38.7625077787069	0
1.73	38.6580502825295	0	1	0	1	0	38.6580502825295	0
1.74	38.5558432965926	0	1	0	1	0	38.5558432965926	0
1.75	38.4558542745369	0	1	0	1	0	38.4558542745369	0
1.76	38.3580514096934	0	1	0	1	0	38.3580514096934	0
1.77	38.2624036141874	0	1	0	1	0	38.2624036141874	0
1.78	38.1688804987484	0	1	0	1	0	38.1688804987484	0
1.79	38.0774523531959	0	1	0	1	0	38.0774523531959	0
1.8	37.9880901275752	0	1	0	1	0	37.9880901275752	0
1.81	37.90076541392	0	1	0	1	0	37.90076541392	0
1.82	37.8154504286147	0	1	0	1	0	37.8154504286147	0
1.83	37.7321179953357	0	1	0	1	0	37.7321179953357	0
1.84	37.6507415285493	0	1	0	1	0	37.6507415285493	0
1.85	37.571295017544	0	1	0	1	0	37.571295017544	0
1.86	37.4937530109785	0	1	0	1	0	37.4937530109785	0
1.87	37.4180906019252	0	1	0	1	0	37.4180906019252	0
1.88	37.3442834133911	0	1	0	1	0	37.3442834133911	0
1.89	37.2723075842985	0	1	0	1	0	37.2723075842985	0
1.9	37.202139755908	0	1	0	1	0	37.202139755908	0
1.91	37.1337570586687	0	1	0	1	0	37.1337570586687	0
1.92	37.0671370994784	0	1	0	1	0	37.0671370994784	0
1.93	37.0022579493409	0	1	0	1	0	37.0022579493409	0
1.94	36.9390981314041	0	1	0	1	0	36.9390981314041	0
1.95	36.8776366093667	0	1	0	1	0	36.8776366093667	0
1.96	36.8178527762398	0	1	0	1	0	36.8178527762398	0
1.97	36.7597264434504	0	1	0	1	0	36.7597264434504	0
1.98	36.7032378302754	0	1	0	1	0	36.7032378302754	0
1.99	36.6483675535945	0	1	0	1	0	36.6483675535945	0
2	36.5950966179494	0	1	0	1	0	36.5950966179494	0
2.01	36.5434064059011	0	1	0	1	0	36.5434064059011	0
2.02	36.4932786686727	0	1	0	1	0	36.4932786686727	0
2.03	36.4446955170692	0	1	0	1	0	36.4446955170692	0
2.04	36.3976394126639	0	1	0	1	0	36.3976394126639	0
2.05	36.3520931592436	0	1	0	1	0	36.3520931592436	0
2.06	36.3080398945018	0	1	0	1	0	36.3080398945018	0
2.07	36.2654630819741	0	1	0	1	0	36.2654630819741	0
2.08	36.2243465032048	0	1	0	1	0	36.2243465032048	0
2.09	36.1846742501391	0	1	0	1	0	36.1846742501391	0
2.1	36.1464307177331	0	1	0	1	0	36.1464307177331	0
2.11	36.1096005967728	0	1	0	1	0	36.1096005967728	0
2.12	36.0741688668976	0	1	0	1	0	36.0741688668976	0
2.13	36.0401207898192	0	1	0	1	0	36.0401207898192	0
2.14	36.0074419027314	0	1	0	1	0	36.0074419027314	0
2.15	35.9761180119034	0	1	0	1	0	35.9761180119034	0
2.16	35.9461351864513	0	1	0	1	0	35.9461351864513	0
2.17	35.9174797522817	0	1	0	1	0	35.9174797522817	0
2.18	35.890138286202	0	1	0	1	0	35.890138286202	0
2.19	35.864097610192	0	1	0	1	0	35.864097610192	0
2.2	35.8393447858321	0	1	0	1	0	35.8393447858321	0
2.21	35.8158671088819	0	1	0	1	0	35.8158671088819	0
2.22	35.7936521040064	0	1	0	1	0	35.7936521040064	0
2.23	35.7726875196435	0	1	0	1	0	35.7726875196435	0
2.24	35.7529613230088	0	1	0	1	0	35.7529613230088	0
2.25	35.7344616952344	0	1	0	1	0	35.7344616952344	0
2.26	35.7171770266355	0	1	0	1	0	35.7171770266355	0
2.27	35.7010959121034	0	1	0	1	0	35.7010959121034	0
2.28	35.6862071466192	0	1	0	1	0	35.6862071466192	0
2.29	35.6724997208847	0	1	0	1	0	35.6724997208847	0
2.3	35.6599628170676	0	1	0	1	0	35.6599628170676	0
2.31	35.6485858046577	0	1	0	1	0	35.6485858046577	0
2.32	35.6383582364293	0	1	0	1	0	35.6383582364293	0
2.33	35.6292698445081	0	1	0	1	0	35.6292698445081	0
2.34	35.6213105365392	0	1	0	1	0	35.6213105365392	0
2.35	35.6144703919523	0	1	0	1	0	35.6144703919523	0
2.36	35.6087396583226	0	1	0	1	0	35.6087396583226	0
2.37	35.604108747823	0	1	0	1	0	35.604108747823	0
2.38	35.6005682337663	0	1	0	1	0	35.6005682337663	0
2.39	35.5981088472343	0	1	0	1	0	35.5981088472343	0
2.4	35.5967214737907	0	1	0	1	0	35.5967214737907	0
2.41	35.596397150276	0	1	0	1	0	35.596397150276	0
2.42	35.5971270616824	0	1	0	1	0	35.5971270616824	0
2.43	35.5989025381049	0	1	0	1	0	35.5989025381049	0
2.44	35.601715051768	0	1	0	1	0	35.601715051768	0
2.45	35.6055562141255	0	1	0	1	0	35.6055562141255	0
2.46	35.61041777303	0	1	0	1	0	35.61041777303	0
2.47	35.6162916099724	0	1	0	1	0	35.6162916099724	0
2.48	35.623169737387	0	1	0	1	0	35.623169737387	0
2.49	35.6310442960226	0	1	0	1	0	35.6310442960226	0
2.5	35.6399075523761	0	1	0	1	0	35.6399075523761	0
2.51	35.6497518961873	0	1	0	1	0	35.6497518961873	0
2.52	35.6605698379937	0	1	0	1	0	35.6605698379937	0
2.53	35.6723540067436	0	1	0	1	0	35.6723540067436	0
2.54	35.6850971474646	0	1	0	1	0	35.6850971474646	0
2.55	35.6987921189879	0	1	0	1	0	35.6987921189879	0
2.56	35.7134318917253	0	1	0	1	0	35.7134318917253	0
2.57	35.7290095454988	0	1	0	1	0	35.7290095454988	0
2.58	35.7455182674197	0	1	0	1	0	35.7455182674197	0
2.59	35.7629513498179	0	1	0	1	0	35.7629513498179	0
2.6	35.781302188218	0	1	0	1	0	35.781302188218	0
2.61	35.8005642793629	0	1	0	1	0	35.8005642793629	0
2.62	35.8207312192815	0	1	0	1	0	35.8207312192815	0
2.63	35.8417967014018	0	1	0	1	0	35.8417967014018	0
2.64	35.8637545147059	0	1	0	1	0	35.8637545147059	0
2.65	35.8865985419269	0	1	0	1	0	35.8865985419269	0
2.66	35.9103227577871	0	1	0	1	0	35.9103227577871	0
2.67	35.934921227275	0	1	0	1	0	35.934921227275	0
2.68	35.9603881039614	0	1	0	1	0	35.9603881039614	0
2.69	35.9867176283528	0	1	0	1	0	35.9867176283528	0
2.7	36.0139041262817	0	1	0	1	0	36.0139041262817	0
2.71	36.041942007332	0	1	0	1	0	36.041942007332	0
2.72	36.0708257632995	0	1	0	1	0	36.0708257632995	0
2.73	36.1005499666867	0	1	0	1	0	36.1005499666867	0
2.74	36.1311092692291	0	1	0	1	0	36.1311092692291	0
2.75	36.1624984004555	0	1	0	1	0	36.1624984004555	0
2.76	36.1947121662782	0	1	0	1	0	36.1947121662782	0
2.77	36.2277454476145	0	1	0	1	0	36.2277454476145	0
2.78	36.2615931990374	0	1	0	1	0	36.2615931990374	0
2.79	36.296250447456	0	1	0	1	0	36.296250447456	0
2.8	36.3317122908232	0	1	0	1	0	36.3317122908232	0
2.81	36.3679738968723	0	1	0	1	0	36.3679738968723	0
2.82	36.4050305018792	0	1	0	1	0	36.4050305018792	0
2.83	36.4428774094515	0	1	0	1	0	36.4428774094515	0
2.84	36.4815099893435	0	1	0	1	0	36.4815099893435	0
2.85	36.5209236762951	0	1	0	1	0	36.5209236762951	0
2.86	36.561113968896	0	1	0	1	0	36.561113968896	0
2.87	36.6020764284735	0	1	0	1	0	36.6020764284735	0
2.88	36.6438066780031	0	1	0	1	0	36.6438066780031	0
2.89	36.6863004010418	0	1	0	1	0	36.6863004010418	0
2.9	36.7295533406839	0	1	0	1	0	36.7295533406839	0
2.91	36.7735612985378	0	1	0	1	0	36.7735612985378	0
2.92	36.8183201337241	0	1	0	1	0	36.8183201337241	0
2.93	36.8638257618942	0	1	0	1	0	36.8638257618942	0
2.94	36.910074154269	0	1	0	1	0	36.910074154269	0
2.95	36.9570613366966	0	1	0	1	0	36.9570613366966	0
2.96	37.0047833887302	0	1	0	1	0	37.0047833887302	0
2.97	37.0532364427233	0	1	0	1	0	37.0532364427233	0
2.98	37.1024166829444	0	1	0	1	0	37.1024166829444	0
2.99	37.1523203447085	0	1	0	1	0	37.1523203447085	0
3	37.2029437135263	0	1	0	1	0	37.2029437135263	0
3.01	37.2542831242706	0	1	0	1	0	37.2542831242706	0
3.02	37.3063349603588	0	1	0	1	0	37.3063349603588	0
3.03	37.3590956529521	0	1	0	1	0	37.3590956529521	0
3.04	37.41256168017	0	1	0	1	0	37.41256168017	0
3.05	37.4667295663207	0	1	0	1	0	37.4667295663207	0
3.06	37.5215958811462	0	1	0	1	0	37.5215958811462	0
3.07	37.5771572390824	0	1	0	1	0	37.5771572390824	0
3.08	37.6334102985337	0	1	0	1	0	37.6334102985337	0
3.09	37.6903517611613	0	1	0	1	0	37.6903517611613	0
3.1	37.7479783711856	0	1	0	1	0	37.7479783711856	0
3.11	37.8062869147019	0	1	0	1	0	37.8062869147019	0
3.12	37.8652742190096	0	1	0	1	0	37.8652742190096	0
3.13	37.9249371519537	0	1	0	1	0	37.9249371519537	0
3.14	37.9852726212792	0	1	0	1	0	37.9852726212792	0
3.15	38.0462775739979	0	1	0	1	0	38.0462775739979	0
3.16	38.1079489957671	0	1	0	1	0	38.1079489957671	0
3.17	38.1702839102798	0	1	0	1	0	38.1702839102798	0
3.18	38.2332793786669	0	1	0	1	0	38.2332793786669	0
3.19	38.2969324989104	0	1	0	1	0	38.2969324989104	0
3.2	38.3612404052674	0	1	0	1	0	38.3612404052674	0
3.21	38.4262002677052	0	1	0	1	0	38.4262002677052	0
3.22	38.4918092913469	0	1	0	1	0	38.4918092913469	0
3.23	38.558064715927	0	1	0	1	0	38.558064715927	0
3.24	38.6249638152574	0	1	0	1	0	38.6249638152574	0
3.25	38.6925038967029	0	1	0	1	0	38.6925038967029	0
3.26	38.7606823006671	0	1	0	1	0	38.7606823006671	0
3.27	38.8294964000866	0	1	0	1	0	38.8294964000866	0
3.28	38.8989435999355	0	1	0	1	0	38.8989435999355	0
3.29	38.9690213367383	0	1	0	1	0	38.9690213367383	0
3.3	39.0397270780919	0	1	0	1	0	39.0397270780919	0
3.31	39.1110583221964	0	1	0	1	0	39.1110583221964	0
3.32	39.1830125973941	0	1	0	1	0	39.1830125973941	0
3.33	39.2555874617165	0	1	0	1	0	39.2555874617165	0
3.34	39.3287805024407	0	1	0	1	0	39.3287805024407	0
3.35	39.4025893356522	0	1	0	1	0	39.4025893356522	0
3.36	39.4770116058163	0	1	0	1	0	39.4770116058163	0
3.37	39.5520449853576	0	1	0	1	0	39.5520449853576	0
3.38	39.6276871742456	0	1	0	1	0	39.6276871742456	0
3.39	39.7039358995888	0	1	0	1	0	39.7039358995888	0
3.4	39.7807889152358	0	1	0	1	0	39.7807889152358	0
3.41	39.8582440013829	0	1	0	1	0	39.8582440013829	0
3.42	39.9362989641891	0	1	0	1	0	39.9362989641891	0
3.43	40.0149516353975	0	1	0	1	0	40.0149516353975	0
3.44	40.0941998719634	0	1	0	1	0	40.0941998719634	0
3.45	40.1740415556891	0	1	0	1	0	40.1740415556891	0
3.46	40.2544745928647	0	1	0	1	0	40.2544745928647	0
3.47	40.3354969139153	0	1	0	1	0	40.3354969139153	0
3.48	40.4171064730543	0	1	0	1	0	40.4171064730543	0
3.49	40.4993012479424	0	1	0	1	0	40.4993012479424	0
3.5	40.5820792393526	0	1	0	1	0	40.5820792393526	0
3.51	40.6654384708416	0	1	0	1	0	40.6654384708416	0
3.52	40.749376988425	0	1	0	1	0	40.749376988425	0
3.53	40.8338928602606	0	1	0	1	0	40.8338928602606	0
3.54	40.9189841763343	0	1	0	1	0	40.9189841763343	0
3.55	41.0046490481537	0	1	0	1	0	41.0046490481537	0
3.56	41.0908856084452	0	1	0	1	0	41.0908856084452	0
3.57	41.1776920108571	0	1	0	1	0	41.1776920108571	0
3.58	41.2650664296673	0	1	0	1	0	41.2650664296673	0
3.59	41.353007059496	0	1	0	1	0	41.353007059496	0
3.6	41.4415121150234	0	1	0	1	0	41.4415121150234	0
3.61	41.5305798307112	0	1	0	1	0	41.5305798307112	0
3.62	41.6202084605303	0	1	0	1	0	41.6202084605303	0
3.63	41.7103962776911	0	1	0	1	0	41.7103962776911	0
3.64	41.8011415743802	0	1	0	1	0	41.8011415743802	0
3.65	41.8924426614995	0	1	0	1	0	41.8924426614995	0
3.66	41.9842978684113	0	1	0	1	0	41.9842978684113	0
3.67	42.0767055426864	0	1	0	1	0	42.0767055426864	0
3.68	42.1696640498567	0	1	0	1	0	42.1696640498567	0
3.69	42.2631717731721	0	1	0	1	0	42.2631717731721	0
3.7	42.3572271133608	0	1	0	1	0	42.3572271133608	0
3.71	42.4518284883937	0	1	0	1	0	42.4518284883937	0
3.72	42.5469743332528	0	1	0	1	0	42.5469743332528	0
3.73	42.6426630997034	0	1	0	1	0	42.6426630997034	0
3.74	42.738893256069	0	1	0	1	0	42.738893256069	0
3.75	42.8356632870114	0	1	0	1	0	42.8356632870114	0
3.76	42.9329716933129	0	1	0	1	0	42.9329716933129	0
3.77	43.0308169916624	0	1	0	1	0	43.0308169916624	0
3.78	43.1291977144455	0	1	0	1	0	43.1291977144455	0
3.79	43.2281124095371	0	1	0	1	0	43.2281124095371	0
3.8	43.3275596400973	0	1	0	1	0	43.3275596400973	0
3.81	43.4275379843716	0	1	0	1	0	43.4275379843716	0
3.82	43.5280460354928	0	1	0	1	0	43.5280460354928	0
3.83	43.6290824012866	0	1	0	1	0	43.6290824012866	0
3.84	43.7306457040807	0	1	0	1	0	43.7306457040807	0
3.85	43.8327345805165	0	1	0	1	0	43.8327345805165	0
3.86	43.9353476813632	0	1	0	1	0	43.9353476813632	0
3.87	44.0384836713355	0	1	0	1	0	44.0384836713355	0
3.88	44.142141228914	0	1	0	1	0	44.142141228914	0
3.89	44.2463190461684	0	1	0	1	0	44.2463190461684	0
3.9	44.3510158285826	0	1	0	1	0	44.3510158285826	0
3.91	44.4562302948842	0	1	0	1	0	44.4562302948842	0
3.92	44.5619611768745	0	1	0	1	0	44.5619611768745	0
3.93	44.6682072192631	0	1	0	1	0	44.6682072192631	0
3.94	44.7749671795033	0	1	0	1	0	44.7749671795033	0
3.95	44.8822398276313	0	1	0	1	0	44.8822398276313	0
3.96	44.9900239461073	0	1	0	1	0	44.9900239461073	0
3.97	45.0983183296587	0	1	0	1	0	45.0983183296587	0
3.98	45.2071217851263	0	1	0	1	0	45.2071217851263	0
3.99	45.3164331313125	0	1	0	1	0	45.3164331313125	0
4	45.4262511988314	0	1	0	1	0	45.4262511988314	0
4.01	45.536574829962	0	1	0	1	0	45.536574829962	0
4.02	45.6474028785029	0	1	0	1	0	45.6474028785029	0
4.03	45.7587342096293	0	1	0	1	0	45.7587342096293	0
4.04	45.8705676997524	0	1	0	1	0	45.8705676997524	0
4.05	45.9829022363805	0	1	0	1	0	45.9829022363805	0
4.06	46.0957367179824	0	1	0	1	0	46.0957367179824	0
4.07	46.2090700538528	0	1	0	1	0	46.2090700538528	0
4.08	46.3229011639796	0	1	0	1	0	46.3229011639796	0
4.09	46.4372289789131	0	1	0	1	0	46.4372289789131	0
4.1	46.5520524396373	0	1	0	1	0	46.5520524396373	0
4.11	46.667370497443	0	1	0	1	0	46.667370497443	0
4.12	46.7831821138024	0	1	0	1	0	46.7831821138024	0
4.13	46.8994862602464	0	1	0	1	0	46.8994862602464	0
4.14	47.0162819182426	0	1	0	1	0	47.0162819182426	0
4.15	47.1335680790758	0	1	0	1	0	47.1335680790758	0
4.16	47.25134374373	0	1	0	1	0	47.25134374373	0
4.17	47.3696079227721	0	1	0	1	0	47.3696079227721	0
4.18	47.4883596362372	0	1	0	1	0	47.4883596362372	0
4.19	47.6075979135159	0	1	0	1	0	47.6075979135159	0
4.2	47.7273217932424	0	1	0	1	0	47.7273217932424	0
4.21	47.8475303231852	0	1	0	1	0	47.8475303231852	0
4.22	47.9682225601385	0	1	0	1	0	47.9682225601385	0
4.23	48.089397569816	0	1	0	1	0	48.089397569816	0
4.24	48.2110544267452	0	1	0	1	0	48.2110544267452	0
4.25	48.333192214164	0	1	0	1	0	48.333192214164	0
4.26	48.4558100239184	0	1	0	1	0	48.4558100239184	0
4.27	48.5789069563616	0	1	0	1	0	48.5789069563616	0
4.28	48.7024821202549	0	1	0	1	0	48.7024821202549	0
4.29	48.8265346326693	0	1	0	1	0	48.8265346326693	0
4.3	48.9510636188894	0	1	0	1	0	48.9510636188894	0
4.31	49.0760682123174	0	1	0	1	0	49.0760682123174	0
4.32	49.2015475543798	0	1	0	1	0	49.2015475543798	0
4.33	49.3275007944346	0	1	0	1	0	49.3275007944346	0
4.34	49.4539270896796	0	1	0	1	0	49.4539270896796	0
4.35	49.5808256050626	0	1	0	1	0	49.5808256050626	0
4.36	49.7081955131924	0	1	0	1	0	49.7081955131924	0
4.37	49.8360359942512	0	1	0	1	0	49.8360359942512	0
4.38	49.9643462359081	0	1	0	1	0	49.9643462359081	0
4.39	50.093125433234	0	1	0	1	0	50.093125433234	0
4.4	50.2223727886169	0	1	0	1	0	50.2223727886169	0
4.41	50.35208751168	0	1	0	1	0	50.35208751168	0
4.42	50.4822688191986	0	1	0	1	0	50.4822688191986	0
4.43	50.6129159350206	0	1	0	1	0	50.6129159350206	0
4.44	50.7440280899858	0	1	0	1	0	50.7440280899858	0
4.45	50.875604521848	0	1	0	1	0	50.875604521848	0
4.46	51.0076444751973	0	1	0	1	0	51.0076444751973	0
4.47	51.1401472013835	0	1	0	1	0	51.1401472013835	0
4.48	51.273111958441	0	1	0	1	0	51.273111958441	0
4.49	51.4065380110138	0	1	0	1	0	51.4065380110138	0
4.5	51.5404246302828	0	1	0	1	0	51.5404246302828	0
4.51	51.6747710938925	0	1	0	1	0	51.6747710938925	0
4.52	51.8095766858804	0	1	0	1	0	51.8095766858804	0
4.53	51.9448406966056	0	1	0	1	0	51.9448406966056	0
4.54	52.0805624226795	0	1	0	1	0	52.0805624226795	0
4.55	52.2167411668976	0	1	0	1	0	52.2167411668976	0
4.56	52.3533762381707	0	1	0	1	0	52.3533762381707	0
4.57	52.4904669514588	0	1	0	1	0	52.4904669514588	0
4.58	52.6280126277047	0	1	0	1	0	52.6280126277047	0
4.59	52.7660125937689	0	1	0	1	0	52.7660125937689	0
4.6	52.9044661823655	0	1	0	1	0	52.9044661823655	0
4.61	53.0433727319981	0	1	0	1	0	53.0433727319981	0
4.62	53.182731586898	0	1	0	1	0	53.182731586898	0
4.63	53.3225420969614	0	1	0	1	0	53.3225420969614	0
4.64	53.4628036176892	0	1	0	1	0	53.4628036176892	0
4.65	53.6035155101263	0	1	0	1	0	53.6035155101263	0
4.66	53.7446771408021	0	1	0	1	0	53.7446771408021	0
4.67	53.886287881672	0	1	0	1	0	53.886287881672	0
4.68	54.0283471100592	0	1	0	1	0	54.0283471100592	0
4.69	54.1708542085977	0	1	0	1	0	54.1708542085977	0
4.7	54.3138085651755	0	1	0	1	0	54.3138085651755	0
4.71	54.4572095728791	0	1	0	1	0	54.4572095728791	0
4.72	54.6010566299383	0	1	0	1	0	54.6010566299383	0
4.73	54.745349139672	0	1	0	1	0	54.745349139672	0
4.74	54.8900865104342	0	1	0	1	0	54.8900865104342	0
4.75	55.0352681555614	0	1	0	1	0	55.0352681555614	0
4.76	55.1808934933197	0	1	0	1	0	55.1808934933197	0
4.77	55.3269619468538	0	1	0	1	0	55.3269619468538	0
4.78	55.4734729441356	0	1	0	1	0	55.4734729441356	0
4.79	55.6204259179136	0	1	0	1	0	55.6204259179136	0
4.8	55.7678203056637	0	1	0	1	0	55.7678203056637	0
4.81	55.9156555495395	0	1	0	1	0	55.9156555495395	0
4.82	56.0639310963243	0	1	0	1	0	56.0639310963243	0
4.83	56.2126463973827	0	1	0	1	0	56.2126463973827	0
4.84	56.3618009086136	0	1	0	1	0	56.3618009086136	0
4.85	56.5113940904031	0	1	0	1	0	56.5113940904031	0
4.86	56.6614254075789	0	1	0	1	0	56.6614254075789	0
4.87	56.8118943293641	0	1	0	1	0	56.8118943293641	0
4.88	56.9628003293326	0	1	0	1	0	56.9628003293326	0
4.89	57.1141428853644	0	1	0	1	0	57.1141428853644	0
4.9	57.2659214796016	0	1	0	1	0	57.2659214796016	0
4.91	57.4181355984052	0	1	0	1	0	57.4181355984052	0
4.92	57.5707847323121	0	1	0	1	0	57.5707847323121	0
4.93	57.7238683759928	0	1	0	1	0	57.7238683759928	0
