# GHZ S RI R 50
1	58.4877558582142	0	1	0	1	0	58.4877558582142	0
1.01	58.0174839772072	0	1	0	1	0	58.0174839772072	0
1.02	57.5576866559914	0	1	0	1	0	57.5576866559914	0
1.03	57.1080711011148	0	1	0	1	0	57.1080711011148	0
1.04	56.6683557804123	0	1	0	1	0	56.6683557804123	0
1.05	56.2382698867533	0	1	0	1	0	56.2382698867533	0
1.06	55.8175528321446	0	1	0	1	0	55.8175528321446	0
1.07	55.4059537701998	0	1	0	1	0	55.4059537701998	0
1.08	55.0032311451397	0	1	0	1	0	55.0032311451397	0
1.09	54.6091522656173	0	1	0	1	0	54.6091522656173	0
1.1	54.223492901789	0	1	0	1	0	54.223492901789	0
1.11	53.8460369041662	0	1	0	1	0	53.8460369041662	0
1.12	53.4765758428846	0	1	0	1	0	53.4765758428846	0
1.13	53.1149086661283	0	1	0	1	0	53.1149086661283	0
1.14	52.7608413765312	0	1	0	1	0	52.7608413765312	0
1.15	52.4141867244615	0	1	0	1	0	52.4141867244615	0
1.16	52.0747639171713	0	1	0	1	0	52.0747639171713	0
1.17	51.7423983428614	0	1	0	1	0	51.7423983428614	0
1.18	51.4169213087766	0	1	0	1	0	51.4169213087766	0
1.19	51.0981697925065	0	1	0	1	0	51.0981697925065	0
1.2	50.7859862057208	0	1	0	1	0	50.7859862057208	0
1.21	50.4802181696211	0	1	0	1	0	50.4802181696211	0
1.22	50.180718301435	0	1	0	1	0	50.180718301435	0
1.23	49.8873440113258	0	1	0	1	0	49.8873440113258	0
1.24	49.599957309129	0	1	0	1	0	49.599957309129	0
1.25	49.3184246203652	0	1	0	1	0	49.3184246203652	0
1.26	49.042616611015	0	1	0	1	0	49.042616611015	0
1.27	48.772408020571	0	1	0	1	0	48.772408020571	0
1.28	48.507677502917	0	1	0	1	0	48.507677502917	0
1.29	48.248307474607	0	1	0	1	0	48.248307474607	0
1.3	47.994183970147	0	1	0	1	0	47.994183970147	0
1.31	47.7451965039055	0	1	0	1	0	47.7451965039055	0
1.32	47.5012379383007	0	1	0	1	0	47.5012379383007	0
1.33	47.2622043579333	0	1	0	1	0	47.2622043579333	0
1.34	47.0279949493564	0	1	0	1	0	47.0279949493564	0
1.35	46.7985118861884	0	1	0	1	0	46.7985118861884	0
1.36	46.5736602192938	0	1	0	1	0	46.5736602192938	0
1.37	46.3533477717749	0	1	0	1	0	46.3533477717749	0
1.38	46.1374850385281	0	1	0	1	0	46.1374850385281	0
1.39	45.9259850901363	0	1	0	1	0	45.9259850901363	0
1.4	45.7187634808799	0	1	0	1	0	45.7187634808799	0
1.41	45.5157381606626	0	1	0	1	0	45.5157381606626	0
1.42	45.3168293906584	0	1	0	1	0	45.3168293906584	0
1.43	45.1219596624981	0	1	0	1	0	45.1219596624981	0
1.44	44.9310536208225	0	1	0	1	0	44.9310536208225	0
1.45	44.7440379890412	0	1	0	1	0	44.7440379890412	0
1.46	44.5608414981414	0	1	0	1	0	44.5608414981414	0
1.47	44.3813948184033	0	1	0	1	0	44.3813948184033	0
1.48	44.2056304938833	0	1	0	1	0	44.2056304938833	0
1.49	44.0334828795356	0	1	0	1	0	44.0334828795356	0
1.5	43.8648880808489	0	1	0	1	0	43.8648880808489	0
1.51	43.6997838958818	0	1	0	1	0	43.6997838958818	0
1.52	43.538109759586	0	1	0	1	0	43.538109759586	0
1.53	43.3798066903134	0	1	0	1	0	43.3798066903134	0
1.54	43.2248172384065	0	1	0	1	0	43.2248172384065	0
1.55	43.0730854367797	0	1	0	1	0	43.0730854367797	0
1.56	42.9245567534008	0	1	0	1	0	42.9245567534008	0
1.57	42.7791780455889	0	1	0	1	0	42.7791780455889	0
1.58	42.6368975160473	0	1	0	1	0	42.6368975160473	0
1.59	42.4976646705561	0	1	0	1	0	42.4976646705561	0
1.6	42.3614302772506	0	1	0	1	0	42.3614302772506	0
1.61	42.2281463274183	0	1	0	1	0	42.2281463274183	0
1.62	42.0977659977469	0	1	0	1	0	42.0977659977469	0
1.63	41.9702436139625	0	1	0	1	0	41.9702436139625	0
1.64	41.8455346157977	0	1	0	1	0	41.8455346157977	0
1.65	41.7235955232342	0	1	0	1	0	41.7235955232342	0
1.66	41.604383903965	0	1	0	1	0	41.604383903965	0
1.67	41.4878583420256	0	1	0	1	0	41.4878583420256	0
1.68	41.373978407546	0	1	0	1	0	41.373978407546	0
1.69	41.2627046275762	0	1	0	1	0	41.2627046275762	0
1.7	41.1539984579416	0	1	0	1	0	41.1539984579416	0
1.71	41.0478222560854	0	1	0	1	0	41.0478222560854	0
1.72	40.9441392548595	0	1	0	1	0	40.9441392548595	0
1.73	40.842913537223	0	1	0	1	0	40.842913537223	0
1.74	40.7441100118142	0	1	0	1	0	40.7441100118142	0
1.75	40.6476943893596	0	1	0	1	0	40.6476943893596	0
1.76	40.5536331598875	0	1	0	1	0	40.5536331598875	0
1.77	40.4618935707135	0	1	0	1	0	40.4618935707135	0
1.78	40.3724436051687	0	1	0	1	0	40.3724436051687	0
1.79	40.2852519620406	0	1	0	1	0	40.2852519620406	0
1.8	40.200288035699	0	1	0	1	0	40.200288035699	0
1.81	40.1175218968813	0	1	0	1	0	40.1175218968813	0
1.82	40.0369242741109	0	1	0	1	0	40.0369242741109	0
1.83	39.9584665357248	0	1	0	1	0	39.9584665357248	0
1.84	39.8821206724877	0	1	0	1	0	39.8821206724877	0
1.85	39.8078592807691	0	1	0	1	0	39.8078592807691	0
1.86	39.7356555462641	0	1	0	1	0	39.7356555462641	0
1.87	39.6654832282357	0	1	0	1	0	39.6654832282357	0
1.88	39.5973166442605	0	1	0	1	0	39.5973166442605	0
1.89	39.5311306554585	0	1	0	1	0	39.5311306554585	0
1.9	39.4669006521891	0	1	0	1	0	39.4669006521891	0
1.91	39.404602540197	0	1	0	1	0	39.404602540197	0
1.92	39.3442127271905	0	1	0	1	0	39.3442127271905	0
1.93	39.2857081098374	0	1	0	1	0	39.2857081098374	0
1.94	39.2290660611628	0	1	0	1	0	39.2290660611628	0
1.95	39.1742644183348	0	1	0	1	0	39.1742644183348	0
1.96	39.1212814708243	0	1	0	1	0	39.1212814708243	0
1.97	39.0700959489251	0	1	0	1	0	39.0700959489251	0
1.98	39.0206870126219	0	1	0	1	0	39.0206870126219	0
1.99	38.9730342407945	0	1	0	1	0	38.9730342407945	0
2	38.9271176207448	0	1	0	1	0	38.9271176207448	0
2.01	38.8829175380374	0	1	0	1	0	38.8829175380374	0
2.02	38.8404147666417	0	1	0	1	0	38.8404147666417	0
2.03	38.7995904593651	0	1	0	1	0	38.7995904593651	0
2.04	38.7604261385676	0	1	0	1	0	38.7604261385676	0
2.05	38.7229036871488	0	1	0	1	0	38.7229036871488	0
2.06	38.6870053397965	0	1	0	1	0	38.6870053397965	0
2.07	38.6527136744895	0	1	0	1	0	38.6527136744895	0
2.08	38.6200116042457	0	1	0	1	0	38.6200116042457	0
2.09	38.5888823691063	0	1	0	1	0	38.5888823691063	0
2.1	38.55930952835	0	1	0	1	0	38.55930952835	0
2.11	38.5312769529279	0	1	0	1	0	38.5312769529279	0
2.12	38.5047688181127	0	1	0	1	0	38.5047688181127	0
2.13	38.4797695963553	0	1	0	1	0	38.4797695963553	0
2.14	38.4562640503408	0	1	0	1	0	38.4562640503408	0
2.15	38.4342372262396	0	1	0	1	0	38.4342372262396	0
2.16	38.4136744471446	0	1	0	1	0	38.4136744471446	0
2.17	38.3945613066909	0	1	0	1	0	38.3945613066909	0
2.18	38.3768836628505	0	1	0	1	0	38.3768836628505	0
2.19	38.3606276318974	0	1	0	1	0	38.3606276318974	0
2.2	38.3457795825369	0	1	0	1	0	38.3457795825369	0
2.21	38.3323261301945	0	1	0	1	0	38.3323261301945	0
2.22	38.3202541314593	0	1	0	1	0	38.3202541314593	0
2.23	38.3095506786766	0	1	0	1	0	38.3095506786766	0
2.24	38.3002030946856	0	1	0	1	0	38.3002030946856	0
2.25	38.2921989276973	0	1	0	1	0	38.2921989276973	0
2.26	38.285525946308	0	1	0	1	0	38.285525946308	0
2.27	38.2801721346458	0	1	0	1	0	38.2801721346458	0
2.28	38.2761256876433	0	1	0	1	0	38.2761256876433	0
2.29	38.2733750064352	0	1	0	1	0	38.2733750064352	0
2.3	38.2719086938756	0	1	0	1	0	38.2719086938756	0
2.31	38.2717155501718	0	1	0	1	0	38.2717155501718	0
2.32	38.272784568631	0	1	0	1	0	38.272784568631	0
2.33	38.2751049315164	0	1	0	1	0	38.2751049315164	0
2.34	38.2786660060099	0	1	0	1	0	38.2786660060099	0
2.35	38.2834573402775	0	1	0	1	0	38.2834573402775	0
2.36	38.2894686596347	0	1	0	1	0	38.2894686596347	0
2.37	38.2966898628098	0	1	0	1	0	38.2966898628098	0
2.38	38.3051110183002	0	1	0	1	0	38.3051110183002	0
2.39	38.3147223608207	0	1	0	1	0	38.3147223608207	0
2.4	38.3255142878412	0	1	0	1	0	38.3255142878412	0
2.41	38.3374773562095	0	1	0	1	0	38.3374773562095	0
2.42	38.3506022788586	0	1	0	1	0	38.3506022788586	0
2.43	38.364879921595	0	1	0	1	0	38.364879921595	0
2.44	38.3803012999661	0	1	0	1	0	38.3803012999661	0
2.45	38.3968575762042	0	1	0	1	0	38.3968575762042	0
2.46	38.4145400562454	0	1	0	1	0	38.4145400562454	0
2.47	38.4333401868198	0	1	0	1	0	38.4333401868198	0
2.48	38.4532495526141	0	1	0	1	0	38.4532495526141	0
2.49	38.4742598735004	0	1	0	1	0	38.4742598735004	0
2.5	38.4963630018328	0	1	0	1	0	38.4963630018328	0
2.51	38.5195509198086	0	1	0	1	0	38.5195509198086	0
2.52	38.5438157368916	0	1	0	1	0	38.5438157368916	0
2.53	38.5691496872972	0	1	0	1	0	38.5691496872972	0
2.54	38.5955451275368	0	1	0	1	0	38.5955451275368	0
2.55	38.6229945340195	0	1	0	1	0	38.6229945340195	0
2.56	38.6514905007104	0	1	0	1	0	38.6514905007104	0
2.57	38.6810257368439	0	1	0	1	0	38.6810257368439	0
2.58	38.7115930646893	0	1	0	1	0	38.7115930646893	0
2.59	38.743185417369	0	1	0	1	0	38.743185417369	0
2.6	38.7757958367265	0	1	0	1	0	38.7757958367265	0
2.61	38.8094174712439	0	1	0	1	0	38.8094174712439	0
2.62	38.8440435740064	0	1	0	1	0	38.8440435740064	0
2.63	38.879667500714	0	1	0	1	0	38.879667500714	0
2.64	38.9162827077379	0	1	0	1	0	38.9162827077379	0
2.65	38.953882750221	0	1	0	1	0	38.953882750221	0
2.66	38.9924612802214	0	1	0	1	0	38.9924612802214	0
2.67	39.0320120448975	0	1	0	1	0	39.0320120448975	0
2.68	39.0725288847336	0	1	0	1	0	39.0725288847336	0
2.69	39.1140057318053	0	1	0	1	0	39.1140057318053	0
2.7	39.1564366080835	0	1	0	1	0	39.1564366080835	0
2.71	39.1998156237755	0	1	0	1	0	39.1998156237755	0
2.72	39.2441369757035	0	1	0	1	0	39.2441369757035	0
2.73	39.2893949457175	0	1	0	1	0	39.2893949457175	0
2.74	39.3355838991446	0	1	0	1	0	39.3355838991446	0
2.75	39.3826982832706	0	1	0	1	0	39.3826982832706	0
2.76	39.4307326258552	0	1	0	1	0	39.4307326258552	0
2.77	39.47968153368	0	1	0	1	0	39.47968153368	0
2.78	39.5295396911266	0	1	0	1	0	39.5295396911266	0
2.79	39.5803018587863	0	1	0	1	0	39.5803018587863	0
2.8	39.631962872099	0	1	0	1	0	39.631962872099	0
2.81	39.6845176400216	0	1	0	1	0	39.6845176400216	0
2.82	39.7379611437243	0	1	0	1	0	39.7379611437243	0
2.83	39.7922884353148	0	1	0	1	0	39.7922884353148	0
2.84	39.8474946365895	0	1	0	1	0	39.8474946365895	0
2.85	39.9035749378108	0	1	0	1	0	39.9035749378108	0
2.86	39.96052459651	0	1	0	1	0	39.96052459651	0
2.87	40.0183389363157	0	1	0	1	0	40.0183389363157	0
2.88	40.0770133458062	0	1	0	1	0	40.0770133458062	0
2.89	40.1365432773853	0	1	0	1	0	40.1365432773853	0
2.9	40.1969242461828	0	1	0	1	0	40.1969242461828	0
2.91	40.2581518289758	0	1	0	1	0	40.2581518289758	0
2.92	40.3202216631335	0	1	0	1	0	40.3202216631335	0
2.93	40.3831294455836	0	1	0	1	0	40.3831294455836	0
2.94	40.4468709317985	0	1	0	1	0	40.4468709317985	0
2.95	40.5114419348038	0	1	0	1	0	40.5114419348038	0
2.96	40.5768383242058	0	1	0	1	0	40.5768383242058	0
2.97	40.643056025239	0	1	0	1	0	40.643056025239	0
2.98	40.7100910178326	0	1	0	1	0	40.7100910178326	0
2.99	40.7779393356962	0	1	0	1	0	40.7779393356962	0
3	40.8465970654233	0	1	0	1	0	40.8465970654233	0
3.01	40.9160603456125	0	1	0	1	0	40.9160603456125	0
3.02	40.9863253660071	0	1	0	1	0	40.9863253660071	0
3.03	41.0573883666506	0	1	0	1	0	41.0573883666506	0
3.04	41.1292456370599	0	1	0	1	0	41.1292456370599	0
3.05	41.2018935154136	0	1	0	1	0	41.2018935154136	0
3.06	41.2753283877576	0	1	0	1	0	41.2753283877576	0
3.07	41.3495466872248	0	1	0	1	0	41.3495466872248	0
3.08	41.4245448932715	0	1	0	1	0	41.4245448932715	0
3.09	41.5003195309268	0	1	0	1	0	41.5003195309268	0
3.1	41.5768671700587	0	1	0	1	0	41.5768671700587	0
3.11	41.6541844246523	0	1	0	1	0	41.6541844246523	0
3.12	41.7322679521033	0	1	0	1	0	41.7322679521033	0
3.13	41.8111144525243	0	1	0	1	0	41.8111144525243	0
3.14	41.8907206680647	0	1	0	1	0	41.8907206680647	0
3.15	41.9710833822436	0	1	0	1	0	41.9710833822436	0
3.16	42.0521994192947	0	1	0	1	0	42.0521994192947	0
3.17	42.1340656435247	0	1	0	1	0	42.1340656435247	0
3.18	42.2166789586831	0	1	0	1	0	42.2166789586831	0
3.19	42.3000363073435	0	1	0	1	0	42.3000363073435	0
3.2	42.3841346702977	0	1	0	1	0	42.3841346702977	0
3.21	42.4689710659598	0	1	0	1	0	42.4689710659598	0
3.22	42.5545425497823	0	1	0	1	0	42.5545425497823	0
3.23	42.6408462136826	0	1	0	1	0	42.6408462136826	0
3.24	42.7278791854806	0	1	0	1	0	42.7278791854806	0
3.25	42.8156386283459	0	1	0	1	0	42.8156386283459	0
3.26	42.9041217402558	0	1	0	1	0	42.9041217402558	0
3.27	42.9933257534632	0	1	0	1	0	42.9933257534632	0
3.28	43.0832479339741	0	1	0	1	0	43.0832479339741	0
3.29	43.1738855810344	0	1	0	1	0	43.1738855810344	0
3.3	43.2652360266265	0	1	0	1	0	43.2652360266265	0
3.31	43.3572966349745	0	1	0	1	0	43.3572966349745	0
3.32	43.4500648020592	0	1	0	1	0	43.4500648020592	0
3.33	43.5435379551407	0	1	0	1	0	43.5435379551407	0
3.34	43.6377135522903	0	1	0	1	0	43.6377135522903	0
3.35	43.7325890819307	0	1	0	1	0	43.7325890819307	0
3.36	43.8281620623846	0	1	0	1	0	43.8281620623846	0
3.37	43.9244300414304	0	1	0	1	0	43.9244300414304	0
3.38	44.0213905958671	0	1	0	1	0	44.0213905958671	0
3.39	44.1190413310861	0	1	0	1	0	44.1190413310861	0
3.4	44.2173798806505	0	1	0	1	0	44.2173798806505	0
3.41	44.3164039058824	0	1	0	1	0	44.3164039058824	0
3.42	44.4161110954566	0	1	0	1	0	44.4161110954566	0
3.43	44.5164991650022	0	1	0	1	0	44.5164991650022	0
3.44	44.617565856711	0	1	0	1	0	44.617565856711	0
3.45	44.719308938952	0	1	0	1	0	44.719308938952	0
3.46	44.8217262058935	0	1	0	1	0	44.8217262058935	0
3.47	44.9248154771313	0	1	0	1	0	44.9248154771313	0
3.48	45.0285745973232	0	1	0	1	0	45.0285745973232	0
3.49	45.1330014358302	0	1	0	1	0	45.1330014358302	0
3.5	45.2380938863634	0	1	0	1	0	45.2380938863634	0
3.51	45.3438498666371	0	1	0	1	0	45.3438498666371	0
3.52	45.4502673180281	0	1	0	1	0	45.4502673180281	0
3.53	45.5573442052403	0	1	0	1	0	45.5573442052403	0
3.54	45.6650785159752	0	1	0	1	0	45.6650785159752	0
3.55	45.7734682606083	0	1	0	1	0	45.7734682606083	0
3.56	45.8825114718703	0	1	0	1	0	45.8825114718703	0
3.57	45.9922062045341	0	1	0	1	0	45.9922062045341	0
3.58	46.102550535107	0	1	0	1	0	46.102550535107	0
3.59	46.2135425615281	0	1	0	1	0	46.2135425615281	0
3.6	46.3251804028704	0	1	0	1	0	46.3251804028704	0
3.61	46.437462199048	0	1	0	1	0	46.437462199048	0
3.62	46.550386110529	0	1	0	1	0	46.550386110529	0
3.63	46.6639503180511	0	1	0	1	0	46.6639503180511	0
3.64	46.7781530223446	0	1	0	1	0	46.7781530223446	0
3.65	46.8929924438572	0	1	0	1	0	46.8929924438572	0
3.66	47.0084668224857	0	1	0	1	0	47.0084668224857	0
3.67	47.1245744173104	0	1	0	1	0	47.1245744173104	0
3.68	47.2413135063346	0	1	0	1	0	47.2413135063346	0
3.69	47.3586823862284	0	1	0	1	0	47.3586823862284	0
3.7	47.4766793720761	0	1	0	1	0	47.4766793720761	0
3.71	47.5953027971284	0	1	0	1	0	47.5953027971284	0
3.72	47.7145510125578	0	1	0	1	0	47.7145510125578	0
3.73	47.8344223872188	0	1	0	1	0	47.8344223872188	0
3.74	47.9549153074111	0	1	0	1	0	47.9549153074111	0
3.75	48.0760281766474	0	1	0	1	0	48.0760281766474	0
3.76	48.1977594154243	0	1	0	1	0	48.1977594154243	0
3.77	48.320107460997	0	1	0	1	0	48.320107460997	0
3.78	48.4430707671575	0	1	0	1	0	48.4430707671575	0
3.79	48.5666478040169	0	1	0	1	0	48.5666478040169	0
3.8	48.6908370577903	0	1	0	1	0	48.6908370577903	0
3.81	48.8156370305855	0	1	0	1	0	48.8156370305855	0
3.82	48.9410462401951	0	1	0	1	0	48.9410462401951	0
3.83	49.0670632198916	0	1	0	1	0	49.0670632198916	0
3.84	49.193686518226	0	1	0	1	0	49.193686518226	0
3.85	49.3209146988293	0	1	0	1	0	49.3209146988293	0
3.86	49.448746340217	0	1	0	1	0	49.448746340217	0
3.87	49.5771800355971	0	1	0	1	0	49.5771800355971	0
3.88	49.7062143926806	0	1	0	1	0	49.7062143926806	0
3.89	49.8358480334949	0	1	0	1	0	49.8358480334949	0
3.9	49.9660795942008	0	1	0	1	0	49.9660795942008	0
3.91	50.0969077249111	0	1	0	1	0	50.0969077249111	0
3.92	50.228331089513	0	1	0	1	0	50.228331089513	0
3.93	50.3603483654932	0	1	0	1	0	50.3603483654932	0
3.94	50.4929582437643	0	1	0	1	0	50.4929582437643	0
3.95	50.626159428496	0	1	0	1	0	50.626159428496	0
3.96	50.759950636947	0	1	0	1	0	50.759950636947	0
3.97	50.8943305993002	0	1	0	1	0	50.8943305993002	0
3.98	51.0292980585008	0	1	0	1	0	51.0292980585008	0
3.99	51.1648517700958	0	1	0	1	0	51.1648517700958	0
4	51.3009905020768	0	1	0	1	0	51.3009905020768	0
4.01	51.4377130347248	0	1	0	1	0	51.4377130347248	0
4.02	51.5750181604574	0	1	0	1	0	51.5750181604574	0
4.03	51.7129046836778	0	1	0	1	0	51.7129046836778	0
4.04	51.8513714206271	0	1	0	1	0	51.8513714206271	0
4.05	51.9904171992377	0	1	0	1	0	51.9904171992377	0
4.06	52.1300408589897	0	1	0	1	0	52.1300408589897	0
4.07	52.2702412507683	0	1	0	1	0	52.2702412507683	0
4.08	52.4110172367252	0	1	0	1	0	52.4110172367252	0
4.09	52.5523676901395	0	1	0	1	0	52.5523676901395	0
4.1	52.6942914952833	0	1	0	1	0	52.6942914952833	0
4.11	52.836787547287	0	1	0	1	0	52.836787547287	0
4.12	52.9798547520081	0	1	0	1	0	52.9798547520081	0
4.13	53.1234920259009	0	1	0	1	0	53.1234920259009	0
4.14	53.2676982958889	0	1	0	1	0	53.2676982958889	0
4.15	53.4124724992384	0	1	0	1	0	53.4124724992384	0
4.16	53.5578135834345	0	1	0	1	0	53.5578135834345	0
4.17	53.7037205060582	0	1	0	1	0	53.7037205060582	0
4.18	53.8501922346657	0	1	0	1	0	53.8501922346657	0
4.19	53.9972277466698	0	1	0	1	0	53.9972277466698	0
4.2	54.1448260292219	0	1	0	1	0	54.1448260292219	0
4.21	54.2929860790967	0	1	0	1	0	54.2929860790967	0
4.22	54.4417069025784	0	1	0	1	0	54.4417069025784	0
4.23	54.5909875153478	0	1	0	1	0	54.5909875153478	0
4.24	54.7408269423718	0	1	0	1	0	54.7408269423718	0
4.25	54.891224217794	0	1	0	1	0	54.891224217794	0
4.26	55.0421783848273	0	1	0	1	0	55.0421783848273	0
4.27	55.1936884956473	0	1	0	1	0	55.1936884956473	0
4.28	55.3457536112877	0	1	0	1	0	55.3457536112877	0
4.29	55.4983728015374	0	1	0	1	0	55.4983728015374	0
4.3	55.6515451448381	0	1	0	1	0	55.6515451448381	0
4.31	55.8052697281844	0	1	0	1	0	55.8052697281844	0
4.32	55.9595456470249	0	1	0	1	0	55.9595456470249	0
4.33	56.1143720051638	0	1	0	1	0	56.1143720051638	0
4.34	56.2697479146656	0	1	0	1	0	56.2697479146656	0
4.35	56.4256724957596	0	1	0	1	0	56.4256724957596	0
4.36	56.5821448767464	0	1	0	1	0	56.5821448767464	0
4.37	56.7391641939055	0	1	0	1	0	56.7391641939055	0
4.38	56.8967295914042	0	1	0	1	0	56.8967295914042	0
4.39	57.0548402212079	0	1	0	1	0	57.0548402212079	0
4.4	57.2134952429916	0	1	0	1	0	57.2134952429916	0
4.41	57.3726938240518	0	1	0	1	0	57.3726938240518	0
4.42	57.5324351392213	0	1	0	1	0	57.5324351392213	0
4.43	57.6927183707834	0	1	0	1	0	57.6927183707834	0
4.44	57.853542708388	0	1	0	1	0	57.853542708388	0
4.45	58.0149073489695	0	1	0	1	0	58.0149073489695	0
4.46	58.1768114966644	0	1	0	1	0	58.1768114966644	0
4.47	58.3392543627309	0	1	0	1	0	58.3392543627309	0
4.48	58.5022351654699	0	1	0	1	0	58.5022351654699	0
4.49	58.6657531301459	0	1	0	1	0	58.6657531301459	0
4.5	58.82980748891	0	1	0	1	0	58.82980748891	0
4.51	58.9943974807237	0	1	0	1	0	58.9943974807237	0
4.52	59.1595223512831	0	1	0	1	0	59.1595223512831	0
4.53	59.3251813529449	0	1	0	1	0	59.3251813529449	0
4.54	59.491373744653	0	1	0	1	0	59.491373744653	0
4.55	59.658098791866	0	1	0	1	0	59.658098791866	0
4.56	59.8253557664861	0	1	0	1	0	59.8253557664861	0
4.57	59.9931439467879	0	1	0	1	0	59.9931439467879	0
4.58	60.1614626173497	0	1	0	1	0	60.1614626173497	0
4.59	60.3303110689842	0	1	0	1	0	60.3303110689842	0
4.6	60.4996885986709	0	1	0	1	0	60.4996885986709	0
4.61	60.6695945094895	0	1	0	1	0	60.6695945094895	0
4.62	60.8400281105534	0	1	0	1	0	60.8400281105534	0
4.63	61.0109887169449	0	1	0	1	0	61.0109887169449	0
4.64	61.1824756496507	0	1	0	1	0	61.1824756496507	0
4.65	61.3544882354985	0	1	0	1	0	61.3544882354985	0
4.66	61.5270258070944	0	1	0	1	0	61.5270258070944	0
4.67	61.7000877027608	0	1	0	1	0	61.7000877027608	0
4.68	61.8736732664755	0	1	0	1	0	61.8736732664755	0
4.69	62.0477818478115	0	1	0	1	0	62.0477818478115	0
4.7	62.222412801877	0	1	0	1	0	62.222412801877	0
4.71	62.3975654892574	0	1	0	1	0	62.3975654892574	0
4.72	62.5732392759567	0	1	0	1	0	62.5732392759567	0
4.73	62.7494335333403	0	1	0	1	0	62.7494335333403	0
4.74	62.9261476380786	0	1	0	1	0	62.9261476380786	0
4.75	63.1033809720912	0	1	0	1	0	63.1033809720912	0
4.76	63.2811329224915	0	1	0	1	0	63.2811329224915	0
4.77	63.4594028815325	0	1	0	1	0	63.4594028815325	0
4.78	63.6381902465529	0	1	0	1	0	63.6381902465529	0
4.79	63.817494419924	0	1	0	1	0	63.817494419924	0
4.8	63.9973148089975	0	1	0	1	0	63.9973148089975	0
4.81	64.1776508260535	0	1	0	1	0	64.1776508260535	0
4.82	64.3585018882494	0	1	0	1	0	64.3585018882494	0
4.83	64.5398674175695	0	1	0	1	0	64.5398674175695	0
4.84	64.721746840775	0	1	0	1	0	64.721746840775	0
4.85	64.904139589355	0	1	0	1	0	64.904139589355	0
4.86	65.0870450994776	0	1	0	1	0	65.0870450994776	0
4.87	65.270462811942	0	1	0	1	0	65.270462811942	0
4.88	65.4543921721309	0	1	0	1	0	65.4543921721309	0
4.89	65.638832629964	0	1	0	1	0	65.638832629964	0
4.9	65.8237836398511	0	1	0	1	0	65.8237836398511	0
4.91	66.009244660647	0	1	0	1	0	66.009244660647	0
4.92	66.1952151556061	0	1	0	1	0	66.1952151556061	0
4.93	66.3816945923374	0	1	0	1	0	66.3816945923374	0
