# GHZ S RI R 50
1	56.9004462584207	0	1	0	1	0	56.9004462584207	0
1.01	56.4388595939827	0	1	0	1	0	56.4388595939827	0
1.02	55.987597619896	0	1	0	1	0	55.987597619896	0
1.03	55.546372108141	0	1	0	1	0	55.546372108141	0
1.04	55.1149059163909	0	1	0	1	0	55.1149059163909	0
1.05	54.6929324601219	0	1	0	1	0	54.6929324601219	0
1.06	54.2801952146037	0	1	0	1	0	54.2801952146037	0
1.07	53.8764472448153	0	1	0	1	0	53.8764472448153	0
1.08	53.4814507614775	0	1	0	1	0	53.4814507614775	0
1.09	53.0949767015229	0	1	0	1	0	53.0949767015229	0
1.1	52.7168043314504	0	1	0	1	0	52.7168043314504	0
1.11	52.3467208721191	0	1	0	1	0	52.3467208721191	0
1.12	51.9845211436434	0	1	0	1	0	51.9845211436434	0
1.13	51.6300072291423	0	1	0	1	0	51.6300072291423	0
1.14	51.2829881561868	0	1	0	1	0	51.2829881561868	0
1.15	50.9432795948671	0	1	0	1	0	50.9432795948671	0
1.16	50.6107035714775	0	1	0	1	0	50.6107035714775	0
1.17	50.2850881968829	0	1	0	1	0	50.2850881968829	0
1.18	49.9662674086991	0	1	0	1	0	49.9662674086991	0
1.19	49.6540807264704	0	1	0	1	0	49.6540807264704	0
1.2	49.3483730190897	0	1	0	1	0	49.3483730190897	0
1.21	49.0489942837512	0	1	0	1	0	49.0489942837512	0
1.22	48.7557994357736	0	1	0	1	0	48.7557994357736	0
1.23	48.4686481086766	0	1	0	1	0	48.4686481086766	0
1.24	48.1874044639312	0	1	0	1	0	48.1874044639312	0
1.25	47.9119370098409	0	1	0	1	0	47.9119370098409	0
1.26	47.6421184290492	0	1	0	1	0	47.6421184290492	0
1.27	47.3778254141947	0	1	0	1	0	47.3778254141947	0
1.28	47.1189385112712	0	1	0	1	0	47.1189385112712	0
1.29	46.8653419702729	0	1	0	1	0	46.8653419702729	0
1.3	46.6169236027322	0	1	0	1	0	46.6169236027322	0
1.31	46.373574645784	0	1	0	1	0	46.373574645784	0
1.32	46.1351896324073	0	1	0	1	0	46.1351896324073	0
1.33	45.9016662675217	0	1	0	1	0	45.9016662675217	0
1.34	45.6729053096313	0	1	0	1	0	45.6729053096313	0
1.35	45.448810457729	0	1	0	1	0	45.448810457729	0
1.36	45.2292882431901	0	1	0	1	0	45.2292882431901	0
1.37	45.014247926401	0	1	0	1	0	45.014247926401	0
1.38	44.8036013978817	0	1	0	1	0	44.8036013978817	0
1.39	44.597263083677	0	1	0	1	0	44.597263083677	0
1.4	44.3951498548016	0	1	0	1	0	44.3951498548016	0
1.41	44.1971809405395	0	1	0	1	0	44.1971809405395	0
1.42	44.003277845406	0	1	0	1	0	44.003277845406	0
1.43	43.8133642695944	0	1	0	1	0	43.8133642695944	0
1.44	43.627366032737	0	1	0	1	0	43.627366032737	0
1.45	43.445211000821	0	1	0	1	0	43.445211000821	0
1.46	43.2668290161082	0	1	0	1	0	43.2668290161082	0
1.47	43.0921518299141	0	1	0	1	0	43.0921518299141	0
1.48	42.9211130381135	0	1	0	1	0	42.9211130381135	0
1.49	42.7536480192424	0	1	0	1	0	42.7536480192424	0
1.5	42.5896938750755	0	1	0	1	0	42.5896938750755	0
1.51	42.4291893735658	0	1	0	1	0	42.4291893735658	0
1.52	42.2720748940361	0	1	0	1	0	42.2720748940361	0
1.53	42.1182923745196	0	1	0	1	0	42.1182923745196	0
1.54	41.9677852611525	0	1	0	1	0	41.9677852611525	0
1.55	41.8204984595255	0	1	0	1	0	41.8204984595255	0
1.56	41.6763782879067	0	1	0	1	0	41.6763782879067	0
1.57	41.5353724322513	0	1	0	1	0	41.5353724322513	0
1.58	41.3974299029211	0	1	0	1	0	41.3974299029211	0
1.59	41.2625009930357	0	1	0	1	0	41.2625009930357	0
1.6	41.1305372383869	0	1	0	1	0	41.1305372383869	0
1.61	41.0014913788462	0	1	0	1	0	41.0014913788462	0
1.62	40.8753173212019	0	1	0	1	0	40.8753173212019	0
1.63	40.7519701033639	0	1	0	1	0	40.7519701033639	0
1.64	40.6314058598786	0	1	0	1	0	40.6314058598786	0
1.65	40.5135817886974	0	1	0	1	0	40.5135817886974	0
1.66	40.398456119146	0	1	0	1	0	40.398456119146	0
1.67	40.2859880810458	0	1	0	1	0	40.2859880810458	0
1.68	40.1761378749362	0	1	0	1	0	40.1761378749362	0
1.69	40.0688666433562	0	1	0	1	0	40.0688666433562	0
1.7	39.9641364431376	0	1	0	1	0	39.9641364431376	0
1.71	39.8619102186719	0	1	0	1	0	39.8619102186719	0
1.72	39.7621517761088	0	1	0	1	0	39.7621517761088	0
1.73	39.6648257584502	0	1	0	1	0	39.6648257584502	0
1.74	39.5698976215023	0	1	0	1	0	39.5698976215023	0
1.75	39.4773336106532	0	1	0	1	0	39.4773336106532	0
1.76	39.387100738441	0	1	0	1	0	39.387100738441	0
1.77	39.2991667628833	0	1	0	1	0	39.2991667628833	0
1.78	39.2135001665366	0	1	0	1	0	39.2135001665366	0
1.79	39.1300701362578	0	1	0	1	0	39.1300701362578	0
1.8	39.0488465436402	0	1	0	1	0	39.0488465436402	0
1.81	38.9697999260986	0	1	0	1	0	38.9697999260986	0
1.82	38.8929014685767	0	1	0	1	0	38.8929014685767	0
1.83	38.8181229858558	0	1	0	1	0	38.8181229858558	0
1.84	38.7454369054393	0	1	0	1	0	38.7454369054393	0
1.85	38.6748162509925	0	1	0	1	0	38.6748162509925	0
1.86	38.6062346263172	0	1	0	1	0	38.6062346263172	0
1.87	38.5396661998396	0	1	0	1	0	38.5396661998396	0
1.88	38.4750856895938	0	1	0	1	0	38.4750856895938	0
1.89	38.4124683486821	0	1	0	1	0	38.4124683486821	0
1.9	38.3517899511941	0	1	0	1	0	38.3517899511941	0
1.91	38.2930267785682	0	1	0	1	0	38.2930267785682	0
1.92	38.2361556063796	0	1	0	1	0	38.2361556063796	0
1.93	38.1811536915387	0	1	0	1	0	38.1811536915387	0
1.94	38.1279987598857	0	1	0	1	0	38.1279987598857	0
1.95	38.0766689941663	0	1	0	1	0	38.0766689941663	0
1.96	38.0271430223767	0	1	0	1	0	38.0271430223767	0
1.97	37.9793999064621	0	1	0	1	0	37.9793999064621	0
1.98	37.933419131359	0	1	0	1	0	37.933419131359	0
1.99	37.8891805943667	0	1	0	1	0	37.8891805943667	0
2	37.8466645948386	0	1	0	1	0	37.8466645948386	0
2.01	37.8058518241809	0	1	0	1	0	37.8058518241809	0
2.02	37.766723356148	0	1	0	1	0	37.766723356148	0
2.03	37.7292606374255	0	1	0	1	0	37.7292606374255	0
2.04	37.6934454784892	0	1	0	1	0	37.6934454784892	0
2.05	37.6592600447325	0	1	0	1	0	37.6592600447325	0
2.06	37.6266868478521	0	1	0	1	0	37.6266868478521	0
2.07	37.5957087374826	0	1	0	1	0	37.5957087374826	0
2.08	37.5663088930735	0	1	0	1	0	37.5663088930735	0
2.09	37.5384708159987	0	1	0	1	0	37.5384708159987	0
2.1	37.5121783218915	0	1	0	1	0	37.5121783218915	0
2.11	37.487415533198	0	1	0	1	0	37.487415533198	0
2.12	37.4641668719409	0	1	0	1	0	37.4641668719409	0
2.13	37.4424170526866	0	1	0	1	0	37.4424170526866	0
2.14	37.4221510757112	0	1	0	1	0	37.4221510757112	0
2.15	37.4033542203548	0	1	0	1	0	37.4033542203548	0
2.16	37.3860120385627	0	1	0	1	0	37.3860120385627	0
2.17	37.3701103486038	0	1	0	1	0	37.3701103486038	0
2.18	37.3556352289619	0	1	0	1	0	37.3556352289619	0
2.19	37.3425730123955	0	1	0	1	0	37.3425730123955	0
2.2	37.3309102801581	0	1	0	1	0	37.3309102801581	0
2.21	37.3206338563767	0	1	0	1	0	37.3206338563767	0
2.22	37.311730802581	0	1	0	1	0	37.311730802581	0
2.23	37.3041884123814	0	1	0	1	0	37.3041884123814	0
2.24	37.2979942062877	0	1	0	1	0	37.2979942062877	0
2.25	37.2931359266675	0	1	0	1	0	37.2931359266675	0
2.26	37.2896015328376	0	1	0	1	0	37.2896015328376	0
2.27	37.2873791962855	0	1	0	1	0	37.2873791962855	0
2.28	37.2864572960163	0	1	0	1	0	37.2864572960163	0
2.29	37.2868244140222	0	1	0	1	0	37.2868244140222	0
2.3	37.288469330869	0	1	0	1	0	37.288469330869	0
2.31	37.2913810213989	0	1	0	1	0	37.2913810213989	0
2.32	37.2955486505427	0	1	0	1	0	37.2955486505427	0
2.33	37.3009615692411	0	1	0	1	0	37.3009615692411	0
2.34	37.30760931047	0	1	0	1	0	37.30760931047	0
2.35	37.3154815853673	0	1	0	1	0	37.3154815853673	0
2.36	37.3245682794586	0	1	0	1	0	37.3245682794586	0
2.37	37.3348594489777	0	1	0	1	0	37.3348594489777	0
2.38	37.3463453172807	0	1	0	1	0	37.3463453172807	0
2.39	37.3590162713496	0	1	0	1	0	37.3590162713496	0
2.4	37.372862858383	0	1	0	1	0	37.372862858383	0
2.41	37.3878757824728	0	1	0	1	0	37.3878757824728	0
2.42	37.4040459013622	0	1	0	1	0	37.4040459013622	0
2.43	37.4213642232843	0	1	0	1	0	37.4213642232843	0
2.44	37.439821903878	0	1	0	1	0	37.439821903878	0
2.45	37.45941024318	0	1	0	1	0	37.45941024318	0
2.46	37.48012068269	0	1	0	1	0	37.48012068269	0
2.47	37.5019448025068	0	1	0	1	0	37.5019448025068	0
2.48	37.5248743185339	0	1	0	1	0	37.5248743185339	0
2.49	37.5489010797528	0	1	0	1	0	37.5489010797528	0
2.5	37.5740170655613	0	1	0	1	0	37.5740170655613	0
2.51	37.6002143831756	0	1	0	1	0	37.6002143831756	0
2.52	37.627485265094	0	1	0	1	0	37.627485265094	0
2.53	37.6558220666213	0	1	0	1	0	37.6558220666213	0
2.54	37.6852172634513	0	1	0	1	0	37.6852172634513	0
2.55	37.7156634493059	0	1	0	1	0	37.7156634493059	0
2.56	37.7471533336301	0	1	0	1	0	37.7471533336301	0
2.57	37.7796797393409	0	1	0	1	0	37.7796797393409	0
2.58	37.8132356006275	0	1	0	1	0	37.8132356006275	0
2.59	37.8478139608039	0	1	0	1	0	37.8478139608039	0
2.6	37.8834079702098	0	1	0	1	0	37.8834079702098	0
2.61	37.9200108841607	0	1	0	1	0	37.9200108841607	0
2.62	37.9576160609443	0	1	0	1	0	37.9576160609443	0
2.63	37.9962169598629	0	1	0	1	0	37.9962169598629	0
2.64	38.0358071393205	0	1	0	1	0	38.0358071393205	0
2.65	38.0763802549525	0	1	0	1	0	38.0763802549525	0
2.66	38.1179300577983	0	1	0	1	0	38.1179300577983	0
2.67	38.1604503925148	0	1	0	1	0	38.1604503925148	0
2.68	38.2039351956297	0	1	0	1	0	38.2039351956297	0
2.69	38.2483784938337	0	1	0	1	0	38.2483784938337	0
2.7	38.2937744023111	0	1	0	1	0	38.2937744023111	0
2.71	38.340117123107	0	1	0	1	0	38.340117123107	0
2.72	38.3874009435303	0	1	0	1	0	38.3874009435303	0
2.73	38.4356202345926	0	1	0	1	0	38.4356202345926	0
2.74	38.4847694494803	0	1	0	1	0	38.4847694494803	0
2.75	38.534843122061	0	1	0	1	0	38.534843122061	0
2.76	38.5858358654213	0	1	0	1	0	38.5858358654213	0
2.77	38.6377423704374	0	1	0	1	0	38.6377423704374	0
2.78	38.6905574043756	0	1	0	1	0	38.6905574043756	0
2.79	38.7442758095236	0	1	0	1	0	38.7442758095236	0
2.8	38.7988925018505	0	1	0	1	0	38.7988925018505	0
2.81	38.8544024696963	0	1	0	1	0	38.8544024696963	0
2.82	38.9108007724881	0	1	0	1	0	38.9108007724881	0
2.83	38.9680825394845	0	1	0	1	0	38.9680825394845	0
2.84	39.026242968546	0	1	0	1	0	39.026242968546	0
2.85	39.0852773249317	0	1	0	1	0	39.0852773249317	0
2.86	39.1451809401208	0	1	0	1	0	39.1451809401208	0
2.87	39.205949210659	0	1	0	1	0	39.205949210659	0
2.88	39.2675775970288	0	1	0	1	0	39.2675775970288	0
2.89	39.3300616225434	0	1	0	1	0	39.3300616225434	0
2.9	39.3933968722634	0	1	0	1	0	39.3933968722634	0
2.91	39.4575789919361	0	1	0	1	0	39.4575789919361	0
2.92	39.5226036869556	0	1	0	1	0	39.5226036869556	0
2.93	39.588466721346	0	1	0	1	0	39.588466721346	0
2.94	39.6551639167633	0	1	0	1	0	39.6551639167633	0
2.95	39.7226911515191	0	1	0	1	0	39.7226911515191	0
2.96	39.7910443596236	0	1	0	1	0	39.7910443596236	0
2.97	39.8602195298479	0	1	0	1	0	39.8602195298479	0
2.98	39.9302127048047	0	1	0	1	0	39.9302127048047	0
2.99	40.0010199800488	0	1	0	1	0	40.0010199800488	0
3	40.0726375031939	0	1	0	1	0	40.0726375031939	0
3.01	40.1450614730485	0	1	0	1	0	40.1450614730485	0
3.02	40.2182881387678	0	1	0	1	0	40.2182881387678	0
3.03	40.2923137990231	0	1	0	1	0	40.2923137990231	0
3.04	40.3671348011876	0	1	0	1	0	40.3671348011876	0
3.05	40.4427475405376	0	1	0	1	0	40.4427475405376	0
3.06	40.51914845947	0	1	0	1	0	40.51914845947	0
3.07	40.596334046735	0	1	0	1	0	40.596334046735	0
3.08	40.6743008366832	0	1	0	1	0	40.6743008366832	0
3.09	40.7530454085281	0	1	0	1	0	40.7530454085281	0
3.1	40.8325643856224	0	1	0	1	0	40.8325643856224	0
3.11	40.9128544347483	0	1	0	1	0	40.9128544347483	0
3.12	40.9939122654216	0	1	0	1	0	40.9939122654216	0
3.13	41.0757346292091	0	1	0	1	0	41.0757346292091	0
3.14	41.1583183190587	0	1	0	1	0	41.1583183190587	0
3.15	41.2416601686429	0	1	0	1	0	41.2416601686429	0
3.16	41.3257570517143	0	1	0	1	0	41.3257570517143	0
3.17	41.4106058814733	0	1	0	1	0	41.4106058814733	0
3.18	41.4962036099482	0	1	0	1	0	41.4962036099482	0
3.19	41.5825472273863	0	1	0	1	0	41.5825472273863	0
3.2	41.6696337616566	0	1	0	1	0	41.6696337616566	0
3.21	41.7574602776642	0	1	0	1	0	41.7574602776642	0
3.22	41.8460238767749	0	1	0	1	0	41.8460238767749	0
3.23	41.9353216962512	0	1	0	1	0	41.9353216962512	0
3.24	42.0253509086975	0	1	0	1	0	42.0253509086975	0
3.25	42.1161087215174	0	1	0	1	0	42.1161087215174	0
3.26	42.2075923763793	0	1	0	1	0	42.2075923763793	0
3.27	42.2997991486925	0	1	0	1	0	42.2997991486925	0
3.28	42.3927263470934	0	1	0	1	0	42.3927263470934	0
3.29	42.4863713129397	0	1	0	1	0	42.4863713129397	0
3.3	42.5807314198155	0	1	0	1	0	42.5807314198155	0
3.31	42.6758040730437	0	1	0	1	0	42.6758040730437	0
3.32	42.7715867092085	0	1	0	1	0	42.7715867092085	0
3.33	42.8680767956861	0	1	0	1	0	42.8680767956861	0
3.34	42.9652718301831	0	1	0	1	0	42.9652718301831	0
3.35	43.0631693402847	0	1	0	1	0	43.0631693402847	0
3.36	43.1617668830091	0	1	0	1	0	43.1617668830091	0
3.37	43.2610620443718	0	1	0	1	0	43.2610620443718	0
3.38	43.3610524389559	0	1	0	1	0	43.3610524389559	0
3.39	43.4617357094909	0	1	0	1	0	43.4617357094909	0
3.4	43.5631095264393	0	1	0	1	0	43.5631095264393	0
3.41	43.6651715875892	0	1	0	1	0	43.6651715875892	0
3.42	43.7679196176552	0	1	0	1	0	43.7679196176552	0
3.43	43.871351367886	0	1	0	1	0	43.871351367886	0
3.44	43.9754646156784	0	1	0	1	0	43.9754646156784	0
3.45	44.0802571641987	0	1	0	1	0	44.0802571641987	0
3.46	44.1857268420099	0	1	0	1	0	44.1857268420099	0
3.47	44.2918715027061	0	1	0	1	0	44.2918715027061	0
3.48	44.3986890245527	0	1	0	1	0	44.3986890245527	0
3.49	44.5061773101331	0	1	0	1	0	44.5061773101331	0
3.5	44.614334286001	0	1	0	1	0	44.614334286001	0
3.51	44.7231579023391	0	1	0	1	0	44.7231579023391	0
3.52	44.8326461326237	0	1	0	1	0	44.8326461326237	0
3.53	44.9427969732943	0	1	0	1	0	44.9427969732943	0
3.54	45.0536084434296	0	1	0	1	0	45.0536084434296	0
3.55	45.1650785844286	0	1	0	1	0	45.1650785844286	0
3.56	45.277205459697	0	1	0	1	0	45.277205459697	0
3.57	45.389987154339	0	1	0	1	0	45.389987154339	0
3.58	45.5034217748544	0	1	0	1	0	45.5034217748544	0
3.59	45.6175074488403	0	1	0	1	0	45.6175074488403	0
3.6	45.7322423246985	0	1	0	1	0	45.7322423246985	0
3.61	45.8476245713468	0	1	0	1	0	45.8476245713468	0
3.62	45.9636523779364	0	1	0	1	0	45.9636523779364	0
3.63	46.0803239535725	0	1	0	1	0	46.0803239535725	0
3.64	46.1976375270403	0	1	0	1	0	46.1976375270403	0
3.65	46.3155913465359	0	1	0	1	0	46.3155913465359	0
3.66	46.4341836794007	0	1	0	1	0	46.4341836794007	0
3.67	46.5534128118605	0	1	0	1	0	46.5534128118605	0
3.68	46.6732770487692	0	1	0	1	0	46.6732770487692	0
3.69	46.7937747133564	0	1	0	1	0	46.7937747133564	0
3.7	46.9149041469787	0	1	0	1	0	46.9149041469787	0
3.71	47.0366637088758	0	1	0	1	0	47.0366637088758	0
3.72	47.1590517759299	0	1	0	1	0	47.1590517759299	0
3.73	47.2820667424293	0	1	0	1	0	47.2820667424293	0
3.74	47.4057070198359	0	1	0	1	0	47.4057070198359	0
3.75	47.5299710365556	0	1	0	1	0	47.5299710365556	0
3.76	47.6548572377138	0	1	0	1	0	47.6548572377138	0
3.77	47.780364084933	0	1	0	1	0	47.780364084933	0
3.78	47.9064900561148	0	1	0	1	0	47.9064900561148	0
3.79	48.0332336452254	0	1	0	1	0	48.0332336452254	0
3.8	48.1605933620836	0	1	0	1	0	48.1605933620836	0
3.81	48.2885677321537	0	1	0	1	0	48.2885677321537	0
3.82	48.4171552963396	0	1	0	1	0	48.4171552963396	0
3.83	48.5463546107841	0	1	0	1	0	48.5463546107841	0
3.84	48.6761642466701	0	1	0	1	0	48.6761642466701	0
3.85	48.8065827900255	0	1	0	1	0	48.8065827900255	0
3.86	48.9376088415305	0	1	0	1	0	48.9376088415305	0
3.87	49.0692410163288	0	1	0	1	0	49.0692410163288	0
3.88	49.2014779438409	0	1	0	1	0	49.2014779438409	0
3.89	49.3343182675804	0	1	0	1	0	49.3343182675804	0
3.9	49.4677606449741	0	1	0	1	0	49.4677606449741	0
3.91	49.601803747183	0	1	0	1	0	49.601803747183	0
3.92	49.7364462589281	0	1	0	1	0	49.7364462589281	0
3.93	49.8716868783173	0	1	0	1	0	49.8716868783173	0
3.94	50.0075243166757	0	1	0	1	0	50.0075243166757	0
3.95	50.1439572983783	0	1	0	1	0	50.1439572983783	0
3.96	50.280984560685	0	1	0	1	0	50.280984560685	0
3.97	50.4186048535789	0	1	0	1	0	50.4186048535789	0
3.98	50.5568169396058	0	1	0	1	0	50.5568169396058	0
3.99	50.695619593717	0	1	0	1	0	50.695619593717	0
4	50.8350116031146	0	1	0	1	0	50.8350116031146	0
4.01	50.9749917670982	0	1	0	1	0	50.9749917670982	0
4.02	51.1155588969147	0	1	0	1	0	51.1155588969147	0
4.03	51.25671181561	0	1	0	1	0	51.25671181561	0
4.04	51.3984493578831	0	1	0	1	0	51.3984493578831	0
4.05	51.5407703699422	0	1	0	1	0	51.5407703699422	0
4.06	51.6836737093628	0	1	0	1	0	51.6836737093628	0
4.07	51.8271582449481	0	1	0	1	0	51.8271582449481	0
4.08	51.9712228565915	0	1	0	1	0	51.9712228565915	0
4.09	52.1158664351412	0	1	0	1	0	52.1158664351412	0
4.1	52.2610878822661	0	1	0	1	0	52.2610878822661	0
4.11	52.4068861103247	0	1	0	1	0	52.4068861103247	0
4.12	52.5532600422348	0	1	0	1	0	52.5532600422348	0
4.13	52.7002086113464	0	1	0	1	0	52.7002086113464	0
4.14	52.847730761315	0	1	0	1	0	52.847730761315	0
4.15	52.9958254459778	0	1	0	1	0	52.9958254459778	0
4.16	53.1444916292314	0	1	0	1	0	53.1444916292314	0
4.17	53.2937282849108	0	1	0	1	0	53.2937282849108	0
4.18	53.4435343966709	0	1	0	1	0	53.4435343966709	0
4.19	53.5939089578692	0	1	0	1	0	53.5939089578692	0
4.2	53.7448509714502	0	1	0	1	0	53.7448509714502	0
4.21	53.8963594498318	0	1	0	1	0	53.8963594498318	0
4.22	54.0484334147925	0	1	0	1	0	54.0484334147925	0
4.23	54.2010718973614	0	1	0	1	0	54.2010718973614	0
4.24	54.3542739377088	0	1	0	1	0	54.3542739377088	0
4.25	54.5080385850387	0	1	0	1	0	54.5080385850387	0
4.26	54.6623648974826	0	1	0	1	0	54.6623648974826	0
4.27	54.8172519419954	0	1	0	1	0	54.8172519419954	0
4.28	54.9726987942519	0	1	0	1	0	54.9726987942519	0
4.29	55.1287045385451	0	1	0	1	0	55.1287045385451	0
4.3	55.2852682676866	0	1	0	1	0	55.2852682676866	0
4.31	55.4423890829072	0	1	0	1	0	55.4423890829072	0
4.32	55.6000660937596	0	1	0	1	0	55.6000660937596	0
4.33	55.7582984180223	0	1	0	1	0	55.7582984180223	0
4.34	55.917085181605	0	1	0	1	0	55.917085181605	0
4.35	56.0764255184551	0	1	0	1	0	56.0764255184551	0
4.36	56.2363185704651	0	1	0	1	0	56.2363185704651	0
4.37	56.3967634873823	0	1	0	1	0	56.3967634873823	0
4.38	56.5577594267189	0	1	0	1	0	56.5577594267189	0
4.39	56.7193055536633	0	1	0	1	0	56.7193055536633	0
4.4	56.8814010409932	0	1	0	1	0	56.8814010409932	0
4.41	57.0440450689895	0	1	0	1	0	57.0440450689895	0
4.42	57.2072368253514	0	1	0	1	0	57.2072368253514	0
4.43	57.3709755051126	0	1	0	1	0	57.3709755051126	0
4.44	57.5352603105586	0	1	0	1	0	57.5352603105586	0
4.45	57.7000904511456	0	1	0	1	0	57.7000904511456	0
4.46	57.8654651434198	0	1	0	1	0	57.8654651434198	0
4.47	58.031383610938	0	1	0	1	0	58.031383610938	0
4.48	58.1978450841899	0	1	0	1	0	58.1978450841899	0
4.49	58.3648488005202	0	1	0	1	0	58.3648488005202	0
4.5	58.5323940040528	0	1	0	1	0	58.5323940040528	0
4.51	58.7004799456158	0	1	0	1	0	58.7004799456158	0
4.52	58.8691058826669	0	1	0	1	0	58.8691058826669	0
4.53	59.0382710792206	0	1	0	1	0	59.0382710792206	0
4.54	59.2079748057758	0	1	0	1	0	59.2079748057758	0
4.55	59.3782163392448	0	1	0	1	0	59.3782163392448	0
4.56	59.5489949628823	0	1	0	1	0	59.5489949628823	0
4.57	59.720309966217	0	1	0	1	0	59.720309966217	0
4.58	59.8921606449822	0	1	0	1	0	59.8921606449822	0
4.59	60.0645463010489	0	1	0	1	0	60.0645463010489	0
4.6	60.2374662423587	0	1	0	1	0	60.2374662423587	0
4.61	60.4109197828578	0	1	0	1	0	60.4109197828578	0
4.62	60.5849062424326	0	1	0	1	0	60.5849062424326	0
4.63	60.7594249468451	0	1	0	1	0	60.7594249468451	0
4.64	60.9344752276696	0	1	0	1	0	60.9344752276696	0
4.65	61.1100564222303	0	1	0	1	0	61.1100564222303	0
4.66	61.2861678735398	0	1	0	1	0	61.2861678735398	0
4.67	61.4628089302378	0	1	0	1	0	61.4628089302378	0
4.68	61.6399789465313	0	1	0	1	0	61.6399789465313	0
4.69	61.817677282135	0	1	0	1	0	61.817677282135	0
4.7	61.995903302213	0	1	0	1	0	61.995903302213	0
4.71	62.1746563773207	0	1	0	1	0	62.1746563773207	0
4.72	62.3539358833477	0	1	0	1	0	62.3539358833477	0
4.73	62.5337412014617	0	1	0	1	0	62.5337412014617	0
4.74	62.7140717180523	0	1	0	1	0	62.7140717180523	0
4.75	62.8949268246767	0	1	0	1	0	62.8949268246767	0
4.76	63.0763059180049	0	1	0	1	0	63.0763059180049	0
4.77	63.2582083997662	0	1	0	1	0	63.2582083997662	0
4.78	63.4406336766964	0	1	0	1	0	63.4406336766964	0
4.79	63.6235811604855	0	1	0	1	0	63.6235811604855	0
4.8	63.8070502677262	0	1	0	1	0	63.8070502677262	0
4.81	63.9910404198625	0	1	0	1	0	63.9910404198625	0
4.82	64.1755510431401	0	1	0	1	0	64.1755510431401	0
4.83	64.3605815685561	0	1	0	1	0	64.3605815685561	0
4.84	64.5461314318099	0	1	0	1	0	64.5461314318099	0
4.85	64.7322000732553	0	1	0	1	0	64.7322000732553	0
4.86	64.918786937852	0	1	0	1	0	64.918786937852	0
4.87	65.1058914751187	0	1	0	1	0	65.1058914751187	0
4.88	65.293513139086	0	1	0	1	0	65.293513139086	0
4.89	65.4816513882507	0	1	0	1	0	65.4816513882507	0
4.9	65.6703056855301	0	1	0	1	0	65.6703056855301	0
4.91	65.8594754982167	0	1	0	1	0	65.8594754982167	0
4.92	66.0491602979342	0	1	0	1	0	66.0491602979342	0
4.93	66.2393595605931	0	1	0	1	0	66.2393595605931	0
