# GHZ S RI R 50
1	48.9466605077298	0	1	0	1	0	48.9466605077298	0
1.01	48.5425133989484	0	1	0	1	0	48.5425133989484	0
1.02	48.1473282382613	0	1	0	1	0	48.1473282382613	0
1.03	47.7608541705515	0	1	0	1	0	47.7608541705515	0
1.04	47.3828499889754	0	1	0	1	0	47.3828499889754	0
1.05	47.0130836755217	0	1	0	1	0	47.0130836755217	0
1.06	46.6513319675756	0	1	0	1	0	46.6513319675756	0
1.07	46.2973799487885	0	1	0	1	0	46.2973799487885	0
1.08	45.9510206626763	0	1	0	1	0	45.9510206626763	0
1.09	45.6120547474885	0	1	0	1	0	45.6120547474885	0
1.1	45.2802900909926	0	1	0	1	0	45.2802900909926	0
1.11	44.9555415039196	0	1	0	1	0	44.9555415039196	0
1.12	44.6376304109029	0	1	0	1	0	44.6376304109029	0
1.13	44.3263845578278	0	1	0	1	0	44.3263845578278	0
1.14	44.0216377345836	0	1	0	1	0	44.0216377345836	0
1.15	43.7232295122809	0	1	0	1	0	43.7232295122809	0
1.16	43.4310049940609	0	1	0	1	0	43.4310049940609	0
1.17	43.1448145786839	0	1	0	1	0	43.1448145786839	0
1.18	42.8645137361389	0	1	0	1	0	42.8645137361389	0
1.19	42.5899627945662	0	1	0	1	0	42.5899627945662	0
1.2	42.3210267378349	0	1	0	1	0	42.3210267378349	0
1.21	42.0575750131573	0	1	0	1	0	42.0575750131573	0
1.22	41.7994813481649	0	1	0	1	0	41.7994813481649	0
1.23	41.5466235769078	0	1	0	1	0	41.5466235769078	0
1.24	41.2988834742731	0	1	0	1	0	41.2988834742731	0
1.25	41.0561465983514	0	1	0	1	0	41.0561465983514	0
1.26	40.8183021403101	0	1	0	1	0	40.8183021403101	0
1.27	40.5852427813583	0	1	0	1	0	40.5852427813583	0
1.28	40.3568645564174	0	1	0	1	0	40.3568645564174	0
1.29	40.1330667241323	0	1	0	1	0	40.1330667241323	0
1.3	39.9137516428816	0	1	0	1	0	39.9137516428816	0
1.31	39.6988246524677	0	1	0	1	0	39.6988246524677	0
1.32	39.4881939611837	0	1	0	1	0	39.4881939611837	0
1.33	39.2817705379758	0	1	0	1	0	39.2817705379758	0
1.34	39.0794680094332	0	1	0	1	0	39.0794680094332	0
1.35	38.8812025613576	0	1	0	1	0	38.8812025613576	0
1.36	38.6868928446741	0	1	0	1	0	38.6868928446741	0
1.37	38.496459885463	0	1	0	1	0	38.496459885463	0
1.38	38.3098269989042	0	1	0	1	0	38.3098269989042	0
1.39	38.1269197069346	0	1	0	1	0	38.1269197069346	0
1.4	37.947665659436	0	1	0	1	0	37.947665659436	0
1.41	37.7719945587758	0	1	0	1	0	37.7719945587758	0
1.42	37.5998380875362	0	1	0	1	0	37.5998380875362	0
1.43	37.4311298392763	0	1	0	1	0	37.4311298392763	0
1.44	37.2658052521786	0	1	0	1	0	37.2658052521786	0
1.45	37.1038015454412	0	1	0	1	0	37.1038015454412	0
1.46	36.9450576582841	0	1	0	1	0	36.9450576582841	0
1.47	36.7895141914451	0	1	0	1	0	36.7895141914451	0
1.48	36.6371133510477	0	1	0	1	0	36.6371133510477	0
1.49	36.4877988947286	0	1	0	1	0	36.4877988947286	0
1.5	36.3415160799209	0	1	0	1	0	36.3415160799209	0
1.51	36.1982116141922	0	1	0	1	0	36.1982116141922	0
1.52	36.0578336075421	0	1	0	1	0	36.0578336075421	0
1.53	35.9203315265718	0	1	0	1	0	35.9203315265718	0
1.54	35.7856561504383	0	1	0	1	0	35.7856561504383	0
1.55	35.6537595285137	0	1	0	1	0	35.6537595285137	0
1.56	35.5245949396737	0	1	0	1	0	35.5245949396737	0
1.57	35.3981168531408	0	1	0	1	0	35.3981168531408	0
1.58	35.2742808908157	0	1	0	1	0	35.2742808908157	0
1.59	35.1530437910289	0	1	0	1	0	35.1530437910289	0
1.6	35.0343633736531	0	1	0	1	0	35.0343633736531	0
1.61	34.9181985065142	0	1	0	1	0	34.9181985065142	0
1.62	34.8045090730472	0	1	0	1	0	34.8045090730472	0
1.63	34.693255941143	0	1	0	1	0	34.693255941143	0
1.64	34.584400933134	0	1	0	1	0	34.584400933134	0
1.65	34.4779067968718	0	1	0	1	0	34.4779067968718	0
1.66	34.3737371778503	0	1	0	1	0	34.3737371778503	0
1.67	34.2718565923298	0	1	0	1	0	34.2718565923298	0
1.68	34.1722304014218	0	1	0	1	0	34.1722304014218	0
1.69	34.0748247860927	0	1	0	1	0	34.0748247860927	0
1.7	33.9796067230515	0	1	0	1	0	33.9796067230515	0
1.71	33.8865439614812	0	1	0	1	0	33.8865439614812	0
1.72	33.7956050005843	0	1	0	1	0	33.7956050005843	0
1.73	33.7067590679052	0	1	0	1	0	33.7067590679052	0
1.74	33.6199760984011	0	1	0	1	0	33.6199760984011	0
1.75	33.5352267142301	0	1	0	1	0	33.5352267142301	0
1.76	33.4524822052288	0	1	0	1	0	33.4524822052288	0
1.77	33.3717145100507	0	1	0	1	0	33.3717145100507	0
1.78	33.2928961979416	0	1	0	1	0	33.2928961979416	0
1.79	33.216000451125	0	1	0	1	0	33.216000451125	0
1.8	33.141001047775	0	1	0	1	0	33.141001047775	0
1.81	33.0678723455534	0	1	0	1	0	33.0678723455534	0
1.82	32.99658926569	0	1	0	1	0	32.99658926569	0
1.83	32.9271272775846	0	1	0	1	0	32.9271272775846	0
1.84	32.8594623839106	0	1	0	1	0	32.8594623839106	0
1.85	32.7935711062027	0	1	0	1	0	32.7935711062027	0
1.86	32.7294304709089	0	1	0	1	0	32.7294304709089	0
1.87	32.6670179958899	0	1	0	1	0	32.6670179958899	0
1.88	32.6063116773498	0	1	0	1	0	32.6063116773498	0
1.89	32.5472899771818	0	1	0	1	0	32.5472899771818	0
1.9	32.4899318107124	0	1	0	1	0	32.4899318107124	0
1.91	32.4342165348325	0	1	0	1	0	32.4342165348325	0
1.92	32.3801239364975	0	1	0	1	0	32.3801239364975	0
1.93	32.3276342215858	0	1	0	1	0	32.3276342215858	0
1.94	32.2767280041025	0	1	0	1	0	32.2767280041025	0
1.95	32.2273862957137	0	1	0	1	0	32.2273862957137	0
1.96	32.1795904956027	0	1	0	1	0	32.1795904956027	0
1.97	32.1333223806344	0	1	0	1	0	32.1333223806344	0
1.98	32.0885640958179	0	1	0	1	0	32.0885640958179	0
1.99	32.0452981450563	0	1	0	1	0	32.0452981450563	0
2	32.0035073821749	0	1	0	1	0	32.0035073821749	0
2.01	31.9631750022163	0	1	0	1	0	31.9631750022163	0
2.02	31.9242845329945	0	1	0	1	0	31.9242845329945	0
2.03	31.8868198268989	0	1	0	1	0	31.8868198268989	0
2.04	31.8507650529382	0	1	0	1	0	31.8507650529382	0
2.05	31.8161046890189	0	1	0	1	0	31.8161046890189	0
2.06	31.7828235144472	0	1	0	1	0	31.7828235144472	0
2.07	31.750906602649	0	1	0	1	0	31.750906602649	0
2.08	31.7203393140997	0	1	0	1	0	31.7203393140997	0
2.09	31.6911072894571	0	1	0	1	0	31.6911072894571	0
2.1	31.6631964428902	0	1	0	1	0	31.6631964428902	0
2.11	31.6365929555978	0	1	0	1	0	31.6365929555978	0
2.12	31.6112832695112	0	1	0	1	0	31.6112832695112	0
2.13	31.5872540811729	0	1	0	1	0	31.5872540811729	0
2.14	31.5644923357884	0	1	0	1	0	31.5644923357884	0
2.15	31.542985221443	0	1	0	1	0	31.542985221443	0
2.16	31.5227201634798	0	1	0	1	0	31.5227201634798	0
2.17	31.5036848190326	0	1	0	1	0	31.5036848190326	0
2.18	31.48586707171	0	1	0	1	0	31.48586707171	0
2.19	31.4692550264246	0	1	0	1	0	31.4692550264246	0
2.2	31.453837004363	0	1	0	1	0	31.453837004363	0
2.21	31.4396015380934	0	1	0	1	0	31.4396015380934	0
2.22	31.4265373668042	0	1	0	1	0	31.4265373668042	0
2.23	31.4146334316714	0	1	0	1	0	31.4146334316714	0
2.24	31.4038788713502	0	1	0	1	0	31.4038788713502	0
2.25	31.3942630175862	0	1	0	1	0	31.3942630175862	0
2.26	31.3857753909437	0	1	0	1	0	31.3857753909437	0
2.27	31.3784056966468	0	1	0	1	0	31.3784056966468	0
2.28	31.3721438205294	0	1	0	1	0	31.3721438205294	0
2.29	31.3669798250924	0	1	0	1	0	31.3669798250924	0
2.3	31.3629039456626	0	1	0	1	0	31.3629039456626	0
2.31	31.359906586652	0	1	0	1	0	31.359906586652	0
2.32	31.3579783179138	0	1	0	1	0	31.3579783179138	0
2.33	31.3571098711923	0	1	0	1	0	31.3571098711923	0
2.34	31.3572921366633	0	1	0	1	0	31.3572921366633	0
2.35	31.3585161595636	0	1	0	1	0	31.3585161595636	0
2.36	31.3607731369055	0	1	0	1	0	31.3607731369055	0
2.37	31.3640544142751	0	1	0	1	0	31.3640544142751	0
2.38	31.3683514827106	0	1	0	1	0	31.3683514827106	0
2.39	31.3736559756598	0	1	0	1	0	31.3736559756598	0
2.4	31.3799596660131	0	1	0	1	0	31.3799596660131	0
2.41	31.3872544632101	0	1	0	1	0	31.3872544632101	0
2.42	31.3955324104191	0	1	0	1	0	31.3955324104191	0
2.43	31.4047856817847	0	1	0	1	0	31.4047856817847	0
2.44	31.4150065797445	0	1	0	1	0	31.4150065797445	0
2.45	31.4261875324103	0	1	0	1	0	31.4261875324103	0
2.46	31.4383210910142	0	1	0	1	0	31.4383210910142	0
2.47	31.4513999274162	0	1	0	1	0	31.4513999274162	0
2.48	31.4654168316719	0	1	0	1	0	31.4654168316719	0
2.49	31.4803647096594	0	1	0	1	0	31.4803647096594	0
2.5	31.4962365807628	0	1	0	1	0	31.4962365807628	0
2.51	31.513025575611	0	1	0	1	0	31.513025575611	0
2.52	31.5307249338706	0	1	0	1	0	31.5307249338706	0
2.53	31.5493280020908	0	1	0	1	0	31.5493280020908	0
2.54	31.5688282315999	0	1	0	1	0	31.5688282315999	0
2.55	31.5892191764499	0	1	0	1	0	31.5892191764499	0
2.56	31.6104944914113	0	1	0	1	0	31.6104944914113	0
2.57	31.6326479300127	0	1	0	1	0	31.6326479300127	0
2.58	31.6556733426273	0	1	0	1	0	31.6556733426273	0
2.59	31.6795646746033	0	1	0	1	0	31.6795646746033	0
2.6	31.7043159644373	0	1	0	1	0	31.7043159644373	0
2.61	31.72992134199	0	1	0	1	0	31.72992134199	0
2.62	31.7563750267424	0	1	0	1	0	31.7563750267424	0
2.63	31.7836713260924	0	1	0	1	0	31.7836713260924	0
2.64	31.8118046336893	0	1	0	1	0	31.8118046336893	0
2.65	31.8407694278064	0	1	0	1	0	31.8407694278064	0
2.66	31.8705602697508	0	1	0	1	0	31.8705602697508	0
2.67	31.9011718023079	0	1	0	1	0	31.9011718023079	0
2.68	31.9325987482217	0	1	0	1	0	31.9325987482217	0
2.69	31.9648359087083	0	1	0	1	0	31.9648359087083	0
2.7	31.9978781620029	0	1	0	1	0	31.9978781620029	0
2.71	32.0317204619385	0	1	0	1	0	32.0317204619385	0
2.72	32.0663578365567	0	1	0	1	0	32.0663578365567	0
2.73	32.1017853867483	0	1	0	1	0	32.1017853867483	0
2.74	32.1379982849236	0	1	0	1	0	32.1379982849236	0
2.75	32.1749917737128	0	1	0	1	0	32.1749917737128	0
2.76	32.2127611646933	0	1	0	1	0	32.2127611646933	0
2.77	32.2513018371453	0	1	0	1	0	32.2513018371453	0
2.78	32.2906092368343	0	1	0	1	0	32.2906092368343	0
2.79	32.3306788748195	0	1	0	1	0	32.3306788748195	0
2.8	32.3715063262876	0	1	0	1	0	32.3715063262876	0
2.81	32.4130872294122	0	1	0	1	0	32.4130872294122	0
2.82	32.4554172842367	0	1	0	1	0	32.4554172842367	0
2.83	32.4984922515813	0	1	0	1	0	32.4984922515813	0
2.84	32.5423079519729	0	1	0	1	0	32.5423079519729	0
2.85	32.5868602645977	0	1	0	1	0	32.5868602645977	0
2.86	32.6321451262757	0	1	0	1	0	32.6321451262757	0
2.87	32.6781585304565	0	1	0	1	0	32.6781585304565	0
2.88	32.7248965262363	0	1	0	1	0	32.7248965262363	0
2.89	32.772355217395	0	1	0	1	0	32.772355217395	0
2.9	32.8205307614537	0	1	0	1	0	32.8205307614537	0
2.91	32.8694193687508	0	1	0	1	0	32.8694193687508	0
2.92	32.919017301538	0	1	0	1	0	32.919017301538	0
2.93	32.9693208730943	0	1	0	1	0	32.9693208730943	0
2.94	33.0203264468581	0	1	0	1	0	33.0203264468581	0
2.95	33.0720304355772	0	1	0	1	0	33.0720304355772	0
2.96	33.1244293004757	0	1	0	1	0	33.1244293004757	0
2.97	33.177519550438	0	1	0	1	0	33.177519550438	0
2.98	33.2312977412092	0	1	0	1	0	33.2312977412092	0
2.99	33.2857604746112	0	1	0	1	0	33.2857604746112	0
3	33.3409043977751	0	1	0	1	0	33.3409043977751	0
3.01	33.3967262023884	0	1	0	1	0	33.3967262023884	0
3.02	33.4532226239572	0	1	0	1	0	33.4532226239572	0
3.03	33.5103904410833	0	1	0	1	0	33.5103904410833	0
3.04	33.5682264747554	0	1	0	1	0	33.5682264747554	0
3.05	33.6267275876539	0	1	0	1	0	33.6267275876539	0
3.06	33.6858906834701	0	1	0	1	0	33.6858906834701	0
3.07	33.7457127062382	0	1	0	1	0	33.7457127062382	0
3.08	33.80619063968	0	1	0	1	0	33.80619063968	0
3.09	33.8673215065631	0	1	0	1	0	33.8673215065631	0
3.1	33.9291023680711	0	1	0	1	0	33.9291023680711	0
3.11	33.9915303231857	0	1	0	1	0	33.9915303231857	0
3.12	34.0546025080812	0	1	0	1	0	34.0546025080812	0
3.13	34.1183160955303	0	1	0	1	0	34.1183160955303	0
3.14	34.1826682943215	0	1	0	1	0	34.1826682943215	0
3.15	34.2476563486871	0	1	0	1	0	34.2476563486871	0
3.16	34.3132775377425	0	1	0	1	0	34.3132775377425	0
3.17	34.3795291749361	0	1	0	1	0	34.3795291749361	0
3.18	34.4464086075094	0	1	0	1	0	34.4464086075094	0
3.19	34.5139132159673	0	1	0	1	0	34.5139132159673	0
3.2	34.5820404135584	0	1	0	1	0	34.5820404135584	0
3.21	34.6507876457651	0	1	0	1	0	34.6507876457651	0
3.22	34.7201523898026	0	1	0	1	0	34.7201523898026	0
3.23	34.7901321541284	0	1	0	1	0	34.7901321541284	0
3.24	34.8607244779595	0	1	0	1	0	34.8607244779595	0
3.25	34.9319269307997	0	1	0	1	0	34.9319269307997	0
3.26	35.0037371119745	0	1	0	1	0	35.0037371119745	0
3.27	35.0761526501759	0	1	0	1	0	35.0761526501759	0
3.28	35.1491712030139	0	1	0	1	0	35.1491712030139	0
3.29	35.2227904565775	0	1	0	1	0	35.2227904565775	0
3.3	35.2970081250034	0	1	0	1	0	35.2970081250034	0
3.31	35.3718219500515	0	1	0	1	0	35.3718219500515	0
3.32	35.4472297006899	0	1	0	1	0	35.4472297006899	0
3.33	35.5232291726856	0	1	0	1	0	35.5232291726856	0
3.34	35.5998181882037	0	1	0	1	0	35.5998181882037	0
3.35	35.6769945954132	0	1	0	1	0	35.6769945954132	0
3.36	35.7547562681004	0	1	0	1	0	35.7547562681004	0
3.37	35.8331011052881	0	1	0	1	0	35.8331011052881	0
3.38	35.9120270308633	0	1	0	1	0	35.9120270308633	0
3.39	35.9915319932094	0	1	0	1	0	35.9915319932094	0
3.4	36.0716139648468	0	1	0	1	0	36.0716139648468	0
3.41	36.1522709420785	0	1	0	1	0	36.1522709420785	0
3.42	36.2335009446426	0	1	0	1	0	36.2335009446426	0
3.43	36.3153020153706	0	1	0	1	0	36.3153020153706	0
3.44	36.3976722198517	0	1	0	1	0	36.3976722198517	0
3.45	36.4806096461034	0	1	0	1	0	36.4806096461034	0
3.46	36.5641124042465	0	1	0	1	0	36.5641124042465	0
3.47	36.6481786261876	0	1	0	1	0	36.6481786261876	0
3.48	36.7328064653055	0	1	0	1	0	36.7328064653055	0
3.49	36.8179940961436	0	1	0	1	0	36.8179940961436	0
3.5	36.9037397141078	0	1	0	1	0	36.9037397141078	0
3.51	36.9900415351691	0	1	0	1	0	36.9900415351691	0
3.52	37.0768977955716	0	1	0	1	0	37.0768977955716	0
3.53	37.1643067515453	0	1	0	1	0	37.1643067515453	0
3.54	37.2522666790238	0	1	0	1	0	37.2522666790238	0
3.55	37.3407758733668	0	1	0	1	0	37.3407758733668	0
3.56	37.4298326490872	0	1	0	1	0	37.4298326490872	0
3.57	37.5194353395831	0	1	0	1	0	37.5194353395831	0
3.58	37.6095822968736	0	1	0	1	0	37.6095822968736	0
3.59	37.7002718913398	0	1	0	1	0	37.7002718913398	0
3.6	37.7915025114699	0	1	0	1	0	37.7915025114699	0
3.61	37.8832725636078	0	1	0	1	0	37.8832725636078	0
3.62	37.9755804717072	0	1	0	1	0	37.9755804717072	0
3.63	38.0684246770884	0	1	0	1	0	38.0684246770884	0
3.64	38.1618036382003	0	1	0	1	0	38.1618036382003	0
3.65	38.2557158303854	0	1	0	1	0	38.2557158303854	0
3.66	38.3501597456492	0	1	0	1	0	38.3501597456492	0
3.67	38.4451338924328	0	1	0	1	0	38.4451338924328	0
3.68	38.5406367953904	0	1	0	1	0	38.5406367953904	0
3.69	38.6366669951687	0	1	0	1	0	38.6366669951687	0
3.7	38.7332230481915	0	1	0	1	0	38.7332230481915	0
3.71	38.8303035264464	0	1	0	1	0	38.8303035264464	0
3.72	38.9279070172762	0	1	0	1	0	38.9279070172762	0
3.73	39.026032123173	0	1	0	1	0	39.026032123173	0
3.74	39.1246774615752	0	1	0	1	0	39.1246774615752	0
3.75	39.2238416646686	0	1	0	1	0	39.2238416646686	0
3.76	39.3235233791903	0	1	0	1	0	39.3235233791903	0
3.77	39.4237212662356	0	1	0	1	0	39.4237212662356	0
3.78	39.5244340010681	0	1	0	1	0	39.5244340010681	0
3.79	39.6256602729328	0	1	0	1	0	39.6256602729328	0
3.8	39.727398784872	0	1	0	1	0	39.727398784872	0
3.81	39.8296482535446	0	1	0	1	0	39.8296482535446	0
3.82	39.9324074090474	0	1	0	1	0	39.9324074090474	0
3.83	40.0356749947399	0	1	0	1	0	40.0356749947399	0
3.84	40.1394497670719	0	1	0	1	0	40.1394497670719	0
3.85	40.2437304954127	0	1	0	1	0	40.2437304954127	0
3.86	40.3485159618848	0	1	0	1	0	40.3485159618848	0
3.87	40.4538049611982	0	1	0	1	0	40.4538049611982	0
3.88	40.5595963004886	0	1	0	1	0	40.5595963004886	0
3.89	40.6658887991578	0	1	0	1	0	40.6658887991578	0
3.9	40.7726812887164	0	1	0	1	0	40.7726812887164	0
3.91	40.8799726126285	0	1	0	1	0	40.8799726126285	0
3.92	40.9877616261598	0	1	0	1	0	40.9877616261598	0
3.93	41.0960471962273	0	1	0	1	0	41.0960471962273	0
3.94	41.2048282012513	0	1	0	1	0	41.2048282012513	0
3.95	41.3141035310098	0	1	0	1	0	41.3141035310098	0
3.96	41.4238720864954	0	1	0	1	0	41.4238720864954	0
3.97	41.5341327797734	0	1	0	1	0	41.5341327797734	0
3.98	41.6448845338436	0	1	0	1	0	41.6448845338436	0
3.99	41.7561262825025	0	1	0	1	0	41.7561262825025	0
4	41.8678569702087	0	1	0	1	0	41.8678569702087	0
4.01	41.9800755519499	0	1	0	1	0	41.9800755519499	0
4.02	42.0927809931119	0	1	0	1	0	42.0927809931119	0
4.03	42.2059722693498	0	1	0	1	0	42.2059722693498	0
4.04	42.3196483664603	0	1	0	1	0	42.3196483664603	0
4.05	42.4338082802575	0	1	0	1	0	42.4338082802575	0
4.06	42.5484510164484	0	1	0	1	0	42.5484510164484	0
4.07	42.6635755905124	0	1	0	1	0	42.6635755905124	0
4.08	42.7791810275808	0	1	0	1	0	42.7791810275808	0
4.09	42.895266362319	0	1	0	1	0	42.895266362319	0
4.1	43.0118306388105	0	1	0	1	0	43.0118306388105	0
4.11	43.128872910442	0	1	0	1	0	43.128872910442	0
4.12	43.2463922397908	0	1	0	1	0	43.2463922397908	0
4.13	43.364387698513	0	1	0	1	0	43.364387698513	0
4.14	43.4828583672345	0	1	0	1	0	43.4828583672345	0
4.15	43.6018033354426	0	1	0	1	0	43.6018033354426	0
4.16	43.7212217013794	0	1	0	1	0	43.7212217013794	0
4.17	43.8411125719372	0	1	0	1	0	43.8411125719372	0
4.18	43.9614750625544	0	1	0	1	0	43.9614750625544	0
4.19	44.0823082971143	0	1	0	1	0	44.0823082971143	0
4.2	44.2036114078439	0	1	0	1	0	44.2036114078439	0
4.21	44.3253835352153	0	1	0	1	0	44.3253835352153	0
4.22	44.4476238278475	0	1	0	1	0	44.4476238278475	0
4.23	44.5703314424106	0	1	0	1	0	44.5703314424106	0
4.24	44.6935055435306	0	1	0	1	0	44.6935055435306	0
4.25	44.8171453036958	0	1	0	1	0	44.8171453036958	0
4.26	44.9412499031646	0	1	0	1	0	44.9412499031646	0
4.27	45.0658185298745	0	1	0	1	0	45.0658185298745	0
4.28	45.1908503793522	0	1	0	1	0	45.1908503793522	0
4.29	45.3163446546256	0	1	0	1	0	45.3163446546256	0
4.3	45.4423005661362	0	1	0	1	0	45.4423005661362	0
4.31	45.5687173316529	0	1	0	1	0	45.5687173316529	0
4.32	45.6955941761879	0	1	0	1	0	45.6955941761879	0
4.33	45.8229303319123	0	1	0	1	0	45.8229303319123	0
4.34	45.9507250380743	0	1	0	1	0	45.9507250380743	0
4.35	46.0789775409173	0	1	0	1	0	46.0789775409173	0
4.36	46.2076870935998	0	1	0	1	0	46.2076870935998	0
4.37	46.3368529561167	0	1	0	1	0	46.3368529561167	0
4.38	46.4664743952206	0	1	0	1	0	46.4664743952206	0
4.39	46.5965506843454	0	1	0	1	0	46.5965506843454	0
4.4	46.72708110353	0	1	0	1	0	46.72708110353	0
4.41	46.8580649393437	0	1	0	1	0	46.8580649393437	0
4.42	46.9895014848121	0	1	0	1	0	46.9895014848121	0
4.43	47.1213900393443	0	1	0	1	0	47.1213900393443	0
4.44	47.2537299086611	0	1	0	1	0	47.2537299086611	0
4.45	47.386520404724	0	1	0	1	0	47.386520404724	0
4.46	47.5197608456651	0	1	0	1	0	47.5197608456651	0
4.47	47.6534505557185	0	1	0	1	0	47.6534505557185	0
4.48	47.7875888651516	0	1	0	1	0	47.7875888651516	0
4.49	47.9221751101985	0	1	0	1	0	47.9221751101985	0
4.5	48.0572086329934	0	1	0	1	0	48.0572086329934	0
4.51	48.1926887815051	0	1	0	1	0	48.1926887815051	0
4.52	48.3286149094727	0	1	0	1	0	48.3286149094727	0
4.53	48.4649863763418	0	1	0	1	0	48.4649863763418	0
4.54	48.6018025472015	0	1	0	1	0	48.6018025472015	0
4.55	48.7390627927227	0	1	0	1	0	48.7390627927227	0
4.56	48.8767664890968	0	1	0	1	0	48.8767664890968	0
4.57	49.014913017975	0	1	0	1	0	49.014913017975	0
4.58	49.153501766409	0	1	0	1	0	49.153501766409	0
4.59	49.2925321267922	0	1	0	1	0	49.2925321267922	0
4.6	49.4320034968015	0	1	0	1	0	49.4320034968015	0
4.61	49.5719152793399	0	1	0	1	0	49.5719152793399	0
4.62	49.7122668824803	0	1	0	1	0	49.7122668824803	0
4.63	49.8530577194092	0	1	0	1	0	49.8530577194092	0
4.64	49.9942872083721	0	1	0	1	0	49.9942872083721	0
4.65	50.1359547726185	0	1	0	1	0	50.1359547726185	0
4.66	50.2780598403489	0	1	0	1	0	50.2780598403489	0
4.67	50.4206018446612	0	1	0	1	0	50.4206018446612	0
4.68	50.5635802234987	0	1	0	1	0	50.5635802234987	0
4.69	50.7069944195984	0	1	0	1	0	50.7069944195984	0
4.7	50.8508438804399	0	1	0	1	0	50.8508438804399	0
4.71	50.9951280581951	0	1	0	1	0	50.9951280581951	0
4.72	51.1398464096786	0	1	0	1	0	51.1398464096786	0
4.73	51.2849983962984	0	1	0	1	0	51.2849983962984	0
4.74	51.4305834840078	0	1	0	1	0	51.4305834840078	0
4.75	51.5766011432571	0	1	0	1	0	51.5766011432571	0
4.76	51.7230508489467	0	1	0	1	0	51.7230508489467	0
4.77	51.8699320803804	0	1	0	1	0	51.8699320803804	0
4.78	52.0172443212192	0	1	0	1	0	52.0172443212192	0
4.79	52.164987059436	0	1	0	1	0	52.164987059436	0
4.8	52.3131597872705	0	1	0	1	0	52.3131597872705	0
4.81	52.4617620011849	0	1	0	1	0	52.4617620011849	0
4.82	52.6107932018204	0	1	0	1	0	52.6107932018204	0
4.83	52.7602528939533	0	1	0	1	0	52.7602528939533	0
4.84	52.9101405864529	0	1	0	1	0	52.9101405864529	0
4.85	53.0604557922391	0	1	0	1	0	53.0604557922391	0
4.86	53.2111980282405	0	1	0	1	0	53.2111980282405	0
4.87	53.3623668153536	0	1	0	1	0	53.3623668153536	0
4.88	53.5139616784019	0	1	0	1	0	53.5139616784019	0
4.89	53.6659821460958	0	1	0	1	0	53.6659821460958	0
4.9	53.818427750993	0	1	0	1	0	53.818427750993	0
4.91	53.9712980294593	0	1	0	1	0	53.9712980294593	0
4.92	54.1245925216299	0	1	0	1	0	54.1245925216299	0
4.93	54.2783107713711	0	1	0	1	0	54.2783107713711	0
