# GHZ S RI R 50
1	53.9512897183761	0	1	0	1	0	53.9512897183761	0
1.01	53.5031987423895	0	1	0	1	0	53.5031987423895	0
1.02	53.0652037533269	0	1	0	1	0	53.0652037533269	0
1.03	52.6370235366037	0	1	0	1	0	52.6370235366037	0
1.04	52.2183876935809	0	1	0	1	0	52.2183876935809	0
1.05	51.8090361265199	0	1	0	1	0	51.8090361265199	0
1.06	51.4087185526913	0	1	0	1	0	51.4087185526913	0
1.07	51.0171940457293	0	1	0	1	0	51.0171940457293	0
1.08	50.6342306024668	0	1	0	1	0	50.6342306024668	0
1.09	50.2596047336144	0	1	0	1	0	50.2596047336144	0
1.1	49.893101076766	0	1	0	1	0	49.893101076766	0
1.11	49.5345120303229	0	1	0	1	0	49.5345120303229	0
1.12	49.1836374070293	0	1	0	1	0	49.1836374070293	0
1.13	48.8402841059038	0	1	0	1	0	48.8402841059038	0
1.14	48.5042658014381	0	1	0	1	0	48.5042658014381	0
1.15	48.1754026490111	0	1	0	1	0	48.1754026490111	0
1.16	47.8535210055404	0	1	0	1	0	47.8535210055404	0
1.17	47.5384531644593	0	1	0	1	0	47.5384531644593	0
1.18	47.2300371041694	0	1	0	1	0	47.2300371041694	0
1.19	46.9281162491763	0	1	0	1	0	46.9281162491763	0
1.2	46.632539243169	0	1	0	1	0	46.632539243169	0
1.21	46.3431597333509	0	1	0	1	0	46.3431597333509	0
1.22	46.0598361653775	0	1	0	1	0	46.0598361653775	0
1.23	45.7824315882977	0	1	0	1	0	45.7824315882977	0
1.24	45.5108134689334	0	1	0	1	0	45.5108134689334	0
1.25	45.2448535151675	0	1	0	1	0	45.2448535151675	0
1.26	44.9844275076492	0	1	0	1	0	44.9844275076492	0
1.27	44.7294151394478	0	1	0	1	0	44.7294151394478	0
1.28	44.4796998632242	0	1	0	1	0	44.4796998632242	0
1.29	44.2351687455105	0	1	0	1	0	44.2351687455105	0
1.3	43.9957123277146	0	1	0	1	0	43.9957123277146	0
1.31	43.7612244934914	0	1	0	1	0	43.7612244934914	0
1.32	43.5316023421428	0	1	0	1	0	43.5316023421428	0
1.33	43.3067460677284	0	1	0	1	0	43.3067460677284	0
1.34	43.0865588435896	0	1	0	1	0	43.0865588435896	0
1.35	42.870946712006	0	1	0	1	0	42.870946712006	0
1.36	42.6598184787194	0	1	0	1	0	42.6598184787194	0
1.37	42.4530856120777	0	1	0	1	0	42.4530856120777	0
1.38	42.2506621465637	0	1	0	1	0	42.2506621465637	0
1.39	42.052464590488	0	1	0	1	0	42.052464590488	0
1.4	41.858411837638	0	1	0	1	0	41.858411837638	0
1.41	41.6684250826867	0	1	0	1	0	41.6684250826867	0
1.42	41.4824277401753	0	1	0	1	0	41.4824277401753	0
1.43	41.3003453668958	0	1	0	1	0	41.3003453668958	0
1.44	41.1221055875068	0	1	0	1	0	41.1221055875068	0
1.45	40.9476380232282	0	1	0	1	0	40.9476380232282	0
1.46	40.7768742234658	0	1	0	1	0	40.7768742234658	0
1.47	40.6097476002263	0	1	0	1	0	40.6097476002263	0
1.48	40.4461933651922	0	1	0	1	0	40.4461933651922	0
1.49	40.2861484693295	0	1	0	1	0	40.2861484693295	0
1.5	40.1295515449118	0	1	0	1	0	40.1295515449118	0
1.51	39.9763428498478	0	1	0	1	0	39.9763428498478	0
1.52	39.8264642142067	0	1	0	1	0	39.8264642142067	0
1.53	39.6798589888399	0	1	0	1	0	39.6798589888399	0
1.54	39.5364719960055	0	1	0	1	0	39.5364719960055	0
1.55	39.3962494819033	0	1	0	1	0	39.3962494819033	0
1.56	39.2591390710354	0	1	0	1	0	39.2591390710354	0
1.57	39.125089722312	0	1	0	1	0	39.125089722312	0
1.58	38.9940516868222	0	1	0	1	0	38.9940516868222	0
1.59	38.8659764672005	0	1	0	1	0	38.8659764672005	0
1.6	38.7408167785153	0	1	0	1	0	38.7408167785153	0
1.61	38.618526510616	0	1	0	1	0	38.618526510616	0
1.62	38.4990606918742	0	1	0	1	0	38.4990606918742	0
1.63	38.3823754542596	0	1	0	1	0	38.3823754542596	0
1.64	38.2684279996942	0	1	0	1	0	38.2684279996942	0
1.65	38.1571765676289	0	1	0	1	0	38.1571765676289	0
1.66	38.0485804037929	0	1	0	1	0	38.0485804037929	0
1.67	37.9425997300657	0	1	0	1	0	37.9425997300657	0
1.68	37.8391957154249	0	1	0	1	0	37.8391957154249	0
1.69	37.7383304479255	0	1	0	1	0	37.7383304479255	0
1.7	37.6399669076682	0	1	0	1	0	37.6399669076682	0
1.71	37.5440689407165	0	1	0	1	0	37.5440689407165	0
1.72	37.4506012339228	0	1	0	1	0	37.4506012339228	0
1.73	37.3595292906287	0	1	0	1	0	37.3595292906287	0
1.74	37.2708194072023	0	1	0	1	0	37.2708194072023	0
1.75	37.1844386503805	0	1	0	1	0	37.1844386503805	0
1.76	37.1003548353835	0	1	0	1	0	37.1003548353835	0
1.77	37.0185365047711	0	1	0	1	0	37.0185365047711	0
1.78	36.9389529080117	0	1	0	1	0	36.9389529080117	0
1.79	36.8615739817368	0	1	0	1	0	36.8615739817368	0
1.8	36.7863703306523	0	1	0	1	0	36.7863703306523	0
1.81	36.7133132090842	0	1	0	1	0	36.7133132090842	0
1.82	36.6423745031315	0	1	0	1	0	36.6423745031315	0
1.83	36.5735267134045	0	1	0	1	0	36.5735267134045	0
1.84	36.5067429383266	0	1	0	1	0	36.5067429383266	0
1.85	36.4419968579768	0	1	0	1	0	36.4419968579768	0
1.86	36.3792627184537	0	1	0	1	0	36.3792627184537	0
1.87	36.3185153167418	0	1	0	1	0	36.3185153167418	0
1.88	36.2597299860598	0	1	0	1	0	36.2597299860598	0
1.89	36.2028825816747	0	1	0	1	0	36.2028825816747	0
1.9	36.1479494671637	0	1	0	1	0	36.1479494671637	0
1.91	36.0949075011077	0	1	0	1	0	36.0949075011077	0
1.92	36.0437340242004	0	1	0	1	0	36.0437340242004	0
1.93	35.9944068467583	0	1	0	1	0	35.9944068467583	0
1.94	35.9469042366174	0	1	0	1	0	35.9469042366174	0
1.95	35.9012049074015	0	1	0	1	0	35.9012049074015	0
1.96	35.8572880071504	0	1	0	1	0	35.8572880071504	0
1.97	35.8151331072938	0	1	0	1	0	35.8151331072938	0
1.98	35.7747201919598	0	1	0	1	0	35.7747201919598	0
1.99	35.7360296476057	0	1	0	1	0	35.7360296476057	0
2	35.6990422529596	0	1	0	1	0	35.6990422529596	0
2.01	35.6637391692624	0	1	0	1	0	35.6637391692624	0
2.02	35.6301019307998	0	1	0	1	0	35.6301019307998	0
2.03	35.598112435714	0	1	0	1	0	35.598112435714	0
2.04	35.5677529370855	0	1	0	1	0	35.5677529370855	0
2.05	35.5390060342762	0	1	0	1	0	35.5390060342762	0
2.06	35.5118546645243	0	1	0	1	0	35.5118546645243	0
2.07	35.4862820947836	0	1	0	1	0	35.4862820947836	0
2.08	35.4622719137968	0	1	0	1	0	35.4622719137968	0
2.09	35.4398080243979	0	1	0	1	0	35.4398080243979	0
2.1	35.4188746360335	0	1	0	1	0	35.4188746360335	0
2.11	35.3994562574974	0	1	0	1	0	35.3994562574974	0
2.12	35.3815376898699	0	1	0	1	0	35.3815376898699	0
2.13	35.3651040196574	0	1	0	1	0	35.3651040196574	0
2.14	35.350140612123	0	1	0	1	0	35.350140612123	0
2.15	35.336633104804	0	1	0	1	0	35.336633104804	0
2.16	35.3245674012092	0	1	0	1	0	35.3245674012092	0
2.17	35.3139296646907	0	1	0	1	0	35.3139296646907	0
2.18	35.3047063124839	0	1	0	1	0	35.3047063124839	0
2.19	35.2968840099114	0	1	0	1	0	35.2968840099114	0
2.2	35.2904496647441	0	1	0	1	0	35.2904496647441	0
2.21	35.2853904217168	0	1	0	1	0	35.2853904217168	0
2.22	35.2816936571903	0	1	0	1	0	35.2816936571903	0
2.23	35.2793469739588	0	1	0	1	0	35.2793469739588	0
2.24	35.2783381961947	0	1	0	1	0	35.2783381961947	0
2.25	35.2786553645299	0	1	0	1	0	35.2786553645299	0
2.26	35.2802867312665	0	1	0	1	0	35.2802867312665	0
2.27	35.2832207557144	0	1	0	1	0	35.2832207557144	0
2.28	35.2874460996517	0	1	0	1	0	35.2874460996517	0
2.29	35.2929516229041	0	1	0	1	0	35.2929516229041	0
2.3	35.2997263790396	0	1	0	1	0	35.2997263790396	0
2.31	35.3077596111746	0	1	0	1	0	35.3077596111746	0
2.32	35.3170407478891	0	1	0	1	0	35.3170407478891	0
2.33	35.3275593992468	0	1	0	1	0	35.3275593992468	0
2.34	35.3393053529169	0	1	0	1	0	35.3393053529169	0
2.35	35.3522685703957	0	1	0	1	0	35.3522685703957	0
2.36	35.3664391833236	0	1	0	1	0	35.3664391833236	0
2.37	35.3818074898956	0	1	0	1	0	35.3818074898956	0
2.38	35.3983639513622	0	1	0	1	0	35.3983639513622	0
2.39	35.4160991886182	0	1	0	1	0	35.4160991886182	0
2.4	35.4350039788771	0	1	0	1	0	35.4350039788771	0
2.41	35.4550692524272	0	1	0	1	0	35.4550692524272	0
2.42	35.4762860894699	0	1	0	1	0	35.4762860894699	0
2.43	35.4986457170343	0	1	0	1	0	35.4986457170343	0
2.44	35.5221395059686	0	1	0	1	0	35.5221395059686	0
2.45	35.5467589680053	0	1	0	1	0	35.5467589680053	0
2.46	35.5724957528975	0	1	0	1	0	35.5724957528975	0
2.47	35.5993416456249	0	1	0	1	0	35.5993416456249	0
2.48	35.6272885636675	0	1	0	1	0	35.6272885636675	0
2.49	35.6563285543451	0	1	0	1	0	35.6563285543451	0
2.5	35.6864537922202	0	1	0	1	0	35.6864537922202	0
2.51	35.7176565765637	0	1	0	1	0	35.7176565765637	0
2.52	35.7499293288801	0	1	0	1	0	35.7499293288801	0
2.53	35.7832645904921	0	1	0	1	0	35.7832645904921	0
2.54	35.8176550201818	0	1	0	1	0	35.8176550201818	0
2.55	35.8530933918879	0	1	0	1	0	35.8530933918879	0
2.56	35.8895725924559	0	1	0	1	0	35.8895725924559	0
2.57	35.9270856194423	0	1	0	1	0	35.9270856194423	0
2.58	35.9656255789684	0	1	0	1	0	35.9656255789684	0
2.59	36.0051856836246	0	1	0	1	0	36.0051856836246	0
2.6	36.0457592504231	0	1	0	1	0	36.0457592504231	0
2.61	36.0873396987975	0	1	0	1	0	36.0873396987975	0
2.62	36.1299205486477	0	1	0	1	0	36.1299205486477	0
2.63	36.1734954184306	0	1	0	1	0	36.1734954184306	0
2.64	36.2180580232929	0	1	0	1	0	36.2180580232929	0
2.65	36.2636021732473	0	1	0	1	0	36.2636021732473	0
2.66	36.3101217713887	0	1	0	1	0	36.3101217713887	0
2.67	36.3576108121516	0	1	0	1	0	36.3576108121516	0
2.68	36.4060633796057	0	1	0	1	0	36.4060633796057	0
2.69	36.45547364579	0	1	0	1	0	36.45547364579	0
2.7	36.5058358690837	0	1	0	1	0	36.5058358690837	0
2.71	36.557144392613	0	1	0	1	0	36.557144392613	0
2.72	36.6093936426936	0	1	0	1	0	36.6093936426936	0
2.73	36.6625781273068	0	1	0	1	0	36.6625781273068	0
2.74	36.7166924346094	0	1	0	1	0	36.7166924346094	0
2.75	36.7717312314759	0	1	0	1	0	36.7717312314759	0
2.76	36.8276892620725	0	1	0	1	0	36.8276892620725	0
2.77	36.8845613464618	0	1	0	1	0	36.8845613464618	0
2.78	36.9423423792381	0	1	0	1	0	36.9423423792381	0
2.79	37.0010273281913	0	1	0	1	0	37.0010273281913	0
2.8	37.060611233	0	1	0	1	0	37.060611233	0
2.81	37.1210892039525	0	1	0	1	0	37.1210892039525	0
2.82	37.1824564206947	0	1	0	1	0	37.1824564206947	0
2.83	37.2447081310045	0	1	0	1	0	37.2447081310045	0
2.84	37.3078396495927	0	1	0	1	0	37.3078396495927	0
2.85	37.3718463569286	0	1	0	1	0	37.3718463569286	0
2.86	37.4367236980901	0	1	0	1	0	37.4367236980901	0
2.87	37.5024671816385	0	1	0	1	0	37.5024671816385	0
2.88	37.5690723785162	0	1	0	1	0	37.5690723785162	0
2.89	37.6365349209673	0	1	0	1	0	37.6365349209673	0
2.9	37.7048505014809	0	1	0	1	0	37.7048505014809	0
2.91	37.7740148717559	0	1	0	1	0	37.7740148717559	0
2.92	37.8440238416871	0	1	0	1	0	37.8440238416871	0
2.93	37.914873278372	0	1	0	1	0	37.914873278372	0
2.94	37.9865591051382	0	1	0	1	0	37.9865591051382	0
2.95	38.0590773005901	0	1	0	1	0	38.0590773005901	0
2.96	38.1324238976754	0	1	0	1	0	38.1324238976754	0
2.97	38.20659498277	0	1	0	1	0	38.20659498277	0
2.98	38.2815866947817	0	1	0	1	0	38.2815866947817	0
2.99	38.3573952242718	0	1	0	1	0	38.3573952242718	0
3	38.4340168125939	0	1	0	1	0	38.4340168125939	0
3.01	38.5114477510507	0	1	0	1	0	38.5114477510507	0
3.02	38.5896843800665	0	1	0	1	0	38.5896843800665	0
3.03	38.6687230883768	0	1	0	1	0	38.6687230883768	0
3.04	38.7485603122338	0	1	0	1	0	38.7485603122338	0
3.05	38.8291925346275	0	1	0	1	0	38.8291925346275	0
3.06	38.9106162845218	0	1	0	1	0	38.9106162845218	0
3.07	38.9928281361057	0	1	0	1	0	38.9928281361057	0
3.08	39.0758247080593	0	1	0	1	0	39.0758247080593	0
3.09	39.1596026628341	0	1	0	1	0	39.1596026628341	0
3.1	39.2441587059464	0	1	0	1	0	39.2441587059464	0
3.11	39.3294895852854	0	1	0	1	0	39.3294895852854	0
3.12	39.4155920904341	0	1	0	1	0	39.4155920904341	0
3.13	39.5024630520031	0	1	0	1	0	39.5024630520031	0
3.14	39.5900993409774	0	1	0	1	0	39.5900993409774	0
3.15	39.6784978680755	0	1	0	1	0	39.6784978680755	0
3.16	39.7676555831209	0	1	0	1	0	39.7676555831209	0
3.17	39.857569474425	0	1	0	1	0	39.857569474425	0
3.18	39.9482365681819	0	1	0	1	0	39.9482365681819	0
3.19	40.0396539278752	0	1	0	1	0	40.0396539278752	0
3.2	40.1318186536946	0	1	0	1	0	40.1318186536946	0
3.21	40.2247278819647	0	1	0	1	0	40.2247278819647	0
3.22	40.3183787845836	0	1	0	1	0	40.3183787845836	0
3.23	40.4127685684725	0	1	0	1	0	40.4127685684725	0
3.24	40.5078944750348	0	1	0	1	0	40.5078944750348	0
3.25	40.6037537796261	0	1	0	1	0	40.6037537796261	0
3.26	40.7003437910331	0	1	0	1	0	40.7003437910331	0
3.27	40.7976618509625	0	1	0	1	0	40.7976618509625	0
3.28	40.8957053335393	0	1	0	1	0	40.8957053335393	0
3.29	40.9944716448141	0	1	0	1	0	40.9944716448141	0
3.3	41.093958222279	0	1	0	1	0	41.093958222279	0
3.31	41.1941625343934	0	1	0	1	0	41.1941625343934	0
3.32	41.2950820801168	0	1	0	1	0	41.2950820801168	0
3.33	41.3967143884515	0	1	0	1	0	41.3967143884515	0
3.34	41.4990570179924	0	1	0	1	0	41.4990570179924	0
3.35	41.6021075564857	0	1	0	1	0	41.6021075564857	0
3.36	41.7058636203947	0	1	0	1	0	41.7058636203947	0
3.37	41.810322854474	0	1	0	1	0	41.810322854474	0
3.38	41.915482931351	0	1	0	1	0	41.915482931351	0
3.39	42.0213415511147	0	1	0	1	0	42.0213415511147	0
3.4	42.1278964409118	0	1	0	1	0	42.1278964409118	0
3.41	42.2351453545502	0	1	0	1	0	42.2351453545502	0
3.42	42.3430860721088	0	1	0	1	0	42.3430860721088	0
3.43	42.4517163995551	0	1	0	1	0	42.4517163995551	0
3.44	42.5610341683683	0	1	0	1	0	42.5610341683683	0
3.45	42.67103723517	0	1	0	1	0	42.67103723517	0
3.46	42.7817234813609	0	1	0	1	0	42.7817234813609	0
3.47	42.8930908127634	0	1	0	1	0	42.8930908127634	0
3.48	43.0051371592709	0	1	0	1	0	43.0051371592709	0
3.49	43.117860474503	0	1	0	1	0	43.117860474503	0
3.5	43.2312587354665	0	1	0	1	0	43.2312587354665	0
3.51	43.3453299422224	0	1	0	1	0	43.3453299422224	0
3.52	43.460072117558	0	1	0	1	0	43.460072117558	0
3.53	43.5754833066655	0	1	0	1	0	43.5754833066655	0
3.54	43.6915615768252	0	1	0	1	0	43.6915615768252	0
3.55	43.8083050170945	0	1	0	1	0	43.8083050170945	0
3.56	43.9257117380023	0	1	0	1	0	43.9257117380023	0
3.57	44.0437798712478	0	1	0	1	0	44.0437798712478	0
3.58	44.1625075694051	0	1	0	1	0	44.1625075694051	0
3.59	44.2818930056324	0	1	0	1	0	44.2818930056324	0
3.6	44.4019343733865	0	1	0	1	0	44.4019343733865	0
3.61	44.5226298861407	0	1	0	1	0	44.5226298861407	0
3.62	44.6439777771095	0	1	0	1	0	44.6439777771095	0
3.63	44.7659762989757	0	1	0	1	0	44.7659762989757	0
3.64	44.8886237236236	0	1	0	1	0	44.8886237236236	0
3.65	45.0119183418757	0	1	0	1	0	45.0119183418757	0
3.66	45.135858463234	0	1	0	1	0	45.135858463234	0
3.67	45.2604424156257	0	1	0	1	0	45.2604424156257	0
3.68	45.3856685451524	0	1	0	1	0	45.3856685451524	0
3.69	45.5115352158445	0	1	0	1	0	45.5115352158445	0
3.7	45.6380408094182	0	1	0	1	0	45.6380408094182	0
3.71	45.7651837250378	0	1	0	1	0	45.7651837250378	0
3.72	45.8929623790808	0	1	0	1	0	45.8929623790808	0
3.73	46.0213752049072	0	1	0	1	0	46.0213752049072	0
3.74	46.1504206526325	0	1	0	1	0	46.1504206526325	0
3.75	46.2800971889042	0	1	0	1	0	46.2800971889042	0
3.76	46.4104032966825	0	1	0	1	0	46.4104032966825	0
3.77	46.5413374750229	0	1	0	1	0	46.5413374750229	0
3.78	46.6728982388643	0	1	0	1	0	46.6728982388643	0
3.79	46.8050841188191	0	1	0	1	0	46.8050841188191	0
3.8	46.9378936609667	0	1	0	1	0	46.9378936609667	0
3.81	47.0713254266509	0	1	0	1	0	47.0713254266509	0
3.82	47.2053779922799	0	1	0	1	0	47.2053779922799	0
3.83	47.3400499491299	0	1	0	1	0	47.3400499491299	0
3.84	47.4753399031509	0	1	0	1	0	47.4753399031509	0
3.85	47.611246474777	0	1	0	1	0	47.611246474777	0
3.86	47.747768298738	0	1	0	1	0	47.747768298738	0
3.87	47.8849040238751	0	1	0	1	0	47.8849040238751	0
3.88	48.022652312959	0	1	0	1	0	48.022652312959	0
3.89	48.1610118425109	0	1	0	1	0	48.1610118425109	0
3.9	48.299981302626	0	1	0	1	0	48.299981302626	0
3.91	48.4395593968002	0	1	0	1	0	48.4395593968002	0
3.92	48.5797448417588	0	1	0	1	0	48.5797448417588	0
3.93	48.7205363672887	0	1	0	1	0	48.7205363672887	0
3.94	48.8619327160723	0	1	0	1	0	48.8619327160723	0
3.95	49.0039326435241	0	1	0	1	0	49.0039326435241	0
3.96	49.1465349176305	0	1	0	1	0	49.1465349176305	0
3.97	49.2897383187908	0	1	0	1	0	49.2897383187908	0
3.98	49.433541639662	0	1	0	1	0	49.433541639662	0
3.99	49.5779436850044	0	1	0	1	0	49.5779436850044	0
4	49.722943271531	0	1	0	1	0	49.722943271531	0
4.01	49.8685392277578	0	1	0	1	0	49.8685392277578	0
4.02	50.0147303938578	0	1	0	1	0	50.0147303938578	0
4.03	50.1615156215156	0	1	0	1	0	50.1615156215156	0
4.04	50.3088937737854	0	1	0	1	0	50.3088937737854	0
4.05	50.4568637249504	0	1	0	1	0	50.4568637249504	0
4.06	50.6054243603848	0	1	0	1	0	50.6054243603848	0
4.07	50.754574576417	0	1	0	1	0	50.754574576417	0
4.08	50.9043132801962	0	1	0	1	0	50.9043132801962	0
4.09	51.0546393895592	0	1	0	1	0	51.0546393895592	0
4.1	51.2055518329006	0	1	0	1	0	51.2055518329006	0
4.11	51.3570495490444	0	1	0	1	0	51.3570495490444	0
4.12	51.5091314871172	0	1	0	1	0	51.5091314871172	0
4.13	51.6617966064235	0	1	0	1	0	51.6617966064235	0
4.14	51.8150438763228	0	1	0	1	0	51.8150438763228	0
4.15	51.9688722761086	0	1	0	1	0	51.9688722761086	0
4.16	52.1232807948888	0	1	0	1	0	52.1232807948888	0
4.17	52.2782684314681	0	1	0	1	0	52.2782684314681	0
4.18	52.4338341942321	0	1	0	1	0	52.4338341942321	0
4.19	52.5899771010329	0	1	0	1	0	52.5899771010329	0
4.2	52.7466961790761	0	1	0	1	0	52.7466961790761	0
4.21	52.9039904648105	0	1	0	1	0	52.9039904648105	0
4.22	53.0618590038177	0	1	0	1	0	53.0618590038177	0
4.23	53.2203008507046	0	1	0	1	0	53.2203008507046	0
4.24	53.379315068997	0	1	0	1	0	53.379315068997	0
4.25	53.5389007310345	0	1	0	1	0	53.5389007310345	0
4.26	53.6990569178672	0	1	0	1	0	53.6990569178672	0
4.27	53.8597827191536	0	1	0	1	0	53.8597827191536	0
4.28	54.0210772330599	0	1	0	1	0	54.0210772330599	0
4.29	54.1829395661613	0	1	0	1	0	54.1829395661613	0
4.3	54.3453688333437	0	1	0	1	0	54.3453688333437	0
4.31	54.5083641577076	0	1	0	1	0	54.5083641577076	0
4.32	54.671924670473	0	1	0	1	0	54.671924670473	0
4.33	54.8360495108855	0	1	0	1	0	54.8360495108855	0
4.34	55.0007378261239	0	1	0	1	0	55.0007378261239	0
4.35	55.1659887712091	0	1	0	1	0	55.1659887712091	0
4.36	55.3318015089141	0	1	0	1	0	55.3318015089141	0
4.37	55.4981752096752	0	1	0	1	0	55.4981752096752	0
4.38	55.6651090515048	0	1	0	1	0	55.6651090515048	0
4.39	55.8326022199047	0	1	0	1	0	55.8326022199047	0
4.4	56.0006539077815	0	1	0	1	0	56.0006539077815	0
4.41	56.1692633153622	0	1	0	1	0	56.1692633153622	0
4.42	56.3384296501117	0	1	0	1	0	56.3384296501117	0
4.43	56.5081521266507	0	1	0	1	0	56.5081521266507	0
4.44	56.6784299666757	0	1	0	1	0	56.6784299666757	0
4.45	56.849262398879	0	1	0	1	0	56.849262398879	0
4.46	57.0206486588705	0	1	0	1	0	57.0206486588705	0
4.47	57.1925879891004	0	1	0	1	0	57.1925879891004	0
4.48	57.3650796387826	0	1	0	1	0	57.3650796387826	0
4.49	57.5381228638195	0	1	0	1	0	57.5381228638195	0
4.5	57.7117169267277	0	1	0	1	0	57.7117169267277	0
4.51	57.8858610965648	0	1	0	1	0	57.8858610965648	0
4.52	58.0605546488569	0	1	0	1	0	58.0605546488569	0
4.53	58.235796865527	0	1	0	1	0	58.235796865527	0
4.54	58.4115870348251	0	1	0	1	0	58.4115870348251	0
4.55	58.5879244512581	0	1	0	1	0	58.5879244512581	0
4.56	58.7648084155215	0	1	0	1	0	58.7648084155215	0
4.57	58.9422382344317	0	1	0	1	0	58.9422382344317	0
4.58	59.1202132208589	0	1	0	1	0	59.1202132208589	0
4.59	59.2987326936616	0	1	0	1	0	59.2987326936616	0
4.6	59.4777959776212	0	1	0	1	0	59.4777959776212	0
4.61	59.6574024033778	0	1	0	1	0	59.6574024033778	0
4.62	59.8375513073667	0	1	0	1	0	59.8375513073667	0
4.63	60.0182420317562	0	1	0	1	0	60.0182420317562	0
4.64	60.1994739243854	0	1	0	1	0	60.1994739243854	0
4.65	60.3812463387034	0	1	0	1	0	60.3812463387034	0
4.66	60.5635586337091	0	1	0	1	0	60.5635586337091	0
4.67	60.7464101738917	0	1	0	1	0	60.7464101738917	0
4.68	60.9298003291723	0	1	0	1	0	60.9298003291723	0
4.69	61.1137284748458	0	1	0	1	0	61.1137284748458	0
4.7	61.2981939915234	0	1	0	1	0	61.2981939915234	0
4.71	61.4831962650769	0	1	0	1	0	61.4831962650769	0
4.72	61.6687346865825	0	1	0	1	0	61.6687346865825	0
4.73	61.8548086522656	0	1	0	1	0	61.8548086522656	0
4.74	62.041417563447	0	1	0	1	0	62.041417563447	0
4.75	62.2285608264889	0	1	0	1	0	62.2285608264889	0
4.76	62.4162378527422	0	1	0	1	0	62.4162378527422	0
4.77	62.6044480584939	0	1	0	1	0	62.6044480584939	0
4.78	62.7931908649156	0	1	0	1	0	62.7931908649156	0
4.79	62.9824656980127	0	1	0	1	0	62.9824656980127	0
4.8	63.1722719885738	0	1	0	1	0	63.1722719885738	0
4.81	63.362609172121	0	1	0	1	0	63.362609172121	0
4.82	63.553476688861	0	1	0	1	0	63.553476688861	0
4.83	63.7448739836365	0	1	0	1	0	63.7448739836365	0
4.84	63.936800505878	0	1	0	1	0	63.936800505878	0
4.85	64.129255709557	0	1	0	1	0	64.129255709557	0
4.86	64.3222390531391	0	1	0	1	0	64.3222390531391	0
4.87	64.5157499995378	0	1	0	1	0	64.5157499995378	0
4.88	64.7097880160688	0	1	0	1	0	64.7097880160688	0
4.89	64.9043525744052	0	1	0	1	0	64.9043525744052	0
4.9	65.099443150533	0	1	0	1	0	65.099443150533	0
4.91	65.2950592247072	0	1	0	1	0	65.2950592247072	0
4.92	65.4912002814084	0	1	0	1	0	65.4912002814084	0
4.93	65.6878658092997	0	1	0	1	0	65.6878658092997	0
