# GHZ S RI R 50
1	57.0612830707123	0	1	0	1	0	57.0612830707123	0
1.01	56.5770245142006	0	1	0	1	0	56.5770245142006	0
1.02	56.103467536521	0	1	0	1	0	56.103467536521	0
1.03	55.6403122689376	0	1	0	1	0	55.6403122689376	0
1.04	55.1872703761277	0	1	0	1	0	55.1872703761277	0
1.05	54.7440645069712	0	1	0	1	0	54.7440645069712	0
1.06	54.310427776428	0	1	0	1	0	54.310427776428	0
1.07	53.8861032764688	0	1	0	1	0	53.8861032764688	0
1.08	53.4708436141766	0	1	0	1	0	53.4708436141766	0
1.09	53.0644104752736	0	1	0	1	0	53.0644104752736	0
1.1	52.6665742114555	0	1	0	1	0	52.6665742114555	0
1.11	52.2771134500328	0	1	0	1	0	52.2771134500328	0
1.12	51.8958147244834	0	1	0	1	0	51.8958147244834	0
1.13	51.5224721246222	0	1	0	1	0	51.5224721246222	0
1.14	51.1568869651831	0	1	0	1	0	51.1568869651831	0
1.15	50.7988674716916	0	1	0	1	0	50.7988674716916	0
1.16	50.4482284825862	0	1	0	1	0	50.4482284825862	0
1.17	50.1047911666153	0	1	0	1	0	50.1047911666153	0
1.18	49.7683827546034	0	1	0	1	0	49.7683827546034	0
1.19	49.4388362847426	0	1	0	1	0	49.4388362847426	0
1.2	49.1159903606182	0	1	0	1	0	49.1159903606182	0
1.21	48.7996889212344	0	1	0	1	0	48.7996889212344	0
1.22	48.4897810223494	0	1	0	1	0	48.4897810223494	0
1.23	48.186120628477	0	1	0	1	0	48.186120628477	0
1.24	47.8885664149534	0	1	0	1	0	47.8885664149534	0
1.25	47.5969815795038	0	1	0	1	0	47.5969815795038	0
1.26	47.3112336627831	0	1	0	1	0	47.3112336627831	0
1.27	47.0311943773935	0	1	0	1	0	47.0311943773935	0
1.28	46.7567394449191	0	1	0	1	0	46.7567394449191	0
1.29	46.4877484405377	0	1	0	1	0	46.4877484405377	0
1.3	46.2241046448066	0	1	0	1	0	46.2241046448066	0
1.31	45.9656949022353	0	1	0	1	0	45.9656949022353	0
1.32	45.7124094862877	0	1	0	1	0	45.7124094862877	0
1.33	45.464141970474	0	1	0	1	0	45.464141970474	0
1.34	45.2207891052143	0	1	0	1	0	45.2207891052143	0
1.35	44.9822507001757	0	1	0	1	0	44.9822507001757	0
1.36	44.7484295117997	0	1	0	1	0	44.7484295117997	0
1.37	44.5192311357558	0	1	0	1	0	44.5192311357558	0
1.38	44.2945639040709	0	1	0	1	0	44.2945639040709	0
1.39	44.0743387866993	0	1	0	1	0	44.0743387866993	0
1.4	43.8584692973107	0	1	0	1	0	43.8584692973107	0
1.41	43.6468714030879	0	1	0	1	0	43.6468714030879	0
1.42	43.4394634383351	0	1	0	1	0	43.4394634383351	0
1.43	43.2361660217119	0	1	0	1	0	43.2361660217119	0
1.44	43.0369019769148	0	1	0	1	0	43.0369019769148	0
1.45	42.8415962566422	0	1	0	1	0	42.8415962566422	0
1.46	42.6501758696825	0	1	0	1	0	42.6501758696825	0
1.47	42.4625698109798	0	1	0	1	0	42.4625698109798	0
1.48	42.2787089945338	0	1	0	1	0	42.2787089945338	0
1.49	42.0985261890017	0	1	0	1	0	42.0985261890017	0
1.5	41.9219559558767	0	1	0	1	0	41.9219559558767	0
1.51	41.7489345901222	0	1	0	1	0	41.7489345901222	0
1.52	41.5794000631502	0	1	0	1	0	41.5794000631502	0
1.53	41.4132919680348	0	1	0	1	0	41.4132919680348	0
1.54	41.2505514668615	0	1	0	1	0	41.2505514668615	0
1.55	41.0911212401133	0	1	0	1	0	41.0911212401133	0
1.56	40.9349454380046	0	1	0	1	0	40.9349454380046	0
1.57	40.7819696336743	0	1	0	1	0	40.7819696336743	0
1.58	40.6321407781562	0	1	0	1	0	40.6321407781562	0
1.59	40.4854071570497	0	1	0	1	0	40.4854071570497	0
1.6	40.341718348814	0	1	0	1	0	40.341718348814	0
1.61	40.2010251846173	0	1	0	1	0	40.2010251846173	0
1.62	40.0632797096733	0	1	0	1	0	40.0632797096733	0
1.63	39.928435146	0	1	0	1	0	39.928435146	0
1.64	39.796445856542	0	1	0	1	0	39.796445856542	0
1.65	39.6672673105966	0	1	0	1	0	39.6672673105966	0
1.66	39.5408560504902	0	1	0	1	0	39.5408560504902	0
1.67	39.4171696594515	0	1	0	1	0	39.4171696594515	0
1.68	39.2961667306322	0	1	0	1	0	39.2961667306322	0
1.69	39.1778068372281	0	1	0	1	0	39.1778068372281	0
1.7	39.0620505036535	0	1	0	1	0	39.0620505036535	0
1.71	38.9488591777286	0	1	0	1	0	38.9488591777286	0
1.72	38.8381952038357	0	1	0	1	0	38.8381952038357	0
1.73	38.7300217970071	0	1	0	1	0	38.7300217970071	0
1.74	38.6243030179069	0	1	0	1	0	38.6243030179069	0
1.75	38.5210037486694	0	1	0	1	0	38.5210037486694	0
1.76	38.4200896695624	0	1	0	1	0	38.4200896695624	0
1.77	38.3215272364408	0	1	0	1	0	38.3215272364408	0
1.78	38.2252836589605	0	1	0	1	0	38.2252836589605	0
1.79	38.1313268795226	0	1	0	1	0	38.1313268795226	0
1.8	38.0396255529193	0	1	0	1	0	38.0396255529193	0
1.81	37.9501490266544	0	1	0	1	0	37.9501490266544	0
1.82	37.862867321913	0	1	0	1	0	37.862867321913	0
1.83	37.777751115155	0	1	0	1	0	37.777751115155	0
1.84	37.6947717203084	0	1	0	1	0	37.6947717203084	0
1.85	37.6139010715407	0	1	0	1	0	37.6139010715407	0
1.86	37.5351117065855	0	1	0	1	0	37.5351117065855	0
1.87	37.4583767506049	0	1	0	1	0	37.4583767506049	0
1.88	37.3836699005656	0	1	0	1	0	37.3836699005656	0
1.89	37.3109654101127	0	1	0	1	0	37.3109654101127	0
1.9	37.2402380749196	0	1	0	1	0	37.2402380749196	0
1.91	37.171463218499	0	1	0	1	0	37.171463218499	0
1.92	37.1046166784571	0	1	0	1	0	37.1046166784571	0
1.93	37.0396747931752	0	1	0	1	0	37.0396747931752	0
1.94	36.9766143889028	0	1	0	1	0	36.9766143889028	0
1.95	36.9154127672487	0	1	0	1	0	36.9154127672487	0
1.96	36.8560476930539	0	1	0	1	0	36.8560476930539	0
1.97	36.7984973826348	0	1	0	1	0	36.7984973826348	0
1.98	36.7427404923823	0	1	0	1	0	36.7427404923823	0
1.99	36.6887561077045	0	1	0	1	0	36.6887561077045	0
2	36.6365237323013	0	1	0	1	0	36.6365237323013	0
2.01	36.5860232777592	0	1	0	1	0	36.5860232777592	0
2.02	36.537235053455	0	1	0	1	0	36.537235053455	0
2.03	36.4901397567583	0	1	0	1	0	36.4901397567583	0
2.04	36.4447184635214	0	1	0	1	0	36.4447184635214	0
2.05	36.4009526188484	0	1	0	1	0	36.4009526188484	0
2.06	36.3588240281326	0	1	0	1	0	36.3588240281326	0
2.07	36.3183148483539	0	1	0	1	0	36.3183148483539	0
2.08	36.2794075796271	0	1	0	1	0	36.2794075796271	0
2.09	36.2420850569933	0	1	0	1	0	36.2420850569933	0
2.1	36.2063304424449	0	1	0	1	0	36.2063304424449	0
2.11	36.1721272171785	0	1	0	1	0	36.1721272171785	0
2.12	36.139459174066	0	1	0	1	0	36.139459174066	0
2.13	36.1083104103387	0	1	0	1	0	36.1083104103387	0
2.14	36.0786653204757	0	1	0	1	0	36.0786653204757	0
2.15	36.0505085892916	0	1	0	1	0	36.0505085892916	0
2.16	36.0238251852155	0	1	0	1	0	36.0238251852155	0
2.17	35.998600353756	0	1	0	1	0	35.998600353756	0
2.18	35.9748196111465	0	1	0	1	0	35.9748196111465	0
2.19	35.9524687381639	0	1	0	1	0	35.9524687381639	0
2.2	35.9315337741166	0	1	0	1	0	35.9315337741166	0
2.21	35.9120010109951	0	1	0	1	0	35.9120010109951	0
2.22	35.893856987781	0	1	0	1	0	35.893856987781	0
2.23	35.8770884849093	0	1	0	1	0	35.8770884849093	0
2.24	35.8616825188787	0	1	0	1	0	35.8616825188787	0
2.25	35.8476263370054	0	1	0	1	0	35.8476263370054	0
2.26	35.8349074123171	0	1	0	1	0	35.8349074123171	0
2.27	35.823513438581	0	1	0	1	0	35.823513438581	0
2.28	35.8134323254631	0	1	0	1	0	35.8134323254631	0
2.29	35.8046521938143	0	1	0	1	0	35.8046521938143	0
2.3	35.7971613710795	0	1	0	1	0	35.7971613710795	0
2.31	35.7909483868256	0	1	0	1	0	35.7909483868256	0
2.32	35.7860019683856	0	1	0	1	0	35.7860019683856	0
2.33	35.7823110366149	0	1	0	1	0	35.7823110366149	0
2.34	35.7798647017556	0	1	0	1	0	35.7798647017556	0
2.35	35.7786522594077	0	1	0	1	0	35.7786522594077	0
2.36	35.7786631866017	0	1	0	1	0	35.7786631866017	0
2.37	35.7798871379708	0	1	0	1	0	35.7798871379708	0
2.38	35.7823139420199	0	1	0	1	0	35.7823139420199	0
2.39	35.7859335974884	0	1	0	1	0	35.7859335974884	0
2.4	35.790736269803	0	1	0	1	0	35.790736269803	0
2.41	35.7967122876201	0	1	0	1	0	35.7967122876201	0
2.42	35.803852139453	0	1	0	1	0	35.803852139453	0
2.43	35.8121464703825	0	1	0	1	0	35.8121464703825	0
2.44	35.821586078849	0	1	0	1	0	35.821586078849	0
2.45	35.8321619135221	0	1	0	1	0	35.8321619135221	0
2.46	35.8438650702479	0	1	0	1	0	35.8438650702479	0
2.47	35.856686789069	0	1	0	1	0	35.856686789069	0
2.48	35.8706184513178	0	1	0	1	0	35.8706184513178	0
2.49	35.8856515767792	0	1	0	1	0	35.8856515767792	0
2.5	35.9017778209214	0	1	0	1	0	35.9017778209214	0
2.51	35.9189889721933	0	1	0	1	0	35.9189889721933	0
2.52	35.9372769493859	0	1	0	1	0	35.9372769493859	0
2.53	35.9566337990563	0	1	0	1	0	35.9566337990563	0
2.54	35.9770516930127	0	1	0	1	0	35.9770516930127	0
2.55	35.9985229258584	0	1	0	1	0	35.9985229258584	0
2.56	36.0210399125937	0	1	0	1	0	36.0210399125937	0
2.57	36.044595186273	0	1	0	1	0	36.044595186273	0
2.58	36.0691813957177	0	1	0	1	0	36.0691813957177	0
2.59	36.0947913032808	0	1	0	1	0	36.0947913032808	0
2.6	36.1214177826636	0	1	0	1	0	36.1214177826636	0
2.61	36.1490538167827	0	1	0	1	0	36.1490538167827	0
2.62	36.1776924956859	0	1	0	1	0	36.1776924956859	0
2.63	36.2073270145153	0	1	0	1	0	36.2073270145153	0
2.64	36.2379506715168	0	1	0	1	0	36.2379506715168	0
2.65	36.2695568660949	0	1	0	1	0	36.2695568660949	0
2.66	36.3021390969111	0	1	0	1	0	36.3021390969111	0
2.67	36.3356909600255	0	1	0	1	0	36.3356909600255	0
2.68	36.3702061470792	0	1	0	1	0	36.3702061470792	0
2.69	36.4056784435177	0	1	0	1	0	36.4056784435177	0
2.7	36.4421017268543	0	1	0	1	0	36.4421017268543	0
2.71	36.479469964971	0	1	0	1	0	36.479469964971	0
2.72	36.5177772144574	0	1	0	1	0	36.5177772144574	0
2.73	36.5570176189859	0	1	0	1	0	36.5570176189859	0
2.74	36.5971854077231	0	1	0	1	0	36.5971854077231	0
2.75	36.6382748937746	0	1	0	1	0	36.6382748937746	0
2.76	36.680280472665	0	1	0	1	0	36.680280472665	0
2.77	36.7231966208498	0	1	0	1	0	36.7231966208498	0
2.78	36.7670178942601	0	1	0	1	0	36.7670178942601	0
2.79	36.8117389268781	0	1	0	1	0	36.8117389268781	0
2.8	36.8573544293433	0	1	0	1	0	36.8573544293433	0
2.81	36.9038591875889	0	1	0	1	0	36.9038591875889	0
2.82	36.951248061506	0	1	0	1	0	36.951248061506	0
2.83	36.999515983638	0	1	0	1	0	36.999515983638	0
2.84	37.0486579579004	0	1	0	1	0	37.0486579579004	0
2.85	37.0986690583295	0	1	0	1	0	37.0986690583295	0
2.86	37.1495444278562	0	1	0	1	0	37.1495444278562	0
2.87	37.2012792771054	0	1	0	1	0	37.2012792771054	0
2.88	37.2538688832216	0	1	0	1	0	37.2538688832216	0
2.89	37.3073085887172	0	1	0	1	0	37.3073085887172	0
2.9	37.3615938003459	0	1	0	1	0	37.3615938003459	0
2.91	37.4167199879988	0	1	0	1	0	37.4167199879988	0
2.92	37.4726826836233	0	1	0	1	0	37.4726826836233	0
2.93	37.529477480164	0	1	0	1	0	37.529477480164	0
2.94	37.5871000305258	0	1	0	1	0	37.5871000305258	0
2.95	37.6455460465567	0	1	0	1	0	37.6455460465567	0
2.96	37.7048112980532	0	1	0	1	0	37.7048112980532	0
2.97	37.7648916117839	0	1	0	1	0	37.7648916117839	0
2.98	37.8257828705341	0	1	0	1	0	37.8257828705341	0
2.99	37.887481012169	0	1	0	1	0	37.887481012169	0
3	37.9499820287153	0	1	0	1	0	37.9499820287153	0
3.01	38.013281965462	0	1	0	1	0	38.013281965462	0
3.02	38.0773769200783	0	1	0	1	0	38.0773769200783	0
3.03	38.1422630417495	0	1	0	1	0	38.1422630417495	0
3.04	38.2079365303292	0	1	0	1	0	38.2079365303292	0
3.05	38.2743936355092	0	1	0	1	0	38.2743936355092	0
3.06	38.341630656005	0	1	0	1	0	38.341630656005	0
3.07	38.4096439387571	0	1	0	1	0	38.4096439387571	0
3.08	38.4784298781485	0	1	0	1	0	38.4784298781485	0
3.09	38.5479849152367	0	1	0	1	0	38.5479849152367	0
3.1	38.6183055370011	0	1	0	1	0	38.6183055370011	0
3.11	38.6893882756048	0	1	0	1	0	38.6893882756048	0
3.12	38.7612297076701	0	1	0	1	0	38.7612297076701	0
3.13	38.8338264535687	0	1	0	1	0	38.8338264535687	0
3.14	38.9071751767249	0	1	0	1	0	38.9071751767249	0
3.15	38.981272582932	0	1	0	1	0	38.981272582932	0
3.16	39.0561154196824	0	1	0	1	0	39.0561154196824	0
3.17	39.1317004755095	0	1	0	1	0	39.1317004755095	0
3.18	39.2080245793423	0	1	0	1	0	39.2080245793423	0
3.19	39.2850845998729	0	1	0	1	0	39.2850845998729	0
3.2	39.3628774449343	0	1	0	1	0	39.3628774449343	0
3.21	39.4414000608913	0	1	0	1	0	39.4414000608913	0
3.22	39.5206494320423	0	1	0	1	0	39.5206494320423	0
3.23	39.6006225800316	0	1	0	1	0	39.6006225800316	0
3.24	39.6813165632733	0	1	0	1	0	39.6813165632733	0
3.25	39.7627284763859	0	1	0	1	0	39.7627284763859	0
3.26	39.8448554496363	0	1	0	1	0	39.8448554496363	0
3.27	39.9276946483957	0	1	0	1	0	39.9276946483957	0
3.28	40.0112432726036	0	1	0	1	0	40.0112432726036	0
3.29	40.0954985562428	0	1	0	1	0	40.0954985562428	0
3.3	40.1804577668237	0	1	0	1	0	40.1804577668237	0
3.31	40.2661182048777	0	1	0	1	0	40.2661182048777	0
3.32	40.35247720346	0	1	0	1	0	40.35247720346	0
3.33	40.4395321276609	0	1	0	1	0	40.4395321276609	0
3.34	40.5272803741267	0	1	0	1	0	40.5272803741267	0
3.35	40.6157193705885	0	1	0	1	0	40.6157193705885	0
3.36	40.7048465753998	0	1	0	1	0	40.7048465753998	0
3.37	40.7946594770816	0	1	0	1	0	40.7946594770816	0
3.38	40.885155593877	0	1	0	1	0	40.885155593877	0
3.39	40.9763324733121	0	1	0	1	0	40.9763324733121	0
3.4	41.0681876917656	0	1	0	1	0	41.0681876917656	0
3.41	41.1607188540461	0	1	0	1	0	41.1607188540461	0
3.42	41.2539235929757	0	1	0	1	0	41.2539235929757	0
3.43	41.3477995689824	0	1	0	1	0	41.3477995689824	0
3.44	41.4423444696984	0	1	0	1	0	41.4423444696984	0
3.45	41.5375560095659	0	1	0	1	0	41.5375560095659	0
3.46	41.6334319294499	0	1	0	1	0	41.6334319294499	0
3.47	41.7299699962571	0	1	0	1	0	41.7299699962571	0
3.48	41.8271680025621	0	1	0	1	0	41.8271680025621	0
3.49	41.9250237662395	0	1	0	1	0	41.9250237662395	0
3.5	42.0235351301024	0	1	0	1	0	42.0235351301024	0
3.51	42.1226999615471	0	1	0	1	0	42.1226999615471	0
3.52	42.2225161522044	0	1	0	1	0	42.2225161522044	0
3.53	42.3229816175957	0	1	0	1	0	42.3229816175957	0
3.54	42.4240942967959	0	1	0	1	0	42.4240942967959	0
3.55	42.5258521521014	0	1	0	1	0	42.5258521521014	0
3.56	42.6282531687046	0	1	0	1	0	42.6282531687046	0
3.57	42.7312953543722	0	1	0	1	0	42.7312953543722	0
3.58	42.8349767391311	0	1	0	1	0	42.8349767391311	0
3.59	42.9392953749572	0	1	0	1	0	42.9392953749572	0
3.6	43.0442493354714	0	1	0	1	0	43.0442493354714	0
3.61	43.1498367156396	0	1	0	1	0	43.1498367156396	0
3.62	43.2560556314776	0	1	0	1	0	43.2560556314776	0
3.63	43.3629042197615	0	1	0	1	0	43.3629042197615	0
3.64	43.4703806377422	0	1	0	1	0	43.4703806377422	0
3.65	43.5784830628654	0	1	0	1	0	43.5784830628654	0
3.66	43.6872096924951	0	1	0	1	0	43.6872096924951	0
3.67	43.7965587436429	0	1	0	1	0	43.7965587436429	0
3.68	43.9065284527003	0	1	0	1	0	43.9065284527003	0
3.69	44.017117075177	0	1	0	1	0	44.017117075177	0
3.7	44.1283228854416	0	1	0	1	0	44.1283228854416	0
3.71	44.2401441764681	0	1	0	1	0	44.2401441764681	0
3.72	44.3525792595857	0	1	0	1	0	44.3525792595857	0
3.73	44.4656264642326	0	1	0	1	0	44.4656264642326	0
3.74	44.5792841377138	0	1	0	1	0	44.5792841377138	0
3.75	44.6935506449632	0	1	0	1	0	44.6935506449632	0
3.76	44.8084243683091	0	1	0	1	0	44.8084243683091	0
3.77	44.9239037072433	0	1	0	1	0	44.9239037072433	0
3.78	45.0399870781942	0	1	0	1	0	45.0399870781942	0
3.79	45.1566729143034	0	1	0	1	0	45.1566729143034	0
3.8	45.2739596652058	0	1	0	1	0	45.2739596652058	0
3.81	45.391845796813	0	1	0	1	0	45.391845796813	0
3.82	45.5103297911003	0	1	0	1	0	45.5103297911003	0
3.83	45.6294101458972	0	1	0	1	0	45.6294101458972	0
3.84	45.7490853746808	0	1	0	1	0	45.7490853746808	0
3.85	45.8693540063724	0	1	0	1	0	45.8693540063724	0
3.86	45.9902145851378	0	1	0	1	0	45.9902145851378	0
3.87	46.1116656701903	0	1	0	1	0	46.1116656701903	0
3.88	46.2337058355963	0	1	0	1	0	46.2337058355963	0
3.89	46.3563336700851	0	1	0	1	0	46.3563336700851	0
3.9	46.4795477768605	0	1	0	1	0	46.4795477768605	0
3.91	46.6033467734156	0	1	0	1	0	46.6033467734156	0
3.92	46.7277292913509	0	1	0	1	0	46.7277292913509	0
3.93	46.8526939761946	0	1	0	1	0	46.8526939761946	0
3.94	46.9782394872259	0	1	0	1	0	46.9782394872259	0
3.95	47.1043644973007	0	1	0	1	0	47.1043644973007	0
3.96	47.2310676926807	0	1	0	1	0	47.2310676926807	0
3.97	47.3583477728641	0	1	0	1	0	47.3583477728641	0
3.98	47.4862034504195	0	1	0	1	0	47.4862034504195	0
3.99	47.6146334508221	0	1	0	1	0	47.6146334508221	0
4	47.7436365122922	0	1	0	1	0	47.7436365122922	0
4.01	47.8732113856367	0	1	0	1	0	47.8732113856367	0
4.02	48.0033568340921	0	1	0	1	0	48.0033568340921	0
4.03	48.1340716331704	0	1	0	1	0	48.1340716331704	0
4.04	48.2653545705075	0	1	0	1	0	48.2653545705075	0
4.05	48.3972044457131	0	1	0	1	0	48.3972044457131	0
4.06	48.5296200702233	0	1	0	1	0	48.5296200702233	0
4.07	48.6626002671557	0	1	0	1	0	48.6626002671557	0
4.08	48.7961438711657	0	1	0	1	0	48.7961438711657	0
4.09	48.9302497283058	0	1	0	1	0	48.9302497283058	0
4.1	49.0649166958865	0	1	0	1	0	49.0649166958865	0
4.11	49.2001436423396	0	1	0	1	0	49.2001436423396	0
4.12	49.3359294470826	0	1	0	1	0	49.3359294470826	0
4.13	49.4722730003864	0	1	0	1	0	49.4722730003864	0
4.14	49.6091732032439	0	1	0	1	0	49.6091732032439	0
4.15	49.7466289672406	0	1	0	1	0	49.7466289672406	0
4.16	49.8846392144277	0	1	0	1	0	49.8846392144277	0
4.17	50.0232028771965	0	1	0	1	0	50.0232028771965	0
4.18	50.1623188981546	0	1	0	1	0	50.1623188981546	0
4.19	50.301986230004	0	1	0	1	0	50.301986230004	0
4.2	50.4422038354209	0	1	0	1	0	50.4422038354209	0
4.21	50.5829706869374	0	1	0	1	0	50.5829706869374	0
4.22	50.7242857668247	0	1	0	1	0	50.7242857668247	0
4.23	50.8661480669778	0	1	0	1	0	50.8661480669778	0
4.24	51.0085565888021	0	1	0	1	0	51.0085565888021	0
4.25	51.1515103431017	0	1	0	1	0	51.1515103431017	0
4.26	51.2950083499687	0	1	0	1	0	51.2950083499687	0
4.27	51.4390496386749	0	1	0	1	0	51.4390496386749	0
4.28	51.5836332475642	0	1	0	1	0	51.5836332475642	0
4.29	51.7287582239469	0	1	0	1	0	51.7287582239469	0
4.3	51.8744236239957	0	1	0	1	0	51.8744236239957	0
4.31	52.0206285126426	0	1	0	1	0	52.0206285126426	0
4.32	52.1673719634777	0	1	0	1	0	52.1673719634777	0
4.33	52.3146530586492	0	1	0	1	0	52.3146530586492	0
4.34	52.4624708887647	0	1	0	1	0	52.4624708887647	0
4.35	52.610824552794	0	1	0	1	0	52.610824552794	0
4.36	52.7597131579733	0	1	0	1	0	52.7597131579733	0
4.37	52.9091358197105	0	1	0	1	0	52.9091358197105	0
4.38	53.059091661492	0	1	0	1	0	53.059091661492	0
4.39	53.2095798147906	0	1	0	1	0	53.2095798147906	0
4.4	53.3605994189749	0	1	0	1	0	53.3605994189749	0
4.41	53.5121496212196	0	1	0	1	0	53.5121496212196	0
4.42	53.6642295764173	0	1	0	1	0	53.6642295764173	0
4.43	53.8168384470914	0	1	0	1	0	53.8168384470914	0
4.44	53.9699754033101	0	1	0	1	0	53.9699754033101	0
4.45	54.1236396226016	0	1	0	1	0	54.1236396226016	0
4.46	54.2778302898706	0	1	0	1	0	54.2778302898706	0
4.47	54.4325465973159	0	1	0	1	0	54.4325465973159	0
4.48	54.5877877443483	0	1	0	1	0	54.5877877443483	0
4.49	54.7435529375114	0	1	0	1	0	54.7435529375114	0
4.5	54.8998413904013	0	1	0	1	0	54.8998413904013	0
4.51	55.0566523235891	0	1	0	1	0	55.0566523235891	0
4.52	55.2139849645434	0	1	0	1	0	55.2139849645434	0
4.53	55.3718385475543	0	1	0	1	0	55.3718385475543	0
4.54	55.5302123136582	0	1	0	1	0	55.5302123136582	0
4.55	55.6891055105638	0	1	0	1	0	55.6891055105638	0
4.56	55.8485173925788	0	1	0	1	0	55.8485173925788	0
4.57	56.0084472205376	0	1	0	1	0	56.0084472205376	0
4.58	56.1688942617305	0	1	0	1	0	56.1688942617305	0
4.59	56.3298577898328	0	1	0	1	0	56.3298577898328	0
4.6	56.4913370848358	0	1	0	1	0	56.4913370848358	0
4.61	56.6533314329781	0	1	0	1	0	56.6533314329781	0
4.62	56.8158401266781	0	1	0	1	0	56.8158401266781	0
4.63	56.9788624644673	0	1	0	1	0	56.9788624644673	0
4.64	57.1423977509241	0	1	0	1	0	57.1423977509241	0
4.65	57.3064452966092	0	1	0	1	0	57.3064452966092	0
4.66	57.4710044180013	0	1	0	1	0	57.4710044180013	0
4.67	57.6360744374334	0	1	0	1	0	57.6360744374334	0
4.68	57.8016546830308	0	1	0	1	0	57.8016546830308	0
4.69	57.9677444886489	0	1	0	1	0	57.9677444886489	0
4.7	58.1343431938126	0	1	0	1	0	58.1343431938126	0
4.71	58.3014501436558	0	1	0	1	0	58.3014501436558	0
4.72	58.469064688862	0	1	0	1	0	58.469064688862	0
4.73	58.637186185606	0	1	0	1	0	58.637186185606	0
4.74	58.8058139954955	0	1	0	1	0	58.8058139954955	0
4.75	58.9749474855144	0	1	0	1	0	58.9749474855144	0
4.76	59.1445860279657	0	1	0	1	0	59.1445860279657	0
4.77	59.3147290004165	0	1	0	1	0	59.3147290004165	0
4.78	59.4853757856422	0	1	0	1	0	59.4853757856422	0
4.79	59.6565257715726	0	1	0	1	0	59.6565257715726	0
4.8	59.8281783512383	0	1	0	1	0	59.8281783512383	0
4.81	60.0003329227172	0	1	0	1	0	60.0003329227172	0
4.82	60.1729888890823	0	1	0	1	0	60.1729888890823	0
4.83	60.3461456583505	0	1	0	1	0	60.3461456583505	0
4.84	60.5198026434308	0	1	0	1	0	60.5198026434308	0
4.85	60.6939592620743	0	1	0	1	0	60.6939592620743	0
4.86	60.8686149368243	0	1	0	1	0	60.8686149368243	0
4.87	61.0437690949669	0	1	0	1	0	61.0437690949669	0
4.88	61.2194211684828	0	1	0	1	0	61.2194211684828	0
4.89	61.3955705939989	0	1	0	1	0	61.3955705939989	0
4.9	61.5722168127413	0	1	0	1	0	61.5722168127413	0
4.91	61.7493592704879	0	1	0	1	0	61.7493592704879	0
4.92	61.9269974175226	0	1	0	1	0	61.9269974175226	0
4.93	62.1051307085898	0	1	0	1	0	62.1051307085898	0
