# GHZ S RI R 50
1	58.5584131304505	0	1	0	1	0	58.5584131304505	0
1.01	58.0575514654904	0	1	0	1	0	58.0575514654904	0
1.02	57.567467676021	0	1	0	1	0	57.567467676021	0
1.03	57.0878572271672	0	1	0	1	0	57.0878572271672	0
1.04	56.618427296934	0	1	0	1	0	56.618427296934	0
1.05	56.1588962184499	0	1	0	1	0	56.1588962184499	0
1.06	55.708992953782	0	1	0	1	0	55.708992953782	0
1.07	55.2684565972566	0	1	0	1	0	55.2684565972566	0
1.08	54.8370359063729	0	1	0	1	0	54.8370359063729	0
1.09	54.4144888585387	0	1	0	1	0	54.4144888585387	0
1.1	54.0005822319831	0	1	0	1	0	54.0005822319831	0
1.11	53.5950912093234	0	1	0	1	0	53.5950912093234	0
1.12	53.1977990023692	0	1	0	1	0	53.1977990023692	0
1.13	52.8084964968483	0	1	0	1	0	52.8084964968483	0
1.14	52.4269819158313	0	1	0	1	0	52.4269819158313	0
1.15	52.053060500717	0	1	0	1	0	52.053060500717	0
1.16	51.6865442087177	0	1	0	1	0	51.6865442087177	0
1.17	51.3272514258593	0	1	0	1	0	51.3272514258593	0
1.18	50.9750066945734	0	1	0	1	0	50.9750066945734	0
1.19	50.6296404550251	0	1	0	1	0	50.6296404550251	0
1.2	50.2909887993739	0	1	0	1	0	50.2909887993739	0
1.21	49.9588932382203	0	1	0	1	0	49.9588932382203	0
1.22	49.6332004785386	0	1	0	1	0	49.6332004785386	0
1.23	49.3137622124423	0	1	0	1	0	49.3137622124423	0
1.24	49.0004349161699	0	1	0	1	0	49.0004349161699	0
1.25	48.6930796587207	0	1	0	1	0	48.6930796587207	0
1.26	48.3915619196016	0	1	0	1	0	48.3915619196016	0
1.27	48.0957514151856	0	1	0	1	0	48.0957514151856	0
1.28	47.8055219332091	0	1	0	1	0	47.8055219332091	0
1.29	47.5207511749668	0	1	0	1	0	47.5207511749668	0
1.3	47.2413206047909	0	1	0	1	0	47.2413206047909	0
1.31	46.9671153064229	0	1	0	1	0	46.9671153064229	0
1.32	46.6980238459153	0	1	0	1	0	46.6980238459153	0
1.33	46.4339381407177	0	1	0	1	0	46.4339381407177	0
1.34	46.1747533346242	0	1	0	1	0	46.1747533346242	0
1.35	45.9203676782796	0	1	0	1	0	45.9203676782796	0
1.36	45.6706824149569	0	1	0	1	0	45.6706824149569	0
1.37	45.4256016713369	0	1	0	1	0	45.4256016713369	0
1.38	45.1850323530375	0	1	0	1	0	45.1850323530375	0
1.39	44.9488840446513	0	1	0	1	0	44.9488840446513	0
1.4	44.7170689140685	0	1	0	1	0	44.7170689140685	0
1.41	44.4895016208704	0	1	0	1	0	44.4895016208704	0
1.42	44.2660992285935	0	1	0	1	0	44.2660992285935	0
1.43	44.0467811206756	0	1	0	1	0	44.0467811206756	0
1.44	43.8314689199033	0	1	0	1	0	43.8314689199033	0
1.45	43.6200864111934	0	1	0	1	0	43.6200864111934	0
1.46	43.412559467547	0	1	0	1	0	43.412559467547	0
1.47	43.2088159790265	0	1	0	1	0	43.2088159790265	0
1.48	43.0087857846114	0	1	0	1	0	43.0087857846114	0
1.49	42.8124006067987	0	1	0	1	0	42.8124006067987	0
1.5	42.6195939888187	0	1	0	1	0	42.6195939888187	0
1.51	42.430301234346	0	1	0	1	0	42.430301234346	0
1.52	42.2444593495901	0	1	0	1	0	42.2444593495901	0
1.53	42.0620069876568	0	1	0	1	0	42.0620069876568	0
1.54	41.8828843950779	0	1	0	1	0	41.8828843950779	0
1.55	41.7070333604101	0	1	0	1	0	41.7070333604101	0
1.56	41.5343971648114	0	1	0	1	0	41.5343971648114	0
1.57	41.3649205345056	0	1	0	1	0	41.3649205345056	0
1.58	41.1985495950526	0	1	0	1	0	41.1985495950526	0
1.59	41.0352318273443	0	1	0	1	0	41.0352318273443	0
1.6	40.8749160252503	0	1	0	1	0	40.8749160252503	0
1.61	40.717552254842	0	1	0	1	0	40.717552254842	0
1.62	40.5630918151275	0	1	0	1	0	40.5630918151275	0
1.63	40.4114872002311	0	1	0	1	0	40.4114872002311	0
1.64	40.2626920629572	0	1	0	1	0	40.2626920629572	0
1.65	40.1166611796784	0	1	0	1	0	40.1166611796784	0
1.66	39.9733504164933	0	1	0	1	0	39.9733504164933	0
1.67	39.8327166966001	0	1	0	1	0	39.8327166966001	0
1.68	39.6947179688349	0	1	0	1	0	39.6947179688349	0
1.69	39.5593131773277	0	1	0	1	0	39.5593131773277	0
1.7	39.426462232229	0	1	0	1	0	39.426462232229	0
1.71	39.2961259814636	0	1	0	1	0	39.2961259814636	0
1.72	39.1682661834696	0	1	0	1	0	39.1682661834696	0
1.73	39.0428454808831	0	1	0	1	0	39.0428454808831	0
1.74	38.9198273751301	0	1	0	1	0	38.9198273751301	0
1.75	38.7991762018899	0	1	0	1	0	38.7991762018899	0
1.76	38.6808571073943	0	1	0	1	0	38.6808571073943	0
1.77	38.5648360255312	0	1	0	1	0	38.5648360255312	0
1.78	38.4510796557186	0	1	0	1	0	38.4510796557186	0
1.79	38.3395554415222	0	1	0	1	0	38.3395554415222	0
1.8	38.2302315499836	0	1	0	1	0	38.2302315499836	0
1.81	38.1230768516353	0	1	0	1	0	38.1230768516353	0
1.82	38.0180609011739	0	1	0	1	0	38.0180609011739	0
1.83	37.9151539187672	0	1	0	1	0	37.9151539187672	0
1.84	37.8143267719706	0	1	0	1	0	37.8143267719706	0
1.85	37.7155509582301	0	1	0	1	0	37.7155509582301	0
1.86	37.6187985879501	0	1	0	1	0	37.6187985879501	0
1.87	37.5240423681036	0	1	0	1	0	37.5240423681036	0
1.88	37.4312555863665	0	1	0	1	0	37.4312555863665	0
1.89	37.3404120957548	0	1	0	1	0	37.3404120957548	0
1.9	37.2514862997474	0	1	0	1	0	37.2514862997474	0
1.91	37.1644531378759	0	1	0	1	0	37.1644531378759	0
1.92	37.079288071765	0	1	0	1	0	37.079288071765	0
1.93	36.9959670716069	0	1	0	1	0	36.9959670716069	0
1.94	36.9144666030536	0	1	0	1	0	36.9144666030536	0
1.95	36.8347636145131	0	1	0	1	0	36.8347636145131	0
1.96	36.7568355248338	0	1	0	1	0	36.7568355248338	0
1.97	36.6806602113649	0	1	0	1	0	36.6806602113649	0
1.98	36.6062159983778	0	1	0	1	0	36.6062159983778	0
1.99	36.5334816458368	0	1	0	1	0	36.5334816458368	0
2	36.462436338507	0	1	0	1	0	36.462436338507	0
2.01	36.3930596753871	0	1	0	1	0	36.3930596753871	0
2.02	36.3253316594559	0	1	0	1	0	36.3253316594559	0
2.03	36.2592326877222	0	1	0	1	0	36.2592326877222	0
2.04	36.1947435415672	0	1	0	1	0	36.1947435415672	0
2.05	36.1318453773696	0	1	0	1	0	36.1318453773696	0
2.06	36.0705197174036	0	1	0	1	0	36.0705197174036	0
2.07	36.0107484410008	0	1	0	1	0	36.0107484410008	0
2.08	35.9525137759675	0	1	0	1	0	35.9525137759675	0
2.09	35.8957982902472	0	1	0	1	0	35.8957982902472	0
2.1	35.8405848838231	0	1	0	1	0	35.8405848838231	0
2.11	35.7868567808489	0	1	0	1	0	35.7868567808489	0
2.12	35.734597522004	0	1	0	1	0	35.734597522004	0
2.13	35.6837909570629	0	1	0	1	0	35.6837909570629	0
2.14	35.6344212376734	0	1	0	1	0	35.6344212376734	0
2.15	35.5864728103365	0	1	0	1	0	35.5864728103365	0
2.16	35.5399304095808	0	1	0	1	0	35.5399304095808	0
2.17	35.4947790513264	0	1	0	1	0	35.4947790513264	0
2.18	35.4510040264302	0	1	0	1	0	35.4510040264302	0
2.19	35.4085908944096	0	1	0	1	0	35.4085908944096	0
2.2	35.3675254773361	0	1	0	1	0	35.3675254773361	0
2.21	35.3277938538953	0	1	0	1	0	35.3277938538953	0
2.22	35.2893823536072	0	1	0	1	0	35.2893823536072	0
2.23	35.2522775512023	0	1	0	1	0	35.2522775512023	0
2.24	35.2164662611481	0	1	0	1	0	35.2164662611481	0
2.25	35.1819355323216	0	1	0	1	0	35.1819355323216	0
2.26	35.148672642823	0	1	0	1	0	35.148672642823	0
2.27	35.1166650949271	0	1	0	1	0	35.1166650949271	0
2.28	35.085900610167	0	1	0	1	0	35.085900610167	0
2.29	35.0563671245469	0	1	0	1	0	35.0563671245469	0
2.3	35.0280527838795	0	1	0	1	0	35.0280527838795	0
2.31	35.000945939245	0	1	0	1	0	35.000945939245	0
2.32	34.9750351425668	0	1	0	1	0	34.9750351425668	0
2.33	34.950309142302	0	1	0	1	0	34.950309142302	0
2.34	34.9267568792417	0	1	0	1	0	34.9267568792417	0
2.35	34.9043674824188	0	1	0	1	0	34.9043674824188	0
2.36	34.88313026512	0	1	0	1	0	34.88313026512	0
2.37	34.8630347209984	0	1	0	1	0	34.8630347209984	0
2.38	34.8440705202844	0	1	0	1	0	34.8440705202844	0
2.39	34.8262275060914	0	1	0	1	0	34.8262275060914	0
2.4	34.8094956908145	0	1	0	1	0	34.8094956908145	0
2.41	34.793865252618	0	1	0	1	0	34.793865252618	0
2.42	34.7793265320106	0	1	0	1	0	34.7793265320106	0
2.43	34.7658700285051	0	1	0	1	0	34.7658700285051	0
2.44	34.7534863973599	0	1	0	1	0	34.7534863973599	0
2.45	34.7421664464006	0	1	0	1	0	34.7421664464006	0
2.46	34.731901132919	0	1	0	1	0	34.731901132919	0
2.47	34.7226815606478	0	1	0	1	0	34.7226815606478	0
2.48	34.7144989768074	0	1	0	1	0	34.7144989768074	0
2.49	34.7073447692255	0	1	0	1	0	34.7073447692255	0
2.5	34.7012104635245	0	1	0	1	0	34.7012104635245	0
2.51	34.6960877203765	0	1	0	1	0	34.6960877203765	0
2.52	34.6919683328239	0	1	0	1	0	34.6919683328239	0
2.53	34.6888442236635	0	1	0	1	0	34.6888442236635	0
2.54	34.686707442892	0	1	0	1	0	34.686707442892	0
2.55	34.6855501652122	0	1	0	1	0	34.6855501652122	0
2.56	34.6853646875971	0	1	0	1	0	34.6853646875971	0
2.57	34.686143426911	0	1	0	1	0	34.686143426911	0
2.58	34.6878789175865	0	1	0	1	0	34.6878789175865	0
2.59	34.6905638093543	0	1	0	1	0	34.6905638093543	0
2.6	34.6941908650263	0	1	0	1	0	34.6941908650263	0
2.61	34.698752958329	0	1	0	1	0	34.698752958329	0
2.62	34.7042430717872	0	1	0	1	0	34.7042430717872	0
2.63	34.7106542946552	0	1	0	1	0	34.7106542946552	0
2.64	34.7179798208956	0	1	0	1	0	34.7179798208956	0
2.65	34.7262129472036	0	1	0	1	0	34.7262129472036	0
2.66	34.7353470710761	0	1	0	1	0	34.7353470710761	0
2.67	34.7453756889238	0	1	0	1	0	34.7453756889238	0
2.68	34.7562923942259	0	1	0	1	0	34.7562923942259	0
2.69	34.7680908757259	0	1	0	1	0	34.7680908757259	0
2.7	34.7807649156674	0	1	0	1	0	34.7807649156674	0
2.71	34.7943083880689	0	1	0	1	0	34.7943083880689	0
2.72	34.8087152570369	0	1	0	1	0	34.8087152570369	0
2.73	34.8239795751161	0	1	0	1	0	34.8239795751161	0
2.74	34.8400954816751	0	1	0	1	0	34.8400954816751	0
2.75	34.8570572013281	0	1	0	1	0	34.8570572013281	0
2.76	34.8748590423907	0	1	0	1	0	34.8748590423907	0
2.77	34.8934953953687	0	1	0	1	0	34.8934953953687	0
2.78	34.9129607314802	0	1	0	1	0	34.9129607314802	0
2.79	34.9332496012089	0	1	0	1	0	34.9332496012089	0
2.8	34.9543566328886	0	1	0	1	0	34.9543566328886	0
2.81	34.9762765313184	0	1	0	1	0	34.9762765313184	0
2.82	34.9990040764065	0	1	0	1	0	34.9990040764065	0
2.83	35.0225341218432	0	1	0	1	0	35.0225341218432	0
2.84	35.0468615938022	0	1	0	1	0	35.0468615938022	0
2.85	35.0719814896688	0	1	0	1	0	35.0719814896688	0
2.86	35.0978888767946	0	1	0	1	0	35.0978888767946	0
2.87	35.1245788912795	0	1	0	1	0	35.1245788912795	0
2.88	35.1520467367771	0	1	0	1	0	35.1520467367771	0
2.89	35.1802876833266	0	1	0	1	0	35.1802876833266	0
2.9	35.2092970662079	0	1	0	1	0	35.2092970662079	0
2.91	35.239070284821	0	1	0	1	0	35.239070284821	0
2.92	35.2696028015877	0	1	0	1	0	35.2696028015877	0
2.93	35.3008901408761	0	1	0	1	0	35.3008901408761	0
2.94	35.3329278879476	0	1	0	1	0	35.3329278879476	0
2.95	35.3657116879241	0	1	0	1	0	35.3657116879241	0
2.96	35.3992372447774	0	1	0	1	0	35.3992372447774	0
2.97	35.4335003203383	0	1	0	1	0	35.4335003203383	0
2.98	35.4684967333257	0	1	0	1	0	35.4684967333257	0
2.99	35.5042223583953	0	1	0	1	0	35.5042223583953	0
3	35.5406731252075	0	1	0	1	0	35.5406731252075	0
3.01	35.5778450175136	0	1	0	1	0	35.5778450175136	0
3.02	35.6157340722601	0	1	0	1	0	35.6157340722601	0
3.03	35.6543363787113	0	1	0	1	0	35.6543363787113	0
3.04	35.6936480775883	0	1	0	1	0	35.6936480775883	0
3.05	35.7336653602259	0	1	0	1	0	35.7336653602259	0
3.06	35.7743844677451	0	1	0	1	0	35.7743844677451	0
3.07	35.8158016902428	0	1	0	1	0	35.8158016902428	0
3.08	35.8579133659962	0	1	0	1	0	35.8579133659962	0
3.09	35.9007158806838	0	1	0	1	0	35.9007158806838	0
3.1	35.9442056666202	0	1	0	1	0	35.9442056666202	0
3.11	35.9883792020067	0	1	0	1	0	35.9883792020067	0
3.12	36.0332330101958	0	1	0	1	0	36.0332330101958	0
3.13	36.0787636589703	0	1	0	1	0	36.0787636589703	0
3.14	36.1249677598351	0	1	0	1	0	36.1249677598351	0
3.15	36.171841967324	0	1	0	1	0	36.171841967324	0
3.16	36.2193829783181	0	1	0	1	0	36.2193829783181	0
3.17	36.2675875313784	0	1	0	1	0	36.2675875313784	0
3.18	36.3164524060905	0	1	0	1	0	36.3164524060905	0
3.19	36.3659744224211	0	1	0	1	0	36.3659744224211	0
3.2	36.4161504400873	0	1	0	1	0	36.4161504400873	0
3.21	36.4669773579377	0	1	0	1	0	36.4669773579377	0
3.22	36.5184521133442	0	1	0	1	0	36.5184521133442	0
3.23	36.5705716816062	0	1	0	1	0	36.5705716816062	0
3.24	36.6233330753652	0	1	0	1	0	36.6233330753652	0
3.25	36.6767333440297	0	1	0	1	0	36.6767333440297	0
3.26	36.7307695732124	0	1	0	1	0	36.7307695732124	0
3.27	36.7854388841755	0	1	0	1	0	36.7854388841755	0
3.28	36.8407384332881	0	1	0	1	0	36.8407384332881	0
3.29	36.896665411492	0	1	0	1	0	36.896665411492	0
3.3	36.9532170437785	0	1	0	1	0	36.9532170437785	0
3.31	37.0103905886736	0	1	0	1	0	37.0103905886736	0
3.32	37.068183337733	0	1	0	1	0	37.068183337733	0
3.33	37.1265926150465	0	1	0	1	0	37.1265926150465	0
3.34	37.1856157767506	0	1	0	1	0	37.1856157767506	0
3.35	37.2452502105503	0	1	0	1	0	37.2452502105503	0
3.36	37.3054933352494	0	1	0	1	0	37.3054933352494	0
3.37	37.3663426002891	0	1	0	1	0	37.3663426002891	0
3.38	37.4277954852945	0	1	0	1	0	37.4277954852945	0
3.39	37.4898494996299	0	1	0	1	0	37.4898494996299	0
3.4	37.552502181961	0	1	0	1	0	37.552502181961	0
3.41	37.6157510998256	0	1	0	1	0	37.6157510998256	0
3.42	37.6795938492113	0	1	0	1	0	37.6795938492113	0
3.43	37.7440280541409	0	1	0	1	0	37.7440280541409	0
3.44	37.8090513662646	0	1	0	1	0	37.8090513662646	0
3.45	37.8746614644601	0	1	0	1	0	37.8746614644601	0
3.46	37.9408560544388	0	1	0	1	0	37.9408560544388	0
3.47	38.0076328683592	0	1	0	1	0	38.0076328683592	0
3.48	38.0749896644469	0	1	0	1	0	38.0749896644469	0
3.49	38.1429242266215	0	1	0	1	0	38.1429242266215	0
3.5	38.2114343641287	0	1	0	1	0	38.2114343641287	0
3.51	38.2805179111805	0	1	0	1	0	38.2805179111805	0
3.52	38.3501727266	0	1	0	1	0	38.3501727266	0
3.53	38.4203966934728	0	1	0	1	0	38.4203966934728	0
3.54	38.4911877188046	0	1	0	1	0	38.4911877188046	0
3.55	38.5625437331842	0	1	0	1	0	38.5625437331842	0
3.56	38.6344626904518	0	1	0	1	0	38.6344626904518	0
3.57	38.7069425673744	0	1	0	1	0	38.7069425673744	0
3.58	38.7799813633243	0	1	0	1	0	38.7799813633243	0
3.59	38.8535770999654	0	1	0	1	0	38.8535770999654	0
3.6	38.9277278209429	0	1	0	1	0	38.9277278209429	0
3.61	39.002431591579	0	1	0	1	0	39.002431591579	0
3.62	39.0776864985738	0	1	0	1	0	39.0776864985738	0
3.63	39.1534906497103	0	1	0	1	0	39.1534906497103	0
3.64	39.2298421735654	0	1	0	1	0	39.2298421735654	0
3.65	39.3067392192244	0	1	0	1	0	39.3067392192244	0
3.66	39.3841799560015	0	1	0	1	0	39.3841799560015	0
3.67	39.4621625731636	0	1	0	1	0	39.4621625731636	0
3.68	39.5406852796598	0	1	0	1	0	39.5406852796598	0
3.69	39.6197463038541	0	1	0	1	0	39.6197463038541	0
3.7	39.6993438932635	0	1	0	1	0	39.6993438932635	0
3.71	39.7794763142995	0	1	0	1	0	39.7794763142995	0
3.72	39.8601418520146	0	1	0	1	0	39.8601418520146	0
3.73	39.9413388098519	0	1	0	1	0	39.9413388098519	0
3.74	40.0230655093996	0	1	0	1	0	40.0230655093996	0
3.75	40.1053202901491	0	1	0	1	0	40.1053202901491	0
3.76	40.1881015092566	0	1	0	1	0	40.1881015092566	0
3.77	40.271407541309	0	1	0	1	0	40.271407541309	0
3.78	40.3552367780934	0	1	0	1	0	40.3552367780934	0
3.79	40.4395876283702	0	1	0	1	0	40.4395876283702	0
3.8	40.5244585176496	0	1	0	1	0	40.5244585176496	0
3.81	40.6098478879718	0	1	0	1	0	40.6098478879718	0
3.82	40.6957541976909	0	1	0	1	0	40.6957541976909	0
3.83	40.7821759212616	0	1	0	1	0	40.7821759212616	0
3.84	40.8691115490298	0	1	0	1	0	40.8691115490298	0
3.85	40.956559587026	0	1	0	1	0	40.956559587026	0
3.86	41.0445185567623	0	1	0	1	0	41.0445185567623	0
3.87	41.1329869950323	0	1	0	1	0	41.1329869950323	0
3.88	41.2219634537143	0	1	0	1	0	41.2219634537143	0
3.89	41.3114464995773	0	1	0	1	0	41.3114464995773	0
3.9	41.4014347140899	0	1	0	1	0	41.4014347140899	0
3.91	41.4919266932329	0	1	0	1	0	41.4919266932329	0
3.92	41.5829210473134	0	1	0	1	0	41.5829210473134	0
3.93	41.6744164007833	0	1	0	1	0	41.6744164007833	0
3.94	41.7664113920593	0	1	0	1	0	41.7664113920593	0
3.95	41.8589046733463	0	1	0	1	0	41.8589046733463	0
3.96	41.9518949104632	0	1	0	1	0	41.9518949104632	0
3.97	42.0453807826718	0	1	0	1	0	42.0453807826718	0
3.98	42.1393609825075	0	1	0	1	0	42.1393609825075	0
3.99	42.2338342156129	0	1	0	1	0	42.2338342156129	0
4	42.3287992005745	0	1	0	1	0	42.3287992005745	0
4.01	42.4242546687608	0	1	0	1	0	42.4242546687608	0
4.02	42.5201993641637	0	1	0	1	0	42.5201993641637	0
4.03	42.6166320432413	0	1	0	1	0	42.6166320432413	0
4.04	42.7135514747644	0	1	0	1	0	42.7135514747644	0
4.05	42.8109564396638	0	1	0	1	0	42.8109564396638	0
4.06	42.9088457308811	0	1	0	1	0	42.9088457308811	0
4.07	43.0072181532205	0	1	0	1	0	43.0072181532205	0
4.08	43.1060725232043	0	1	0	1	0	43.1060725232043	0
4.09	43.2054076689287	0	1	0	1	0	43.2054076689287	0
4.1	43.3052224299234	0	1	0	1	0	43.3052224299234	0
4.11	43.4055156570121	0	1	0	1	0	43.4055156570121	0
4.12	43.5062862121756	0	1	0	1	0	43.5062862121756	0
4.13	43.6075329684165	0	1	0	1	0	43.6075329684165	0
4.14	43.7092548096265	0	1	0	1	0	43.7092548096265	0
4.15	43.8114506304549	0	1	0	1	0	43.8114506304549	0
4.16	43.9141193361794	0	1	0	1	0	43.9141193361794	0
4.17	44.0172598425784	0	1	0	1	0	44.0172598425784	0
4.18	44.120871075806	0	1	0	1	0	44.120871075806	0
4.19	44.2249519722675	0	1	0	1	0	44.2249519722675	0
4.2	44.3295014784979	0	1	0	1	0	44.3295014784979	0
4.21	44.4345185510412	0	1	0	1	0	44.4345185510412	0
4.22	44.540002156332	0	1	0	1	0	44.540002156332	0
4.23	44.6459512705786	0	1	0	1	0	44.6459512705786	0
4.24	44.7523648796479	0	1	0	1	0	44.7523648796479	0
4.25	44.8592419789512	0	1	0	1	0	44.8592419789512	0
4.26	44.9665815733328	0	1	0	1	0	44.9665815733328	0
4.27	45.0743826769594	0	1	0	1	0	45.0743826769594	0
4.28	45.1826443132109	0	1	0	1	0	45.1826443132109	0
4.29	45.2913655145731	0	1	0	1	0	45.2913655145731	0
4.3	45.4005453225324	0	1	0	1	0	45.4005453225324	0
4.31	45.5101827874704	0	1	0	1	0	45.5101827874704	0
4.32	45.6202769685617	0	1	0	1	0	45.6202769685617	0
4.33	45.7308269336722	0	1	0	1	0	45.7308269336722	0
4.34	45.8418317592588	0	1	0	1	0	45.8418317592588	0
4.35	45.9532905302708	0	1	0	1	0	45.9532905302708	0
4.36	46.0652023400523	0	1	0	1	0	46.0652023400523	0
4.37	46.1775662902466	0	1	0	1	0	46.1775662902466	0
4.38	46.2903814907008	0	1	0	1	0	46.2903814907008	0
4.39	46.4036470593731	0	1	0	1	0	46.4036470593731	0
4.4	46.51736212224	0	1	0	1	0	46.51736212224	0
4.41	46.6315258132058	0	1	0	1	0	46.6315258132058	0
4.42	46.7461372740128	0	1	0	1	0	46.7461372740128	0
4.43	46.8611956541525	0	1	0	1	0	46.8611956541525	0
4.44	46.9767001107791	0	1	0	1	0	46.9767001107791	0
4.45	47.0926498086226	0	1	0	1	0	47.0926498086226	0
4.46	47.2090439199042	0	1	0	1	0	47.2090439199042	0
4.47	47.3258816242529	0	1	0	1	0	47.3258816242529	0
4.48	47.443162108622	0	1	0	1	0	47.443162108622	0
4.49	47.5608845672081	0	1	0	1	0	47.5608845672081	0
4.5	47.6790482013707	0	1	0	1	0	47.6790482013707	0
4.51	47.7976522195523	0	1	0	1	0	47.7976522195523	0
4.52	47.9166958372005	0	1	0	1	0	47.9166958372005	0
4.53	48.0361782766906	0	1	0	1	0	48.0361782766906	0
4.54	48.156098767249	0	1	0	1	0	48.156098767249	0
4.55	48.2764565448782	0	1	0	1	0	48.2764565448782	0
4.56	48.3972508522825	0	1	0	1	0	48.3972508522825	0
4.57	48.5184809387947	0	1	0	1	0	48.5184809387947	0
4.58	48.6401460603033	0	1	0	1	0	48.6401460603033	0
4.59	48.7622454791818	0	1	0	1	0	48.7622454791818	0
4.6	48.8847784642176	0	1	0	1	0	48.8847784642176	0
4.61	49.0077442905428	0	1	0	1	0	49.0077442905428	0
4.62	49.1311422395655	0	1	0	1	0	49.1311422395655	0
4.63	49.2549715989017	0	1	0	1	0	49.2549715989017	0
4.64	49.3792316623088	0	1	0	1	0	49.3792316623088	0
4.65	49.5039217296194	0	1	0	1	0	49.5039217296194	0
4.66	49.629041106676	0	1	0	1	0	49.629041106676	0
4.67	49.754589105267	0	1	0	1	0	49.754589105267	0
4.68	49.8805650430627	0	1	0	1	0	49.8805650430627	0
4.69	50.006968243553	0	1	0	1	0	50.006968243553	0
4.7	50.1337980359853	0	1	0	1	0	50.1337980359853	0
4.71	50.2610537553034	0	1	0	1	0	50.2610537553034	0
4.72	50.3887347420871	0	1	0	1	0	50.3887347420871	0
4.73	50.5168403424929	0	1	0	1	0	50.5168403424929	0
4.74	50.6453699081947	0	1	0	1	0	50.6453699081947	0
4.75	50.7743227963263	0	1	0	1	0	50.7743227963263	0
4.76	50.9036983694233	0	1	0	1	0	50.9036983694233	0
4.77	51.0334959953674	0	1	0	1	0	51.0334959953674	0
4.78	51.1637150473297	0	1	0	1	0	51.1637150473297	0
4.79	51.2943549037157	0	1	0	1	0	51.2943549037157	0
4.8	51.4254149481112	0	1	0	1	0	51.4254149481112	0
4.81	51.5568945692278	0	1	0	1	0	51.5568945692278	0
4.82	51.6887931608502	0	1	0	1	0	51.6887931608502	0
4.83	51.8211101217834	0	1	0	1	0	51.8211101217834	0
4.84	51.9538448558009	0	1	0	1	0	51.9538448558009	0
4.85	52.0869967715939	0	1	0	1	0	52.0869967715939	0
4.86	52.2205652827198	0	1	0	1	0	52.2205652827198	0
4.87	52.3545498075533	0	1	0	1	0	52.3545498075533	0
4.88	52.4889497692361	0	1	0	1	0	52.4889497692361	0
4.89	52.6237645956288	0	1	0	1	0	52.6237645956288	0
4.9	52.7589937192624	0	1	0	1	0	52.7589937192624	0
4.91	52.8946365772912	0	1	0	1	0	52.8946365772912	0
4.92	53.0306926114449	0	1	0	1	0	53.0306926114449	0
4.93	53.1671612679833	0	1	0	1	0	53.1671612679833	0
