# GHZ S RI R 50
1	53.1611987824371	0	1	0	1	0	53.1611987824371	0
1.01	52.7142100630873	0	1	0	1	0	52.7142100630873	0
1.02	52.2769296786762	0	1	0	1	0	52.2769296786762	0
1.03	51.8490841164901	0	1	0	1	0	51.8490841164901	0
1.04	51.4304103835349	0	1	0	1	0	51.4304103835349	0
1.05	51.0206555055974	0	1	0	1	0	51.0206555055974	0
1.06	50.619576054661	0	1	0	1	0	50.619576054661	0
1.07	50.2269377028219	0	1	0	1	0	50.2269377028219	0
1.08	49.8425148009875	0	1	0	1	0	49.8425148009875	0
1.09	49.4660899807661	0	1	0	1	0	49.4660899807661	0
1.1	49.0974537780707	0	1	0	1	0	49.0974537780707	0
1.11	48.7364042770702	0	1	0	1	0	48.7364042770702	0
1.12	48.3827467732127	0	1	0	1	0	48.3827467732127	0
1.13	48.0362934541432	0	1	0	1	0	48.0362934541432	0
1.14	47.6968630974137	0	1	0	1	0	47.6968630974137	0
1.15	47.3642807839658	0	1	0	1	0	47.3642807839658	0
1.16	47.0383776264326	0	1	0	1	0	47.0383776264326	0
1.17	46.7189905113745	0	1	0	1	0	46.7189905113745	0
1.18	46.4059618546208	0	1	0	1	0	46.4059618546208	0
1.19	46.099139368948	0	1	0	1	0	46.099139368948	0
1.2	45.7983758433731	0	1	0	1	0	45.7983758433731	0
1.21	45.503528933392	0	1	0	1	0	45.503528933392	0
1.22	45.2144609615337	0	1	0	1	0	45.2144609615337	0
1.23	44.9310387276429	0	1	0	1	0	44.9310387276429	0
1.24	44.6531333283438	0	1	0	1	0	44.6531333283438	0
1.25	44.3806199851688	0	1	0	1	0	44.3806199851688	0
1.26	44.113377880871	0	1	0	1	0	44.113377880871	0
1.27	43.8512900034716	0	1	0	1	0	43.8512900034716	0
1.28	43.5942429976158	0	1	0	1	0	43.5942429976158	0
1.29	43.3421270228437	0	1	0	1	0	43.3421270228437	0
1.3	43.0948356184018	0	1	0	1	0	43.0948356184018	0
1.31	42.8522655742466	0	1	0	1	0	42.8522655742466	0
1.32	42.6143168079118	0	1	0	1	0	42.6143168079118	0
1.33	42.38089224693	0	1	0	1	0	42.38089224693	0
1.34	42.1518977165193	0	1	0	1	0	42.1518977165193	0
1.35	41.9272418322619	0	1	0	1	0	41.9272418322619	0
1.36	41.7068358975169	0	1	0	1	0	41.7068358975169	0
1.37	41.4905938053263	0	1	0	1	0	41.4905938053263	0
1.38	41.278431944586	0	1	0	1	0	41.278431944586	0
1.39	41.0702691102669	0	1	0	1	0	41.0702691102669	0
1.4	40.8660264174835	0	1	0	1	0	40.8660264174835	0
1.41	40.6656272192193	0	1	0	1	0	40.6656272192193	0
1.42	40.468997027529	0	1	0	1	0	40.468997027529	0
1.43	40.2760634380459	0	1	0	1	0	40.2760634380459	0
1.44	40.0867560576358	0	1	0	1	0	40.0867560576358	0
1.45	39.9010064350441	0	1	0	1	0	39.9010064350441	0
1.46	39.718747994393	0	1	0	1	0	39.718747994393	0
1.47	39.5399159713932	0	1	0	1	0	39.5399159713932	0
1.48	39.3644473521416	0	1	0	1	0	39.3644473521416	0
1.49	39.1922808143836	0	1	0	1	0	39.1922808143836	0
1.5	39.0233566711246	0	1	0	1	0	39.0233566711246	0
1.51	38.8576168164824	0	1	0	1	0	38.8576168164824	0
1.52	38.6950046736772	0	1	0	1	0	38.6950046736772	0
1.53	38.5354651450604	0	1	0	1	0	38.5354651450604	0
1.54	38.3789445640914	0	1	0	1	0	38.3789445640914	0
1.55	38.2253906491725	0	1	0	1	0	38.2253906491725	0
1.56	38.0747524592597	0	1	0	1	0	38.0747524592597	0
1.57	37.9269803511701	0	1	0	1	0	37.9269803511701	0
1.58	37.7820259385102	0	1	0	1	0	37.7820259385102	0
1.59	37.6398420521543	0	1	0	1	0	37.6398420521543	0
1.6	37.5003827022048	0	1	0	1	0	37.5003827022048	0
1.61	37.3636030413701	0	1	0	1	0	37.3636030413701	0
1.62	37.2294593296996	0	1	0	1	0	37.2294593296996	0
1.63	37.0979089006151	0	1	0	1	0	37.0979089006151	0
1.64	36.9689101281872	0	1	0	1	0	36.9689101281872	0
1.65	36.8424223955996	0	1	0	1	0	36.8424223955996	0
1.66	36.7184060647546	0	1	0	1	0	36.7184060647546	0
1.67	36.5968224469699	0	1	0	1	0	36.5968224469699	0
1.68	36.4776337747225	0	1	0	1	0	36.4776337747225	0
1.69	36.3608031743951	0	1	0	1	0	36.3608031743951	0
1.7	36.246294639985	0	1	0	1	0	36.246294639985	0
1.71	36.1340730077352	0	1	0	1	0	36.1340730077352	0
1.72	36.0241039316503	0	1	0	1	0	36.0241039316503	0
1.73	35.9163538598622	0	1	0	1	0	35.9163538598622	0
1.74	35.8107900118101	0	1	0	1	0	35.8107900118101	0
1.75	35.7073803562029	0	1	0	1	0	35.7073803562029	0
1.76	35.6060935897338	0	1	0	1	0	35.6060935897338	0
1.77	35.5068991165149	0	1	0	1	0	35.5068991165149	0
1.78	35.4097670282068	0	1	0	1	0	35.4097670282068	0
1.79	35.3146680848124	0	1	0	1	0	35.3146680848124	0
1.8	35.2215736961128	0	1	0	1	0	35.2215736961128	0
1.81	35.1304559037168	0	1	0	1	0	35.1304559037168	0
1.82	35.0412873637035	0	1	0	1	0	35.0412873637035	0
1.83	34.9540413298333	0	1	0	1	0	34.9540413298333	0
1.84	34.8686916373064	0	1	0	1	0	34.8686916373064	0
1.85	34.7852126870488	0	1	0	1	0	34.7852126870488	0
1.86	34.7035794305038	0	1	0	1	0	34.7035794305038	0
1.87	34.623767354913	0	1	0	1	0	34.623767354913	0
1.88	34.545752469066	0	1	0	1	0	34.545752469066	0
1.89	34.4695112895027	0	1	0	1	0	34.4695112895027	0
1.9	34.3950208271519	0	1	0	1	0	34.3950208271519	0
1.91	34.3222585743886	0	1	0	1	0	34.3222585743886	0
1.92	34.251202492497	0	1	0	1	0	34.251202492497	0
1.93	34.1818309995221	0	1	0	1	0	34.1818309995221	0
1.94	34.1141229584975	0	1	0	1	0	34.1141229584975	0
1.95	34.0480576660359	0	1	0	1	0	34.0480576660359	0
1.96	33.9836148412678	0	1	0	1	0	33.9836148412678	0
1.97	33.9207746151183	0	1	0	1	0	33.9207746151183	0
1.98	33.8595175199078	0	1	0	1	0	33.8595175199078	0
1.99	33.7998244792668	0	1	0	1	0	33.7998244792668	0
2	33.7416767983532	0	1	0	1	0	33.7416767983532	0
2.01	33.6850561543617	0	1	0	1	0	33.6850561543617	0
2.02	33.6299445873147	0	1	0	1	0	33.6299445873147	0
2.03	33.5763244911258	0	1	0	1	0	33.5763244911258	0
2.04	33.524178604926	0	1	0	1	0	33.524178604926	0
2.05	33.4734900046438	0	1	0	1	0	33.4734900046438	0
2.06	33.4242420948303	0	1	0	1	0	33.4242420948303	0
2.07	33.3764186007217	0	1	0	1	0	33.3764186007217	0
2.08	33.3300035605305	0	1	0	1	0	33.3300035605305	0
2.09	33.2849813179578	0	1	0	1	0	33.2849813179578	0
2.1	33.24133651492	0	1	0	1	0	33.24133651492	0
2.11	33.199054084482	0	1	0	1	0	33.199054084482	0
2.12	33.1581192439905	0	1	0	1	0	33.1581192439905	0
2.13	33.1185174884007	0	1	0	1	0	33.1185174884007	0
2.14	33.0802345837901	0	1	0	1	0	33.0802345837901	0
2.15	33.0432565610534	0	1	0	1	0	33.0432565610534	0
2.16	33.0075697097725	0	1	0	1	0	33.0075697097725	0
2.17	32.9731605722559	0	1	0	1	0	32.9731605722559	0
2.18	32.9400159377419	0	1	0	1	0	32.9400159377419	0
2.19	32.9081228367617	0	1	0	1	0	32.9081228367617	0
2.2	32.8774685356548	0	1	0	1	0	32.8774685356548	0
2.21	32.8480405312342	0	1	0	1	0	32.8480405312342	0
2.22	32.8198265455955	0	1	0	1	0	32.8198265455955	0
2.23	32.792814521066	0	1	0	1	0	32.792814521066	0
2.24	32.7669926152883	0	1	0	1	0	32.7669926152883	0
2.25	32.7423491964359	0	1	0	1	0	32.7423491964359	0
2.26	32.7188728385555	0	1	0	1	0	32.7188728385555	0
2.27	32.6965523170319	0	1	0	1	0	32.6965523170319	0
2.28	32.6753766041732	0	1	0	1	0	32.6753766041732	0
2.29	32.6553348649107	0	1	0	1	0	32.6553348649107	0
2.3	32.6364164526121	0	1	0	1	0	32.6364164526121	0
2.31	32.6186109050018	0	1	0	1	0	32.6186109050018	0
2.32	32.6019079401888	0	1	0	1	0	32.6019079401888	0
2.33	32.5862974527949	0	1	0	1	0	32.5862974527949	0
2.34	32.5717695101835	0	1	0	1	0	32.5717695101835	0
2.35	32.5583143487843	0	1	0	1	0	32.5583143487843	0
2.36	32.545922370511	0	1	0	1	0	32.545922370511	0
2.37	32.5345841392704	0	1	0	1	0	32.5345841392704	0
2.38	32.5242903775592	0	1	0	1	0	32.5242903775592	0
2.39	32.5150319631462	0	1	0	1	0	32.5150319631462	0
2.4	32.506799925837	0	1	0	1	0	32.506799925837	0
2.41	32.4995854443204	0	1	0	1	0	32.4995854443204	0
2.42	32.4933798430921	0	1	0	1	0	32.4933798430921	0
2.43	32.4881745894541	0	1	0	1	0	32.4881745894541	0
2.44	32.483961290589	0	1	0	1	0	32.483961290589	0
2.45	32.4807316907048	0	1	0	1	0	32.4807316907048	0
2.46	32.4784776682502	0	1	0	1	0	32.4784776682502	0
2.47	32.4771912331967	0	1	0	1	0	32.4771912331967	0
2.48	32.4768645243877	0	1	0	1	0	32.4768645243877	0
2.49	32.4774898069497	0	1	0	1	0	32.4774898069497	0
2.5	32.4790594697676	0	1	0	1	0	32.4790594697676	0
2.51	32.4815660230188	0	1	0	1	0	32.4815660230188	0
2.52	32.4850020957667	0	1	0	1	0	32.4850020957667	0
2.53	32.4893604336114	0	1	0	1	0	32.4893604336114	0
2.54	32.4946338963954	0	1	0	1	0	32.4946338963954	0
2.55	32.5008154559637	0	1	0	1	0	32.5008154559637	0
2.56	32.5078981939763	0	1	0	1	0	32.5078981939763	0
2.57	32.5158752997716	0	1	0	1	0	32.5158752997716	0
2.58	32.5247400682796	0	1	0	1	0	32.5247400682796	0
2.59	32.5344858979836	0	1	0	1	0	32.5344858979836	0
2.6	32.5451062889285	0	1	0	1	0	32.5451062889285	0
2.61	32.5565948407756	0	1	0	1	0	32.5565948407756	0
2.62	32.5689452509011	0	1	0	1	0	32.5689452509011	0
2.63	32.5821513125389	0	1	0	1	0	32.5821513125389	0
2.64	32.5962069129645	0	1	0	1	0	32.5962069129645	0
2.65	32.611106031721	0	1	0	1	0	32.611106031721	0
2.66	32.6268427388847	0	1	0	1	0	32.6268427388847	0
2.67	32.6434111933699	0	1	0	1	0	32.6434111933699	0
2.68	32.660805641271	0	1	0	1	0	32.660805641271	0
2.69	32.6790204142426	0	1	0	1	0	32.6790204142426	0
2.7	32.6980499279145	0	1	0	1	0	32.6980499279145	0
2.71	32.7178886803428	0	1	0	1	0	32.7178886803428	0
2.72	32.7385312504945	0	1	0	1	0	32.7385312504945	0
2.73	32.7599722967658	0	1	0	1	0	32.7599722967658	0
2.74	32.7822065555322	0	1	0	1	0	32.7822065555322	0
2.75	32.8052288397314	0	1	0	1	0	32.8052288397314	0
2.76	32.8290340374756	0	1	0	1	0	32.8290340374756	0
2.77	32.853617110695	0	1	0	1	0	32.853617110695	0
2.78	32.87897309381	0	1	0	1	0	32.87897309381	0
2.79	32.9050970924321	0	1	0	1	0	32.9050970924321	0
2.8	32.9319842820927	0	1	0	1	0	32.9319842820927	0
2.81	32.9596299069988	0	1	0	1	0	32.9596299069988	0
2.82	32.9880292788155	0	1	0	1	0	32.9880292788155	0
2.83	33.0171777754741	0	1	0	1	0	33.0171777754741	0
2.84	33.0470708400056	0	1	0	1	0	33.0470708400056	0
2.85	33.0777039793983	0	1	0	1	0	33.0777039793983	0
2.86	33.1090727634799	0	1	0	1	0	33.1090727634799	0
2.87	33.1411728238225	0	1	0	1	0	33.1411728238225	0
2.88	33.1739998526711	0	1	0	1	0	33.1739998526711	0
2.89	33.2075496018933	0	1	0	1	0	33.2075496018933	0
2.9	33.241817881952	0	1	0	1	0	33.241817881952	0
2.91	33.2768005608978	0	1	0	1	0	33.2768005608978	0
2.92	33.3124935633836	0	1	0	1	0	33.3124935633836	0
2.93	33.3488928696985	0	1	0	1	0	33.3488928696985	0
2.94	33.3859945148213	0	1	0	1	0	33.3859945148213	0
2.95	33.4237945874941	0	1	0	1	0	33.4237945874941	0
2.96	33.4622892293136	0	1	0	1	0	33.4622892293136	0
2.97	33.5014746338417	0	1	0	1	0	33.5014746338417	0
2.98	33.5413470457332	0	1	0	1	0	33.5413470457332	0
2.99	33.5819027598818	0	1	0	1	0	33.5819027598818	0
3	33.6231381205827	0	1	0	1	0	33.6231381205827	0
3.01	33.6650495207117	0	1	0	1	0	33.6650495207117	0
3.02	33.7076334009211	0	1	0	1	0	33.7076334009211	0
3.03	33.7508862488515	0	1	0	1	0	33.7508862488515	0
3.04	33.7948045983585	0	1	0	1	0	33.7948045983585	0
3.05	33.8393850287554	0	1	0	1	0	33.8393850287554	0
3.06	33.8846241640705	0	1	0	1	0	33.8846241640705	0
3.07	33.9305186723186	0	1	0	1	0	33.9305186723186	0
3.08	33.9770652647869	0	1	0	1	0	33.9770652647869	0
3.09	34.0242606953352	0	1	0	1	0	34.0242606953352	0
3.1	34.0721017597088	0	1	0	1	0	34.0721017597088	0
3.11	34.1205852948653	0	1	0	1	0	34.1205852948653	0
3.12	34.1697081783142	0	1	0	1	0	34.1697081783142	0
3.13	34.2194673274689	0	1	0	1	0	34.2194673274689	0
3.14	34.2698596990116	0	1	0	1	0	34.2698596990116	0
3.15	34.3208822882697	0	1	0	1	0	34.3208822882697	0
3.16	34.3725321286044	0	1	0	1	0	34.3725321286044	0
3.17	34.4248062908109	0	1	0	1	0	34.4248062908109	0
3.18	34.4777018825296	0	1	0	1	0	34.4777018825296	0
3.19	34.531216047669	0	1	0	1	0	34.531216047669	0
3.2	34.5853459658385	0	1	0	1	0	34.5853459658385	0
3.21	34.6400888517926	0	1	0	1	0	34.6400888517926	0
3.22	34.6954419548853	0	1	0	1	0	34.6954419548853	0
3.23	34.7514025585341	0	1	0	1	0	34.7514025585341	0
3.24	34.8079679796946	0	1	0	1	0	34.8079679796946	0
3.25	34.8651355683446	0	1	0	1	0	34.8651355683446	0
3.26	34.9229027069774	0	1	0	1	0	34.9229027069774	0
3.27	34.9812668101048	0	1	0	1	0	34.9812668101048	0
3.28	35.0402253237689	0	1	0	1	0	35.0402253237689	0
3.29	35.099775725063	0	1	0	1	0	35.099775725063	0
3.3	35.1599155216611	0	1	0	1	0	35.1599155216611	0
3.31	35.2206422513558	0	1	0	1	0	35.2206422513558	0
3.32	35.281953481605	0	1	0	1	0	35.281953481605	0
3.33	35.3438468090863	0	1	0	1	0	35.3438468090863	0
3.34	35.4063198592595	0	1	0	1	0	35.4063198592595	0
3.35	35.4693702859374	0	1	0	1	0	35.4693702859374	0
3.36	35.5329957708632	0	1	0	1	0	35.5329957708632	0
3.37	35.5971940232968	0	1	0	1	0	35.5971940232968	0
3.38	35.6619627796073	0	1	0	1	0	35.6619627796073	0
3.39	35.7272998028734	0	1	0	1	0	35.7272998028734	0
3.4	35.7932028824905	0	1	0	1	0	35.7932028824905	0
3.41	35.8596698337848	0	1	0	1	0	35.8596698337848	0
3.42	35.9266984976343	0	1	0	1	0	35.9266984976343	0
3.43	35.9942867400962	0	1	0	1	0	35.9942867400962	0
3.44	36.062432452041	0	1	0	1	0	36.062432452041	0
3.45	36.131133548793	0	1	0	1	0	36.131133548793	0
3.46	36.2003879697767	0	1	0	1	0	36.2003879697767	0
3.47	36.2701936781695	0	1	0	1	0	36.2701936781695	0
3.48	36.3405486605607	0	1	0	1	0	36.3405486605607	0
3.49	36.411450926616	0	1	0	1	0	36.411450926616	0
3.5	36.4828985087477	0	1	0	1	0	36.4828985087477	0
3.51	36.5548894617907	0	1	0	1	0	36.5548894617907	0
3.52	36.6274218626842	0	1	0	1	0	36.6274218626842	0
3.53	36.7004938101582	0	1	0	1	0	36.7004938101582	0
3.54	36.7741034244262	0	1	0	1	0	36.7741034244262	0
3.55	36.8482488468824	0	1	0	1	0	36.8482488468824	0
3.56	36.9229282398041	0	1	0	1	0	36.9229282398041	0
3.57	36.9981397860593	0	1	0	1	0	36.9981397860593	0
3.58	37.0738816888193	0	1	0	1	0	37.0738816888193	0
3.59	37.1501521712757	0	1	0	1	0	37.1501521712757	0
3.6	37.2269494763624	0	1	0	1	0	37.2269494763624	0
3.61	37.3042718664822	0	1	0	1	0	37.3042718664822	0
3.62	37.3821176232378	0	1	0	1	0	37.3821176232378	0
3.63	37.4604850471675	0	1	0	1	0	37.4604850471675	0
3.64	37.5393724574849	0	1	0	1	0	37.5393724574849	0
3.65	37.6187781918234	0	1	0	1	0	37.6187781918234	0
3.66	37.6987006059841	0	1	0	1	0	37.6987006059841	0
3.67	37.7791380736885	0	1	0	1	0	37.7791380736885	0
3.68	37.8600889863354	0	1	0	1	0	37.8600889863354	0
3.69	37.9415517527605	0	1	0	1	0	37.9415517527605	0
3.7	38.0235247990017	0	1	0	1	0	38.0235247990017	0
3.71	38.1060065680667	0	1	0	1	0	38.1060065680667	0
3.72	38.1889955197049	0	1	0	1	0	38.1889955197049	0
3.73	38.2724901301834	0	1	0	1	0	38.2724901301834	0
3.74	38.3564888920656	0	1	0	1	0	38.3564888920656	0
3.75	38.4409903139946	0	1	0	1	0	38.4409903139946	0
3.76	38.5259929204787	0	1	0	1	0	38.5259929204787	0
3.77	38.6114952516813	0	1	0	1	0	38.6114952516813	0
3.78	38.6974958632141	0	1	0	1	0	38.6974958632141	0
3.79	38.7839933259326	0	1	0	1	0	38.7839933259326	0
3.8	38.8709862257362	0	1	0	1	0	38.8709862257362	0
3.81	38.9584731633703	0	1	0	1	0	38.9584731633703	0
3.82	39.0464527542325	0	1	0	1	0	39.0464527542325	0
3.83	39.1349236281807	0	1	0	1	0	39.1349236281807	0
3.84	39.2238844293451	0	1	0	1	0	39.2238844293451	0
3.85	39.3133338159432	0	1	0	1	0	39.3133338159432	0
3.86	39.4032704600965	0	1	0	1	0	39.4032704600965	0
3.87	39.4936930476518	0	1	0	1	0	39.4936930476518	0
3.88	39.5846002780036	0	1	0	1	0	39.5846002780036	0
3.89	39.6759908639202	0	1	0	1	0	39.6759908639202	0
3.9	39.7678635313726	0	1	0	1	0	39.7678635313726	0
3.91	39.8602170193649	0	1	0	1	0	39.8602170193649	0
3.92	39.9530500797688	0	1	0	1	0	39.9530500797688	0
3.93	40.0463614771596	0	1	0	1	0	40.0463614771596	0
3.94	40.1401499886548	0	1	0	1	0	40.1401499886548	0
3.95	40.2344144037557	0	1	0	1	0	40.2344144037557	0
3.96	40.3291535241907	0	1	0	1	0	40.3291535241907	0
3.97	40.4243661637617	0	1	0	1	0	40.4243661637617	0
3.98	40.5200511481919	0	1	0	1	0	40.5200511481919	0
3.99	40.6162073149768	0	1	0	1	0	40.6162073149768	0
4	40.7128335132372	0	1	0	1	0	40.7128335132372	0
4.01	40.8099286035736	0	1	0	1	0	40.8099286035736	0
4.02	40.907491457924	0	1	0	1	0	40.907491457924	0
4.03	41.0055209594231	0	1	0	1	0	41.0055209594231	0
4.04	41.1040160022635	0	1	0	1	0	41.1040160022635	0
4.05	41.2029754915596	0	1	0	1	0	41.2029754915596	0
4.06	41.3023983432126	0	1	0	1	0	41.3023983432126	0
4.07	41.4022834837784	0	1	0	1	0	41.4022834837784	0
4.08	41.5026298503367	0	1	0	1	0	41.5026298503367	0
4.09	41.6034363903627	0	1	0	1	0	41.6034363903627	0
4.1	41.7047020616	0	1	0	1	0	41.7047020616	0
4.11	41.8064258319359	0	1	0	1	0	41.8064258319359	0
4.12	41.9086066792781	0	1	0	1	0	41.9086066792781	0
4.13	42.0112435914337	0	1	0	1	0	42.0112435914337	0
4.14	42.1143355659892	0	1	0	1	0	42.1143355659892	0
4.15	42.217881610193	0	1	0	1	0	42.217881610193	0
4.16	42.3218807408394	0	1	0	1	0	42.3218807408394	0
4.17	42.4263319841535	0	1	0	1	0	42.4263319841535	0
4.18	42.5312343756793	0	1	0	1	0	42.5312343756793	0
4.19	42.6365869601676	0	1	0	1	0	42.6365869601676	0
4.2	42.7423887914671	0	1	0	1	0	42.7423887914671	0
4.21	42.848638932416	0	1	0	1	0	42.848638932416	0
4.22	42.9553364547353	0	1	0	1	0	42.9553364547353	0
4.23	43.0624804389245	0	1	0	1	0	43.0624804389245	0
4.24	43.1700699741572	0	1	0	1	0	43.1700699741572	0
4.25	43.2781041581798	0	1	0	1	0	43.2781041581798	0
4.26	43.3865820972104	0	1	0	1	0	43.3865820972104	0
4.27	43.4955029058399	0	1	0	1	0	43.4955029058399	0
4.28	43.6048657069337	0	1	0	1	0	43.6048657069337	0
4.29	43.7146696315361	0	1	0	1	0	43.7146696315361	0
4.3	43.8249138187745	0	1	0	1	0	43.8249138187745	0
4.31	43.9355974157656	0	1	0	1	0	43.9355974157656	0
4.32	44.0467195775235	0	1	0	1	0	44.0467195775235	0
4.33	44.1582794668681	0	1	0	1	0	44.1582794668681	0
4.34	44.2702762543351	0	1	0	1	0	44.2702762543351	0
4.35	44.3827091180877	0	1	0	1	0	44.3827091180877	0
4.36	44.4955772438286	0	1	0	1	0	44.4955772438286	0
4.37	44.6088798247142	0	1	0	1	0	44.6088798247142	0
4.38	44.7226160612694	0	1	0	1	0	44.7226160612694	0
4.39	44.8367851613034	0	1	0	1	0	44.8367851613034	0
4.4	44.9513863398273	0	1	0	1	0	44.9513863398273	0
4.41	45.0664188189722	0	1	0	1	0	45.0664188189722	0
4.42	45.1818818279088	0	1	0	1	0	45.1818818279088	0
4.43	45.2977746027678	0	1	0	1	0	45.2977746027678	0
4.44	45.4140963865617	0	1	0	1	0	45.4140963865617	0
4.45	45.5308464291074	0	1	0	1	0	45.5308464291074	0
4.46	45.6480239869497	0	1	0	1	0	45.6480239869497	0
4.47	45.7656283232865	0	1	0	1	0	45.7656283232865	0
4.48	45.883658707894	0	1	0	1	0	45.883658707894	0
4.49	46.0021144170542	0	1	0	1	0	46.0021144170542	0
4.5	46.1209947334815	0	1	0	1	0	46.1209947334815	0
4.51	46.2402989462527	0	1	0	1	0	46.2402989462527	0
4.52	46.3600263507354	0	1	0	1	0	46.3600263507354	0
4.53	46.4801762485195	0	1	0	1	0	46.4801762485195	0
4.54	46.6007479473482	0	1	0	1	0	46.6007479473482	0
4.55	46.7217407610503	0	1	0	1	0	46.7217407610503	0
4.56	46.8431540094739	0	1	0	1	0	46.8431540094739	0
4.57	46.96498701842	0	1	0	1	0	46.96498701842	0
4.58	47.0872391195782	0	1	0	1	0	47.0872391195782	0
4.59	47.2099096504617	0	1	0	1	0	47.2099096504617	0
4.6	47.3329979543448	0	1	0	1	0	47.3329979543448	0
4.61	47.4565033801999	0	1	0	1	0	47.4565033801999	0
4.62	47.5804252826361	0	1	0	1	0	47.5804252826361	0
4.63	47.7047630218381	0	1	0	1	0	47.7047630218381	0
4.64	47.8295159635065	0	1	0	1	0	47.8295159635065	0
4.65	47.9546834787979	0	1	0	1	0	47.9546834787979	0
4.66	48.0802649442669	0	1	0	1	0	48.0802649442669	0
4.67	48.2062597418081	0	1	0	1	0	48.2062597418081	0
4.68	48.332667258599	0	1	0	1	0	48.332667258599	0
4.69	48.4594868870438	0	1	0	1	0	48.4594868870438	0
4.7	48.5867180247177	0	1	0	1	0	48.5867180247177	0
4.71	48.7143600743119	0	1	0	1	0	48.7143600743119	0
4.72	48.8424124435798	0	1	0	1	0	48.8424124435798	0
4.73	48.9708745452829	0	1	0	1	0	48.9708745452829	0
4.74	49.0997457971387	0	1	0	1	0	49.0997457971387	0
4.75	49.2290256217677	0	1	0	1	0	49.2290256217677	0
4.76	49.3587134466428	0	1	0	1	0	49.3587134466428	0
4.77	49.4888087040374	0	1	0	1	0	49.4888087040374	0
4.78	49.6193108309763	0	1	0	1	0	49.6193108309763	0
4.79	49.7502192691853	0	1	0	1	0	49.7502192691853	0
4.8	49.8815334650423	0	1	0	1	0	49.8815334650423	0
4.81	50.0132528695296	0	1	0	1	0	50.0132528695296	0
4.82	50.1453769381851	0	1	0	1	0	50.1453769381851	0
4.83	50.2779051310562	0	1	0	1	0	50.2779051310562	0
4.84	50.4108369126524	0	1	0	1	0	50.4108369126524	0
4.85	50.5441717518998	0	1	0	1	0	50.5441717518998	0
4.86	50.6779091220954	0	1	0	1	0	50.6779091220954	0
4.87	50.8120485008623	0	1	0	1	0	50.8120485008623	0
4.88	50.9465893701053	0	1	0	1	0	50.9465893701053	0
4.89	51.0815312159674	0	1	0	1	0	51.0815312159674	0
4.9	51.2168735287861	0	1	0	1	0	51.2168735287861	0
4.91	51.3526158030512	0	1	0	1	0	51.3526158030512	0
4.92	51.4887575373621	0	1	0	1	0	51.4887575373621	0
4.93	51.6252982343866	0	1	0	1	0	51.6252982343866	0
