# GHZ S RI R 50
1	55.5323173404257	0	1	0	1	0	55.5323173404257	0
1.01	55.0612137925587	0	1	0	1	0	55.0612137925587	0
1.02	54.6004109818706	0	1	0	1	0	54.6004109818706	0
1.03	54.1496193135071	0	1	0	1	0	54.1496193135071	0
1.04	53.7085603308776	0	1	0	1	0	53.7085603308776	0
1.05	53.2769661852615	0	1	0	1	0	53.2769661852615	0
1.06	52.8545791354373	0	1	0	1	0	52.8545791354373	0
1.07	52.4411510753693	0	1	0	1	0	52.4411510753693	0
1.08	52.036443088134	0	1	0	1	0	52.036443088134	0
1.09	51.6402250244017	0	1	0	1	0	51.6402250244017	0
1.1	51.2522751039091	0	1	0	1	0	51.2522751039091	0
1.11	50.8723795384745	0	1	0	1	0	50.8723795384745	0
1.12	50.5003321752084	0	1	0	1	0	50.5003321752084	0
1.13	50.1359341586688	0	1	0	1	0	50.1359341586688	0
1.14	49.7789936107974	0	1	0	1	0	49.7789936107974	0
1.15	49.4293253275555	0	1	0	1	0	49.4293253275555	0
1.16	49.0867504912506	0	1	0	1	0	49.0867504912506	0
1.17	48.7510963976154	0	1	0	1	0	48.7510963976154	0
1.18	48.4221961967647	0	1	0	1	0	48.4221961967647	0
1.19	48.0998886472128	0	1	0	1	0	48.0998886472128	0
1.2	47.7840178821901	0	1	0	1	0	47.7840178821901	0
1.21	47.4744331875475	0	1	0	1	0	47.4744331875475	0
1.22	47.1709887905835	0	1	0	1	0	47.1709887905835	0
1.23	46.8735436591721	0	1	0	1	0	46.8735436591721	0
1.24	46.5819613106109	0	1	0	1	0	46.5819613106109	0
1.25	46.2961096296438	0	1	0	1	0	46.2961096296438	0
1.26	46.0158606951501	0	1	0	1	0	46.0158606951501	0
1.27	45.7410906150203	0	1	0	1	0	45.7410906150203	0
1.28	45.4716793687738	0	1	0	1	0	45.4716793687738	0
1.29	45.2075106574951	0	1	0	1	0	45.2075106574951	0
1.3	44.9484717606968	0	1	0	1	0	44.9484717606968	0
1.31	44.6944533997385	0	1	0	1	0	44.6944533997385	0
1.32	44.4453496074538	0	1	0	1	0	44.4453496074538	0
1.33	44.2010576036586	0	1	0	1	0	44.2010576036586	0
1.34	43.9614776762342	0	1	0	1	0	43.9614776762342	0
1.35	43.726513067495	0	1	0	1	0	43.726513067495	0
1.36	43.4960698655695	0	1	0	1	0	43.4960698655695	0
1.37	43.2700569005389	0	1	0	1	0	43.2700569005389	0
1.38	43.0483856450905	0	1	0	1	0	43.0483856450905	0
1.39	42.8309701194604	0	1	0	1	0	42.8309701194604	0
1.4	42.6177268004493	0	1	0	1	0	42.6177268004493	0
1.41	42.4085745343102	0	1	0	1	0	42.4085745343102	0
1.42	42.2034344533174	0	1	0	1	0	42.2034344533174	0
1.43	42.0022298958352	0	1	0	1	0	42.0022298958352	0
1.44	41.8048863297181	0	1	0	1	0	41.8048863297181	0
1.45	41.6113312788793	0	1	0	1	0	41.6113312788793	0
1.46	41.4214942528787	0	1	0	1	0	41.4214942528787	0
1.47	41.2353066793831	0	1	0	1	0	41.2353066793831	0
1.48	41.0527018393658	0	1	0	1	0	41.0527018393658	0
1.49	40.8736148049147	0	1	0	1	0	40.8736148049147	0
1.5	40.6979823795289	0	1	0	1	0	40.6979823795289	0
1.51	40.5257430407868	0	1	0	1	0	40.5257430407868	0
1.52	40.3568368852781	0	1	0	1	0	40.3568368852781	0
1.53	40.1912055756946	0	1	0	1	0	40.1912055756946	0
1.54	40.0287922899829	0	1	0	1	0	40.0287922899829	0
1.55	39.8695416724651	0	1	0	1	0	39.8695416724651	0
1.56	39.7133997868397	0	1	0	1	0	39.7133997868397	0
1.57	39.5603140709786	0	1	0	1	0	39.5603140709786	0
1.58	39.4102332934403	0	1	0	1	0	39.4102332934403	0
1.59	39.2631075116247	0	1	0	1	0	39.2631075116247	0
1.6	39.1188880314967	0	1	0	1	0	39.1188880314967	0
1.61	38.9775273688108	0	1	0	1	0	38.9775273688108	0
1.62	38.8389792117722	0	1	0	1	0	38.8389792117722	0
1.63	38.7031983850717	0	1	0	1	0	38.7031983850717	0
1.64	38.570140815237	0	1	0	1	0	38.570140815237	0
1.65	38.4397634972434	0	1	0	1	0	38.4397634972434	0
1.66	38.3120244623322	0	1	0	1	0	38.3120244623322	0
1.67	38.1868827469842	0	1	0	1	0	38.1868827469842	0
1.68	38.0642983630021	0	1	0	1	0	38.0642983630021	0
1.69	37.9442322686549	0	1	0	1	0	37.9442322686549	0
1.7	37.8266463408405	0	1	0	1	0	37.8266463408405	0
1.71	37.7115033482252	0	1	0	1	0	37.7115033482252	0
1.72	37.5987669253205	0	1	0	1	0	37.5987669253205	0
1.73	37.4884015474581	0	1	0	1	0	37.4884015474581	0
1.74	37.3803725066291	0	1	0	1	0	37.3803725066291	0
1.75	37.2746458881504	0	1	0	1	0	37.2746458881504	0
1.76	37.1711885481269	0	1	0	1	0	37.1711885481269	0
1.77	37.0699680916784	0	1	0	1	0	37.0699680916784	0
1.78	36.9709528518994	0	1	0	1	0	36.9709528518994	0
1.79	36.8741118695248	0	1	0	1	0	36.8741118695248	0
1.8	36.7794148732731	0	1	0	1	0	36.7794148732731	0
1.81	36.6868322608414	0	1	0	1	0	36.6868322608414	0
1.82	36.596335080527	0	1	0	1	0	36.596335080527	0
1.83	36.5078950134511	0	1	0	1	0	36.5078950134511	0
1.84	36.4214843563629	0	1	0	1	0	36.4214843563629	0
1.85	36.3370760050006	0	1	0	1	0	36.3370760050006	0
1.86	36.2546434379899	0	1	0	1	0	36.2546434379899	0
1.87	36.1741607012586	0	1	0	1	0	36.1741607012586	0
1.88	36.0956023929487	0	1	0	1	0	36.0956023929487	0
1.89	36.0189436488078	0	1	0	1	0	36.0189436488078	0
1.9	35.9441601280414	0	1	0	1	0	35.9441601280414	0
1.91	35.8712279996099	0	1	0	1	0	35.8712279996099	0
1.92	35.8001239289535	0	1	0	1	0	35.8001239289535	0
1.93	35.7308250651304	0	1	0	1	0	35.7308250651304	0
1.94	35.6633090283523	0	1	0	1	0	35.6633090283523	0
1.95	35.5975538979033	0	1	0	1	0	35.5975538979033	0
1.96	35.5335382004291	0	1	0	1	0	35.5335382004291	0
1.97	35.4712408985826	0	1	0	1	0	35.4712408985826	0
1.98	35.4106413800138	0	1	0	1	0	35.4106413800138	0
1.99	35.3517194466909	0	1	0	1	0	35.3517194466909	0
2	35.2944553045431	0	1	0	1	0	35.2944553045431	0
2.01	35.2388295534112	0	1	0	1	0	35.2388295534112	0
2.02	35.1848231772978	0	1	0	1	0	35.1848231772978	0
2.03	35.1324175349049	0	1	0	1	0	35.1324175349049	0
2.04	35.0815943504499	0	1	0	1	0	35.0815943504499	0
2.05	35.0323357047511	0	1	0	1	0	35.0323357047511	0
2.06	34.9846240265721	0	1	0	1	0	34.9846240265721	0
2.07	34.9384420842171	0	1	0	1	0	34.9384420842171	0
2.08	34.8937729773691	0	1	0	1	0	34.8937729773691	0
2.09	34.8506001291624	0	1	0	1	0	34.8506001291624	0
2.1	34.8089072784807	0	1	0	1	0	34.8089072784807	0
2.11	34.7686784724757	0	1	0	1	0	34.7686784724757	0
2.12	34.7298980592961	0	1	0	1	0	34.7298980592961	0
2.13	34.6925506810219	0	1	0	1	0	34.6925506810219	0
2.14	34.6566212667974	0	1	0	1	0	34.6566212667974	0
2.15	34.6220950261545	0	1	0	1	0	34.6220950261545	0
2.16	34.5889574425229	0	1	0	1	0	34.5889574425229	0
2.17	34.5571942669188	0	1	0	1	0	34.5571942669188	0
2.18	34.5267915118078	0	1	0	1	0	34.5267915118078	0
2.19	34.4977354451352	0	1	0	1	0	34.4977354451352	0
2.2	34.4700125845203	0	1	0	1	0	34.4700125845203	0
2.21	34.4436096916074	0	1	0	1	0	34.4436096916074	0
2.22	34.4185137665697	0	1	0	1	0	34.4185137665697	0
2.23	34.3947120427611	0	1	0	1	0	34.3947120427611	0
2.24	34.3721919815112	0	1	0	1	0	34.3721919815112	0
2.25	34.3509412670596	0	1	0	1	0	34.3509412670596	0
2.26	34.3309478016238	0	1	0	1	0	34.3309478016238	0
2.27	34.312199700598	0	1	0	1	0	34.312199700598	0
2.28	34.2946852878783	0	1	0	1	0	34.2946852878783	0
2.29	34.2783930913104	0	1	0	1	0	34.2783930913104	0
2.3	34.2633118382554	0	1	0	1	0	34.2633118382554	0
2.31	34.249430451272	0	1	0	1	0	34.249430451272	0
2.32	34.2367380439089	0	1	0	1	0	34.2367380439089	0
2.33	34.2252239166069	0	1	0	1	0	34.2252239166069	0
2.34	34.214877552705	0	1	0	1	0	34.214877552705	0
2.35	34.2056886145497	0	1	0	1	0	34.2056886145497	0
2.36	34.1976469397013	0	1	0	1	0	34.1976469397013	0
2.37	34.1907425372386	0	1	0	1	0	34.1907425372386	0
2.38	34.1849655841548	0	1	0	1	0	34.1849655841548	0
2.39	34.1803064218449	0	1	0	1	0	34.1803064218449	0
2.4	34.1767555526807	0	1	0	1	0	34.1767555526807	0
2.41	34.174303636671	0	1	0	1	0	34.174303636671	0
2.42	34.1729414882046	0	1	0	1	0	34.1729414882046	0
2.43	34.1726600728736	0	1	0	1	0	34.1726600728736	0
2.44	34.1734505043755	0	1	0	1	0	34.1734505043755	0
2.45	34.17530404149	0	1	0	1	0	34.17530404149	0
2.46	34.1782120851306	0	1	0	1	0	34.1782120851306	0
2.47	34.1821661754673	0	1	0	1	0	34.1821661754673	0
2.48	34.1871579891187	0	1	0	1	0	34.1871579891187	0
2.49	34.1931793364127	0	1	0	1	0	34.1931793364127	0
2.5	34.2002221587117	0	1	0	1	0	34.2002221587117	0
2.51	34.2082785258027	0	1	0	1	0	34.2082785258027	0
2.52	34.2173406333491	0	1	0	1	0	34.2173406333491	0
2.53	34.2274008004031	0	1	0	1	0	34.2274008004031	0
2.54	34.2384514669764	0	1	0	1	0	34.2384514669764	0
2.55	34.2504851916692	0	1	0	1	0	34.2504851916692	0
2.56	34.2634946493532	0	1	0	1	0	34.2634946493532	0
2.57	34.2774726289101	0	1	0	1	0	34.2774726289101	0
2.58	34.2924120310217	0	1	0	1	0	34.2924120310217	0
2.59	34.308305866012	0	1	0	1	0	34.308305866012	0
2.6	34.3251472517383	0	1	0	1	0	34.3251472517383	0
2.61	34.3429294115314	0	1	0	1	0	34.3429294115314	0
2.62	34.3616456721827	0	1	0	1	0	34.3616456721827	0
2.63	34.3812894619773	0	1	0	1	0	34.3812894619773	0
2.64	34.4018543087718	0	1	0	1	0	34.4018543087718	0
2.65	34.4233338381152	0	1	0	1	0	34.4233338381152	0
2.66	34.4457217714134	0	1	0	1	0	34.4457217714134	0
2.67	34.4690119241333	0	1	0	1	0	34.4690119241333	0
2.68	34.4931982040483	0	1	0	1	0	34.4931982040483	0
2.69	34.5182746095227	0	1	0	1	0	34.5182746095227	0
2.7	34.5442352278337	0	1	0	1	0	34.5442352278337	0
2.71	34.5710742335312	0	1	0	1	0	34.5710742335312	0
2.72	34.5987858868337	0	1	0	1	0	34.5987858868337	0
2.73	34.6273645320588	0	1	0	1	0	34.6273645320588	0
2.74	34.656804596089	0	1	0	1	0	34.656804596089	0
2.75	34.6871005868702	0	1	0	1	0	34.6871005868702	0
2.76	34.7182470919433	0	1	0	1	0	34.7182470919433	0
2.77	34.7502387770075	0	1	0	1	0	34.7502387770075	0
2.78	34.7830703845145	0	1	0	1	0	34.7830703845145	0
2.79	34.8167367322932	0	1	0	1	0	34.8167367322932	0
2.8	34.8512327122031	0	1	0	1	0	34.8512327122031	0
2.81	34.8865532888179	0	1	0	1	0	34.8865532888179	0
2.82	34.9226934981356	0	1	0	1	0	34.9226934981356	0
2.83	34.9596484463166	0	1	0	1	0	34.9596484463166	0
2.84	34.997413308449	0	1	0	1	0	34.997413308449	0
2.85	35.0359833273386	0	1	0	1	0	35.0359833273386	0
2.86	35.0753538123256	0	1	0	1	0	35.0753538123256	0
2.87	35.1155201381252	0	1	0	1	0	35.1155201381252	0
2.88	35.1564777436926	0	1	0	1	0	35.1564777436926	0
2.89	35.1982221311116	0	1	0	1	0	35.1982221311116	0
2.9	35.2407488645066	0	1	0	1	0	35.2407488645066	0
2.91	35.2840535689757	0	1	0	1	0	35.2840535689757	0
2.92	35.3281319295475	0	1	0	1	0	35.3281319295475	0
2.93	35.3729796901579	0	1	0	1	0	35.3729796901579	0
2.94	35.4185926526487	0	1	0	1	0	35.4185926526487	0
2.95	35.4649666757856	0	1	0	1	0	35.4649666757856	0
2.96	35.512097674297	0	1	0	1	0	35.512097674297	0
2.97	35.5599816179317	0	1	0	1	0	35.5599816179317	0
2.98	35.6086145305362	0	1	0	1	0	35.6086145305362	0
2.99	35.6579924891492	0	1	0	1	0	35.6579924891492	0
3	35.7081116231158	0	1	0	1	0	35.7081116231158	0
3.01	35.7589681132185	0	1	0	1	0	35.7589681132185	0
3.02	35.8105581908252	0	1	0	1	0	35.8105581908252	0
3.03	35.8628781370549	0	1	0	1	0	35.8628781370549	0
3.04	35.9159242819592	0	1	0	1	0	35.9159242819592	0
3.05	35.96969300372	0	1	0	1	0	35.96969300372	0
3.06	36.0241807278635	0	1	0	1	0	36.0241807278635	0
3.07	36.0793839264888	0	1	0	1	0	36.0793839264888	0
3.08	36.1352991175116	0	1	0	1	0	36.1352991175116	0
3.09	36.1919228639236	0	1	0	1	0	36.1919228639236	0
3.1	36.2492517730645	0	1	0	1	0	36.2492517730645	0
3.11	36.3072824959099	0	1	0	1	0	36.3072824959099	0
3.12	36.3660117263715	0	1	0	1	0	36.3660117263715	0
3.13	36.4254362006111	0	1	0	1	0	36.4254362006111	0
3.14	36.4855526963684	0	1	0	1	0	36.4855526963684	0
3.15	36.5463580323005	0	1	0	1	0	36.5463580323005	0
3.16	36.6078490673346	0	1	0	1	0	36.6078490673346	0
3.17	36.6700227000331	0	1	0	1	0	36.6700227000331	0
3.18	36.73287586797	0	1	0	1	0	36.73287586797	0
3.19	36.7964055471197	0	1	0	1	0	36.7964055471197	0
3.2	36.860608751257	0	1	0	1	0	36.860608751257	0
3.21	36.9254825313681	0	1	0	1	0	36.9254825313681	0
3.22	36.9910239750729	0	1	0	1	0	36.9910239750729	0
3.23	37.0572302060581	0	1	0	1	0	37.0572302060581	0
3.24	37.1240983835203	0	1	0	1	0	37.1240983835203	0
3.25	37.1916257016199	0	1	0	1	0	37.1916257016199	0
3.26	37.2598093889446	0	1	0	1	0	37.2598093889446	0
3.27	37.3286467079835	0	1	0	1	0	37.3286467079835	0
3.28	37.3981349546097	0	1	0	1	0	37.3981349546097	0
3.29	37.4682714575732	0	1	0	1	0	37.4682714575732	0
3.3	37.5390535780031	0	1	0	1	0	37.5390535780031	0
3.31	37.6104787089179	0	1	0	1	0	37.6104787089179	0
3.32	37.6825442747456	0	1	0	1	0	37.6825442747456	0
3.33	37.755247730852	0	1	0	1	0	37.755247730852	0
3.34	37.8285865630775	0	1	0	1	0	37.8285865630775	0
3.35	37.9025582872825	0	1	0	1	0	37.9025582872825	0
3.36	37.9771604489002	0	1	0	1	0	37.9771604489002	0
3.37	38.0523906224985	0	1	0	1	0	38.0523906224985	0
3.38	38.1282464113482	0	1	0	1	0	38.1282464113482	0
3.39	38.2047254470005	0	1	0	1	0	38.2047254470005	0
3.4	38.2818253888705	0	1	0	1	0	38.2818253888705	0
3.41	38.3595439238288	0	1	0	1	0	38.3595439238288	0
3.42	38.4378787658002	0	1	0	1	0	38.4378787658002	0
3.43	38.5168276553693	0	1	0	1	0	38.5168276553693	0
3.44	38.5963883593929	0	1	0	1	0	38.5963883593929	0
3.45	38.6765586706195	0	1	0	1	0	38.6765586706195	0
3.46	38.7573364073147	0	1	0	1	0	38.7573364073147	0
3.47	38.838719412894	0	1	0	1	0	38.838719412894	0
3.48	38.9207055555611	0	1	0	1	0	38.9207055555611	0
3.49	39.0032927279528	0	1	0	1	0	39.0032927279528	0
3.5	39.0864788467903	0	1	0	1	0	39.0864788467903	0
3.51	39.1702618525358	0	1	0	1	0	39.1702618525358	0
3.52	39.2546397090551	0	1	0	1	0	39.2546397090551	0
3.53	39.3396104032867	0	1	0	1	0	39.3396104032867	0
3.54	39.4251719449152	0	1	0	1	0	39.4251719449152	0
3.55	39.5113223660517	0	1	0	1	0	39.5113223660517	0
3.56	39.5980597209179	0	1	0	1	0	39.5980597209179	0
3.57	39.6853820855375	0	1	0	1	0	39.6853820855375	0
3.58	39.7732875574307	0	1	0	1	0	39.7732875574307	0
3.59	39.8617742553154	0	1	0	1	0	39.8617742553154	0
3.6	39.9508403188127	0	1	0	1	0	39.9508403188127	0
3.61	40.0404839081573	0	1	0	1	0	40.0404839081573	0
3.62	40.1307032039126	0	1	0	1	0	40.1307032039126	0
3.63	40.2214964066912	0	1	0	1	0	40.2214964066912	0
3.64	40.312861736879	0	1	0	1	0	40.312861736879	0
3.65	40.4047974343645	0	1	0	1	0	40.4047974343645	0
3.66	40.4973017582725	0	1	0	1	0	40.4973017582725	0
3.67	40.5903729867018	0	1	0	1	0	40.5903729867018	0
3.68	40.6840094164676	0	1	0	1	0	40.6840094164676	0
3.69	40.7782093628478	0	1	0	1	0	40.7782093628478	0
3.7	40.8729711593336	0	1	0	1	0	40.8729711593336	0
3.71	40.9682931573836	0	1	0	1	0	40.9682931573836	0
3.72	41.0641737261832	0	1	0	1	0	41.0641737261832	0
3.73	41.1606112524059	0	1	0	1	0	41.1606112524059	0
3.74	41.2576041399803	0	1	0	1	0	41.2576041399803	0
3.75	41.3551508098598	0	1	0	1	0	41.3551508098598	0
3.76	41.453249699796	0	1	0	1	0	41.453249699796	0
3.77	41.5518992641162	0	1	0	1	0	41.5518992641162	0
3.78	41.651097973504	0	1	0	1	0	41.651097973504	0
3.79	41.7508443147836	0	1	0	1	0	41.7508443147836	0
3.8	41.8511367907072	0	1	0	1	0	41.8511367907072	0
3.81	41.9519739197462	0	1	0	1	0	41.9519739197462	0
3.82	42.0533542358856	0	1	0	1	0	42.0533542358856	0
3.83	42.1552762884209	0	1	0	1	0	42.1552762884209	0
3.84	42.2577386417594	0	1	0	1	0	42.2577386417594	0
3.85	42.3607398752235	0	1	0	1	0	42.3607398752235	0
3.86	42.4642785828577	0	1	0	1	0	42.4642785828577	0
3.87	42.5683533732384	0	1	0	1	0	42.5683533732384	0
3.88	42.6729628692863	0	1	0	1	0	42.6729628692863	0
3.89	42.7781057080828	0	1	0	1	0	42.7781057080828	0
3.9	42.8837805406874	0	1	0	1	0	42.8837805406874	0
3.91	42.9899860319598	0	1	0	1	0	42.9899860319598	0
3.92	43.0967208603836	0	1	0	1	0	43.0967208603836	0
3.93	43.2039837178929	0	1	0	1	0	43.2039837178929	0
3.94	43.3117733097016	0	1	0	1	0	43.3117733097016	0
3.95	43.4200883541355	0	1	0	1	0	43.4200883541355	0
3.96	43.5289275824663	0	1	0	1	0	43.5289275824663	0
3.97	43.6382897387492	0	1	0	1	0	43.6382897387492	0
3.98	43.7481735796617	0	1	0	1	0	43.7481735796617	0
3.99	43.858577874346	0	1	0	1	0	43.858577874346	0
4	43.9695014042526	0	1	0	1	0	43.9695014042526	0
4.01	44.0809429629871	0	1	0	1	0	44.0809429629871	0
4.02	44.1929013561593	0	1	0	1	0	44.1929013561593	0
4.03	44.3053754012336	0	1	0	1	0	44.3053754012336	0
4.04	44.418363927383	0	1	0	1	0	44.418363927383	0
4.05	44.5318657753441	0	1	0	1	0	44.5318657753441	0
4.06	44.6458797972748	0	1	0	1	0	44.6458797972748	0
4.07	44.7604048566141	0	1	0	1	0	44.7604048566141	0
4.08	44.8754398279435	0	1	0	1	0	44.8754398279435	0
4.09	44.9909835968513	0	1	0	1	0	44.9909835968513	0
4.1	45.1070350597981	0	1	0	1	0	45.1070350597981	0
4.11	45.2235931239843	0	1	0	1	0	45.2235931239843	0
4.12	45.3406567072204	0	1	0	1	0	45.3406567072204	0
4.13	45.4582247377977	0	1	0	1	0	45.4582247377977	0
4.14	45.5762961543625	0	1	0	1	0	45.5762961543625	0
4.15	45.6948699057909	0	1	0	1	0	45.6948699057909	0
4.16	45.813944951066	0	1	0	1	0	45.813944951066	0
4.17	45.9335202591567	0	1	0	1	0	45.9335202591567	0
4.18	46.053594808898	0	1	0	1	0	46.053594808898	0
4.19	46.1741675888738	0	1	0	1	0	46.1741675888738	0
4.2	46.2952375973004	0	1	0	1	0	46.2952375973004	0
4.21	46.4168038419121	0	1	0	1	0	46.4168038419121	0
4.22	46.5388653398489	0	1	0	1	0	46.5388653398489	0
4.23	46.6614211175447	0	1	0	1	0	46.6614211175447	0
4.24	46.784470210618	0	1	0	1	0	46.784470210618	0
4.25	46.9080116637639	0	1	0	1	0	46.9080116637639	0
4.26	47.0320445306476	0	1	0	1	0	47.0320445306476	0
4.27	47.1565678737991	0	1	0	1	0	47.1565678737991	0
4.28	47.2815807645099	0	1	0	1	0	47.2815807645099	0
4.29	47.4070822827307	0	1	0	1	0	47.4070822827307	0
4.3	47.5330715169709	0	1	0	1	0	47.5330715169709	0
4.31	47.6595475641991	0	1	0	1	0	47.6595475641991	0
4.32	47.7865095297453	0	1	0	1	0	47.7865095297453	0
4.33	47.9139565272046	0	1	0	1	0	47.9139565272046	0
4.34	48.0418876783414	0	1	0	1	0	48.0418876783414	0
4.35	48.170302112996	0	1	0	1	0	48.170302112996	0
4.36	48.2991989689918	0	1	0	1	0	48.2991989689918	0
4.37	48.4285773920439	0	1	0	1	0	48.4285773920439	0
4.38	48.5584365356693	0	1	0	1	0	48.5584365356693	0
4.39	48.6887755610975	0	1	0	1	0	48.6887755610975	0
4.4	48.8195936371835	0	1	0	1	0	48.8195936371835	0
4.41	48.9508899403208	0	1	0	1	0	48.9508899403208	0
4.42	49.0826636543565	0	1	0	1	0	49.0826636543565	0
4.43	49.214913970507	0	1	0	1	0	49.214913970507	0
4.44	49.3476400872749	0	1	0	1	0	49.3476400872749	0
4.45	49.4808412103676	0	1	0	1	0	49.4808412103676	0
4.46	49.6145165526158	0	1	0	1	0	49.6145165526158	0
4.47	49.7486653338944	0	1	0	1	0	49.7486653338944	0
4.48	49.8832867810439	0	1	0	1	0	49.8832867810439	0
4.49	50.0183801277922	0	1	0	1	0	50.0183801277922	0
4.5	50.1539446146789	0	1	0	1	0	50.1539446146789	0
4.51	50.2899794889792	0	1	0	1	0	50.2899794889792	0
4.52	50.4264840046296	0	1	0	1	0	50.4264840046296	0
4.53	50.5634574221545	0	1	0	1	0	50.5634574221545	0
4.54	50.7008990085933	0	1	0	1	0	50.7008990085933	0
4.55	50.838808037429	0	1	0	1	0	50.838808037429	0
4.56	50.9771837885178	0	1	0	1	0	50.9771837885178	0
4.57	51.1160255480189	0	1	0	1	0	51.1160255480189	0
4.58	51.2553326083261	0	1	0	1	0	51.2553326083261	0
4.59	51.3951042679994	0	1	0	1	0	51.3951042679994	0
4.6	51.5353398316986	0	1	0	1	0	51.5353398316986	0
4.61	51.6760386101168	0	1	0	1	0	51.6760386101168	0
4.62	51.8171999199148	0	1	0	1	0	51.8171999199148	0
4.63	51.9588230836574	0	1	0	1	0	51.9588230836574	0
4.64	52.100907429749	0	1	0	1	0	52.100907429749	0
4.65	52.2434522923715	0	1	0	1	0	52.2434522923715	0
4.66	52.3864570114216	0	1	0	1	0	52.3864570114216	0
4.67	52.5299209324503	0	1	0	1	0	52.5299209324503	0
4.68	52.6738434066021	0	1	0	1	0	52.6738434066021	0
4.69	52.8182237905554	0	1	0	1	0	52.8182237905554	0
4.7	52.9630614464637	0	1	0	1	0	52.9630614464637	0
4.71	53.1083557418974	0	1	0	1	0	53.1083557418974	0
4.72	53.2541060497867	0	1	0	1	0	53.2541060497867	0
4.73	53.4003117483643	0	1	0	1	0	53.4003117483643	0
4.74	53.5469722211103	0	1	0	1	0	53.5469722211103	0
4.75	53.6940868566963	0	1	0	1	0	53.6940868566963	0
4.76	53.8416550489312	0	1	0	1	0	53.8416550489312	0
4.77	53.9896761967072	0	1	0	1	0	53.9896761967072	0
4.78	54.1381497039469	0	1	0	1	0	54.1381497039469	0
4.79	54.2870749795502	0	1	0	1	0	54.2870749795502	0
4.8	54.4364514373433	0	1	0	1	0	54.4364514373433	0
4.81	54.5862784960266	0	1	0	1	0	54.5862784960266	0
4.82	54.7365555791247	0	1	0	1	0	54.7365555791247	0
4.83	54.8872821149366	0	1	0	1	0	54.8872821149366	0
4.84	55.0384575364857	0	1	0	1	0	55.0384575364857	0
4.85	55.1900812814717	0	1	0	1	0	55.1900812814717	0
4.86	55.3421527922222	0	1	0	1	0	55.3421527922222	0
4.87	55.4946715156455	0	1	0	1	0	55.4946715156455	0
4.88	55.6476369031831	0	1	0	1	0	55.6476369031831	0
4.89	55.8010484107638	0	1	0	1	0	55.8010484107638	0
4.9	55.954905498758	0	1	0	1	0	55.954905498758	0
4.91	56.1092076319321	0	1	0	1	0	56.1092076319321	0
4.92	56.2639542794039	0	1	0	1	0	56.2639542794039	0
4.93	56.4191449145987	0	1	0	1	0	56.4191449145987	0
