# GHZ S RI R 50
1	47.0953106744376	0	1	0	1	0	47.0953106744376	0
1.01	46.7242332683496	0	1	0	1	0	46.7242332683496	0
1.02	46.3616516027129	0	1	0	1	0	46.3616516027129	0
1.03	46.0073301878954	0	1	0	1	0	46.0073301878954	0
1.04	45.6610425915584	0	1	0	1	0	45.6610425915584	0
1.05	45.3225710073572	0	1	0	1	0	45.3225710073572	0
1.06	44.9917058480546	0	1	0	1	0	44.9917058480546	0
1.07	44.6682453614499	0	1	0	1	0	44.6682453614499	0
1.08	44.3519952676465	0	1	0	1	0	44.3519952676465	0
1.09	44.0427684162851	0	1	0	1	0	44.0427684162851	0
1.1	43.7403844624741	0	1	0	1	0	43.7403844624741	0
1.11	43.4446695602369	0	1	0	1	0	43.4446695602369	0
1.12	43.1554560723817	0	1	0	1	0	43.1554560723817	0
1.13	42.8725822957766	0	1	0	1	0	42.8725822957766	0
1.14	42.595892201084	0	1	0	1	0	42.595892201084	0
1.15	42.3252351860734	0	1	0	1	0	42.3252351860734	0
1.16	42.0604658416948	0	1	0	1	0	42.0604658416948	0
1.17	41.8014437301479	0	1	0	1	0	41.8014437301479	0
1.18	41.5480331742356	0	1	0	1	0	41.5480331742356	0
1.19	41.3001030573388	0	1	0	1	0	41.3001030573388	0
1.2	41.0575266333927	0	1	0	1	0	41.0575266333927	0
1.21	40.8201813462848	0	1	0	1	0	40.8201813462848	0
1.22	40.5879486581358	0	1	0	1	0	40.5879486581358	0
1.23	40.3607138859568	0	1	0	1	0	40.3607138859568	0
1.24	40.1383660462103	0	1	0	1	0	40.1383660462103	0
1.25	39.9207977068318	0	1	0	1	0	39.9207977068318	0
1.26	39.7079048462987	0	1	0	1	0	39.7079048462987	0
1.27	39.4995867193566	0	1	0	1	0	39.4995867193566	0
1.28	39.2957457290406	0	1	0	1	0	39.2957457290406	0
1.29	39.096287304648	0	1	0	1	0	39.096287304648	0
1.3	38.9011197853441	0	1	0	1	0	38.9011197853441	0
1.31	38.7101543090982	0	1	0	1	0	38.7101543090982	0
1.32	38.5233047066684	0	1	0	1	0	38.5233047066684	0
1.33	38.340487400369	0	1	0	1	0	38.340487400369	0
1.34	38.1616213073704	0	1	0	1	0	38.1616213073704	0
1.35	37.9866277472976	0	1	0	1	0	37.9866277472976	0
1.36	37.8154303539039	0	1	0	1	0	37.8154303539039	0
1.37	37.6479549906142	0	1	0	1	0	37.6479549906142	0
1.38	37.4841296697396	0	1	0	1	0	37.4841296697396	0
1.39	37.3238844751795	0	1	0	1	0	37.3238844751795	0
1.4	37.167151488436	0	1	0	1	0	37.167151488436	0
1.41	37.0138647177771	0	1	0	1	0	37.0138647177771	0
1.42	36.8639600303929	0	1	0	1	0	36.8639600303929	0
1.43	36.7173750873983	0	1	0	1	0	36.7173750873983	0
1.44	36.5740492815438	0	1	0	1	0	36.5740492815438	0
1.45	36.433923677504	0	1	0	1	0	36.433923677504	0
1.46	36.2969409546201	0	1	0	1	0	36.2969409546201	0
1.47	36.1630453519791	0	1	0	1	0	36.1630453519791	0
1.48	36.0321826157194	0	1	0	1	0	36.0321826157194	0
1.49	35.9042999484593	0	1	0	1	0	35.9042999484593	0
1.5	35.7793459607471	0	1	0	1	0	35.7793459607471	0
1.51	35.6572706244411	0	1	0	1	0	35.6572706244411	0
1.52	35.5380252279296	0	1	0	1	0	35.5380252279296	0
1.53	35.4215623331071	0	1	0	1	0	35.4215623331071	0
1.54	35.3078357340268	0	1	0	1	0	35.3078357340268	0
1.55	35.1968004171533	0	1	0	1	0	35.1968004171533	0
1.56	35.0884125231444	0	1	0	1	0	35.0884125231444	0
1.57	34.9826293100935	0	1	0	1	0	34.9826293100935	0
1.58	34.8794091181675	0	1	0	1	0	34.8794091181675	0
1.59	34.7787113355794	0	1	0	1	0	34.7787113355794	0
1.6	34.6804963658369	0	1	0	1	0	34.6804963658369	0
1.61	34.5847255962115	0	1	0	1	0	34.5847255962115	0
1.62	34.4913613673754	0	1	0	1	0	34.4913613673754	0
1.63	34.4003669441561	0	1	0	1	0	34.4003669441561	0
1.64	34.3117064873608	0	1	0	1	0	34.3117064873608	0
1.65	34.2253450266258	0	1	0	1	0	34.2253450266258	0
1.66	34.1412484342466	0	1	0	1	0	34.1412484342466	0
1.67	34.0593833999489	0	1	0	1	0	34.0593833999489	0
1.68	33.97971740656	0	1	0	1	0	33.97971740656	0
1.69	33.9022187065446	0	1	0	1	0	33.9022187065446	0
1.7	33.8268562993681	0	1	0	1	0	33.8268562993681	0
1.71	33.7535999096546	0	1	0	1	0	33.7535999096546	0
1.72	33.6824199661069	0	1	0	1	0	33.6824199661069	0
1.73	33.6132875811569	0	1	0	1	0	33.6132875811569	0
1.74	33.5461745313188	0	1	0	1	0	33.5461745313188	0
1.75	33.481053238215	0	1	0	1	0	33.481053238215	0
1.76	33.417896750249	0	1	0	1	0	33.417896750249	0
1.77	33.3566787249002	0	1	0	1	0	33.3566787249002	0
1.78	33.2973734116145	0	1	0	1	0	33.2973734116145	0
1.79	33.2399556352695	0	1	0	1	0	33.2399556352695	0
1.8	33.1844007801897	0	1	0	1	0	33.1844007801897	0
1.81	33.1306847746924	0	1	0	1	0	33.1306847746924	0
1.82	33.0787840761432	0	1	0	1	0	33.0787840761432	0
1.83	33.0286756565004	0	1	0	1	0	33.0286756565004	0
1.84	32.9803369883321	0	1	0	1	0	32.9803369883321	0
1.85	32.933746031286	0	1	0	1	0	32.933746031286	0
1.86	32.8888812189959	0	1	0	1	0	32.8888812189959	0
1.87	32.8457214464082	0	1	0	1	0	32.8457214464082	0
1.88	32.8042460575129	0	1	0	1	0	32.8042460575129	0
1.89	32.7644348334645	0	1	0	1	0	32.7644348334645	0
1.9	32.7262679810772	0	1	0	1	0	32.7262679810772	0
1.91	32.6897261216821	0	1	0	1	0	32.6897261216821	0
1.92	32.6547902803328	0	1	0	1	0	32.6547902803328	0
1.93	32.6214418753459	0	1	0	1	0	32.6214418753459	0
1.94	32.5896627081654	0	1	0	1	0	32.5896627081654	0
1.95	32.5594349535394	0	1	0	1	0	32.5594349535394	0
1.96	32.5307411499961	0	1	0	1	0	32.5307411499961	0
1.97	32.5035641906118	0	1	0	1	0	32.5035641906118	0
1.98	32.4778873140569	0	1	0	1	0	32.4778873140569	0
1.99	32.4536940959133	0	1	0	1	0	32.4536940959133	0
2	32.430968440251	0	1	0	1	0	32.430968440251	0
2.01	32.4096945714569	0	1	0	1	0	32.4096945714569	0
2.02	32.3898570263067	0	1	0	1	0	32.3898570263067	0
2.03	32.3714406462697	0	1	0	1	0	32.3714406462697	0
2.04	32.3544305700418	0	1	0	1	0	32.3544305700418	0
2.05	32.338812226295	0	1	0	1	0	32.338812226295	0
2.06	32.3245713266401	0	1	0	1	0	32.3245713266401	0
2.07	32.311693858792	0	1	0	1	0	32.311693858792	0
2.08	32.3001660799325	0	1	0	1	0	32.3001660799325	0
2.09	32.2899745102639	0	1	0	1	0	32.2899745102639	0
2.1	32.2811059267465	0	1	0	1	0	32.2811059267465	0
2.11	32.2735473570145	0	1	0	1	0	32.2735473570145	0
2.12	32.2672860734635	0	1	0	1	0	32.2672860734635	0
2.13	32.2623095875053	0	1	0	1	0	32.2623095875053	0
2.14	32.2586056439833	0	1	0	1	0	32.2586056439833	0
2.15	32.2561622157435	0	1	0	1	0	32.2561622157435	0
2.16	32.2549674983573	0	1	0	1	0	32.2549674983573	0
2.17	32.2550099049893	0	1	0	1	0	32.2550099049893	0
2.18	32.2562780614062	0	1	0	1	0	32.2562780614062	0
2.19	32.2587608011236	0	1	0	1	0	32.2587608011236	0
2.2	32.2624471606839	0	1	0	1	0	32.2624471606839	0
2.21	32.2673263750633	0	1	0	1	0	32.2673263750633	0
2.22	32.2733878732023	0	1	0	1	0	32.2733878732023	0
2.23	32.2806212736567	0	1	0	1	0	32.2806212736567	0
2.24	32.2890163803654	0	1	0	1	0	32.2890163803654	0
2.25	32.2985631785305	0	1	0	1	0	32.2985631785305	0
2.26	32.3092518306073	0	1	0	1	0	32.3092518306073	0
2.27	32.3210726723997	0	1	0	1	0	32.3210726723997	0
2.28	32.3340162092591	0	1	0	1	0	32.3340162092591	0
2.29	32.3480731123822	0	1	0	1	0	32.3480731123822	0
2.3	32.3632342152057	0	1	0	1	0	32.3632342152057	0
2.31	32.3794905098948	0	1	0	1	0	32.3794905098948	0
2.32	32.3968331439221	0	1	0	1	0	32.3968331439221	0
2.33	32.4152534167348	0	1	0	1	0	32.4152534167348	0
2.34	32.4347427765079	0	1	0	1	0	32.4347427765079	0
2.35	32.455292816979	0	1	0	1	0	32.455292816979	0
2.36	32.4768952743648	0	1	0	1	0	32.4768952743648	0
2.37	32.4995420243553	0	1	0	1	0	32.4995420243553	0
2.38	32.5232250791833	0	1	0	1	0	32.5232250791833	0
2.39	32.5479365847682	0	1	0	1	0	32.5479365847682	0
2.4	32.5736688179307	0	1	0	1	0	32.5736688179307	0
2.41	32.6004141836772	0	1	0	1	0	32.6004141836772	0
2.42	32.628165212551	0	1	0	1	0	32.628165212551	0
2.43	32.6569145580495	0	1	0	1	0	32.6569145580495	0
2.44	32.6866549941045	0	1	0	1	0	32.6866549941045	0
2.45	32.7173794126245	0	1	0	1	0	32.7173794126245	0
2.46	32.7490808210967	0	1	0	1	0	32.7490808210967	0
2.47	32.7817523402474	0	1	0	1	0	32.7817523402474	0
2.48	32.8153872017589	0	1	0	1	0	32.8153872017589	0
2.49	32.8499787460415	0	1	0	1	0	32.8499787460415	0
2.5	32.8855204200589	0	1	0	1	0	32.8855204200589	0
2.51	32.9220057752056	0	1	0	1	0	32.9220057752056	0
2.52	32.9594284652352	0	1	0	1	0	32.9594284652352	0
2.53	32.9977822442369	0	1	0	1	0	32.9977822442369	0
2.54	33.0370609646608	0	1	0	1	0	33.0370609646608	0
2.55	33.0772585753892	0	1	0	1	0	33.0772585753892	0
2.56	33.1183691198531	0	1	0	1	0	33.1183691198531	0
2.57	33.1603867341928	0	1	0	1	0	33.1603867341928	0
2.58	33.2033056454609	0	1	0	1	0	33.2033056454609	0
2.59	33.2471201698679	0	1	0	1	0	33.2471201698679	0
2.6	33.2918247110668	0	1	0	1	0	33.2918247110668	0
2.61	33.3374137584787	0	1	0	1	0	33.3374137584787	0
2.62	33.3838818856554	0	1	0	1	0	33.3838818856554	0
2.63	33.4312237486804	0	1	0	1	0	33.4312237486804	0
2.64	33.4794340846057	0	1	0	1	0	33.4794340846057	0
2.65	33.5285077099239	0	1	0	1	0	33.5285077099239	0
2.66	33.578439519075	0	1	0	1	0	33.578439519075	0
2.67	33.629224482987	0	1	0	1	0	33.629224482987	0
2.68	33.6808576476485	0	1	0	1	0	33.6808576476485	0
2.69	33.7333341327137	0	1	0	1	0	33.7333341327137	0
2.7	33.7866491301385	0	1	0	1	0	33.7866491301385	0
2.71	33.8407979028459	0	1	0	1	0	33.8407979028459	0
2.72	33.8957757834218	0	1	0	1	0	33.8957757834218	0
2.73	33.9515781728395	0	1	0	1	0	33.9515781728395	0
2.74	34.0082005392109	0	1	0	1	0	34.0082005392109	0
2.75	34.0656384165666	0	1	0	1	0	34.0656384165666	0
2.76	34.1238874036613	0	1	0	1	0	34.1238874036613	0
2.77	34.1829431628055	0	1	0	1	0	34.1829431628055	0
2.78	34.2428014187226	0	1	0	1	0	34.2428014187226	0
2.79	34.3034579574302	0	1	0	1	0	34.3034579574302	0
2.8	34.3649086251459	0	1	0	1	0	34.3649086251459	0
2.81	34.4271493272155	0	1	0	1	0	34.4271493272155	0
2.82	34.4901760270653	0	1	0	1	0	34.4901760270653	0
2.83	34.5539847451754	0	1	0	1	0	34.5539847451754	0
2.84	34.6185715580757	0	1	0	1	0	34.6185715580757	0
2.85	34.6839325973623	0	1	0	1	0	34.6839325973623	0
2.86	34.7500640487347	0	1	0	1	0	34.7500640487347	0
2.87	34.8169621510535	0	1	0	1	0	34.8169621510535	0
2.88	34.8846231954174	0	1	0	1	0	34.8846231954174	0
2.89	34.9530435242593	0	1	0	1	0	34.9530435242593	0
2.9	35.0222195304613	0	1	0	1	0	35.0222195304613	0
2.91	35.0921476564879	0	1	0	1	0	35.0921476564879	0
2.92	35.1628243935368	0	1	0	1	0	35.1628243935368	0
2.93	35.2342462807078	0	1	0	1	0	35.2342462807078	0
2.94	35.3064099041875	0	1	0	1	0	35.3064099041875	0
2.95	35.3793118964515	0	1	0	1	0	35.3793118964515	0
2.96	35.4529489354826	0	1	0	1	0	35.4529489354826	0
2.97	35.5273177440045	0	1	0	1	0	35.5273177440045	0
2.98	35.6024150887312	0	1	0	1	0	35.6024150887312	0
2.99	35.6782377796314	0	1	0	1	0	35.6782377796314	0
3	35.7547826692075	0	1	0	1	0	35.7547826692075	0
3.01	35.8320466517891	0	1	0	1	0	35.8320466517891	0
3.02	35.9100266628406	0	1	0	1	0	35.9100266628406	0
3.03	35.9887196782822	0	1	0	1	0	35.9887196782822	0
3.04	36.0681227138246	0	1	0	1	0	36.0681227138246	0
3.05	36.148232824317	0	1	0	1	0	36.148232824317	0
3.06	36.229047103107	0	1	0	1	0	36.229047103107	0
3.07	36.3105626814139	0	1	0	1	0	36.3105626814139	0
3.08	36.3927767277141	0	1	0	1	0	36.3927767277141	0
3.09	36.4756864471379	0	1	0	1	0	36.4756864471379	0
3.1	36.5592890808784	0	1	0	1	0	36.5592890808784	0
3.11	36.6435819056117	0	1	0	1	0	36.6435819056117	0
3.12	36.7285622329287	0	1	0	1	0	36.7285622329287	0
3.13	36.8142274087764	0	1	0	1	0	36.8142274087764	0
3.14	36.9005748129117	0	1	0	1	0	36.9005748129117	0
3.15	36.9876018583644	0	1	0	1	0	36.9876018583644	0
3.16	37.0753059909109	0	1	0	1	0	37.0753059909109	0
3.17	37.1636846885572	0	1	0	1	0	37.1636846885572	0
3.18	37.2527354610328	0	1	0	1	0	37.2527354610328	0
3.19	37.3424558492929	0	1	0	1	0	37.3424558492929	0
3.2	37.4328434250312	0	1	0	1	0	37.4328434250312	0
3.21	37.5238957902001	0	1	0	1	0	37.5238957902001	0
3.22	37.6156105765419	0	1	0	1	0	37.6156105765419	0
3.23	37.7079854451268	0	1	0	1	0	37.7079854451268	0
3.24	37.8010180859009	0	1	0	1	0	37.8010180859009	0
3.25	37.8947062172418	0	1	0	1	0	37.8947062172418	0
3.26	37.9890475855221	0	1	0	1	0	37.9890475855221	0
3.27	38.0840399646821	0	1	0	1	0	38.0840399646821	0
3.28	38.1796811558091	0	1	0	1	0	38.1796811558091	0
3.29	38.2759689867246	0	1	0	1	0	38.2759689867246	0
3.3	38.3729013115798	0	1	0	1	0	38.3729013115798	0
3.31	38.4704760104577	0	1	0	1	0	38.4704760104577	0
3.32	38.5686909889823	0	1	0	1	0	38.5686909889823	0
3.33	38.6675441779352	0	1	0	1	0	38.6675441779352	0
3.34	38.7670335328792	0	1	0	1	0	38.7670335328792	0
3.35	38.8671570337882	0	1	0	1	0	38.8671570337882	0
3.36	38.9679126846842	0	1	0	1	0	38.9679126846842	0
3.37	39.0692985132802	0	1	0	1	0	39.0692985132802	0
3.38	39.1713125706297	0	1	0	1	0	39.1713125706297	0
3.39	39.273952930783	0	1	0	1	0	39.273952930783	0
3.4	39.3772176904484	0	1	0	1	0	39.3772176904484	0
3.41	39.4811049686602	0	1	0	1	0	39.4811049686602	0
3.42	39.5856129064524	0	1	0	1	0	39.5856129064524	0
3.43	39.6907396665377	0	1	0	1	0	39.6907396665377	0
3.44	39.7964834329929	0	1	0	1	0	39.7964834329929	0
3.45	39.9028424109488	0	1	0	1	0	39.9028424109488	0
3.46	40.009814826286	0	1	0	1	0	40.009814826286	0
3.47	40.1173989253365	0	1	0	1	0	40.1173989253365	0
3.48	40.2255929745889	0	1	0	1	0	40.2255929745889	0
3.49	40.3343952604003	0	1	0	1	0	40.3343952604003	0
3.5	40.4438040887125	0	1	0	1	0	40.4438040887125	0
3.51	40.5538177847725	0	1	0	1	0	40.5538177847725	0
3.52	40.6644346928588	0	1	0	1	0	40.6644346928588	0
3.53	40.7756531760115	0	1	0	1	0	40.7756531760115	0
3.54	40.8874716157675	0	1	0	1	0	40.8874716157675	0
3.55	40.9998884118997	0	1	0	1	0	40.9998884118997	0
3.56	41.1129019821614	0	1	0	1	0	41.1129019821614	0
3.57	41.226510762034	0	1	0	1	0	41.226510762034	0
3.58	41.3407132044794	0	1	0	1	0	41.3407132044794	0
3.59	41.455507779697	0	1	0	1	0	41.455507779697	0
3.6	41.5708929748837	0	1	0	1	0	41.5708929748837	0
3.61	41.686867293999	0	1	0	1	0	41.686867293999	0
3.62	41.8034292575331	0	1	0	1	0	41.8034292575331	0
3.63	41.9205774022792	0	1	0	1	0	41.9205774022792	0
3.64	42.0383102811101	0	1	0	1	0	42.0383102811101	0
3.65	42.1566264627571	0	1	0	1	0	42.1566264627571	0
3.66	42.2755245315941	0	1	0	1	0	42.2755245315941	0
3.67	42.3950030874239	0	1	0	1	0	42.3950030874239	0
3.68	42.5150607452691	0	1	0	1	0	42.5150607452691	0
3.69	42.6356961351654	0	1	0	1	0	42.6356961351654	0
3.7	42.7569079019589	0	1	0	1	0	42.7569079019589	0
3.71	42.8786947051068	0	1	0	1	0	42.8786947051068	0
3.72	43.0010552184805	0	1	0	1	0	43.0010552184805	0
3.73	43.1239881301726	0	1	0	1	0	43.1239881301726	0
3.74	43.2474921423069	0	1	0	1	0	43.2474921423069	0
3.75	43.3715659708513	0	1	0	1	0	43.3715659708513	0
3.76	43.4962083454334	0	1	0	1	0	43.4962083454334	0
3.77	43.6214180091596	0	1	0	1	0	43.6214180091596	0
3.78	43.747193718437	0	1	0	1	0	43.747193718437	0
3.79	43.8735342427973	0	1	0	1	0	43.8735342427973	0
3.8	44.0004383647248	0	1	0	1	0	44.0004383647248	0
3.81	44.127904879486	0	1	0	1	0	44.127904879486	0
3.82	44.2559325949625	0	1	0	1	0	44.2559325949625	0
3.83	44.3845203314861	0	1	0	1	0	44.3845203314861	0
3.84	44.5136669216768	0	1	0	1	0	44.5136669216768	0
3.85	44.6433712102834	0	1	0	1	0	44.6433712102834	0
3.86	44.773632054026	0	1	0	1	0	44.773632054026	0
3.87	44.9044483214418	0	1	0	1	0	44.9044483214418	0
3.88	45.0358188927322	0	1	0	1	0	45.0358188927322	0
3.89	45.1677426596137	0	1	0	1	0	45.1677426596137	0
3.9	45.3002185251693	0	1	0	1	0	45.3002185251693	0
3.91	45.4332454037042	0	1	0	1	0	45.4332454037042	0
3.92	45.5668222206016	0	1	0	1	0	45.5668222206016	0
3.93	45.7009479121826	0	1	0	1	0	45.7009479121826	0
3.94	45.835621425567	0	1	0	1	0	45.835621425567	0
3.95	45.9708417185367	0	1	0	1	0	45.9708417185367	0
3.96	46.1066077594009	0	1	0	1	0	46.1066077594009	0
3.97	46.242918526864	0	1	0	1	0	46.242918526864	0
3.98	46.3797730098942	0	1	0	1	0	46.3797730098942	0
3.99	46.5171702075958	0	1	0	1	0	46.5171702075958	0
4	46.6551091290818	0	1	0	1	0	46.6551091290818	0
4.01	46.7935887933495	0	1	0	1	0	46.7935887933495	0
4.02	46.9326082291573	0	1	0	1	0	46.9326082291573	0
4.03	47.0721664749038	0	1	0	1	0	47.0721664749038	0
4.04	47.2122625785084	0	1	0	1	0	47.2122625785084	0
4.05	47.3528955972938	0	1	0	1	0	47.3528955972938	0
4.06	47.49406459787	0	1	0	1	0	47.49406459787	0
4.07	47.6357686560204	0	1	0	1	0	47.6357686560204	0
4.08	47.7780068565897	0	1	0	1	0	47.7780068565897	0
4.09	47.9207782933722	0	1	0	1	0	47.9207782933722	0
4.1	48.0640820690037	0	1	0	1	0	48.0640820690037	0
4.11	48.2079172948532	0	1	0	1	0	48.2079172948532	0
4.12	48.3522830909174	0	1	0	1	0	48.3522830909174	0
4.13	48.4971785857159	0	1	0	1	0	48.4971785857159	0
4.14	48.6426029161883	0	1	0	1	0	48.6426029161883	0
4.15	48.788555227593	0	1	0	1	0	48.788555227593	0
4.16	48.9350346734071	0	1	0	1	0	48.9350346734071	0
4.17	49.0820404152278	0	1	0	1	0	49.0820404152278	0
4.18	49.2295716226752	0	1	0	1	0	49.2295716226752	0
4.19	49.3776274732967	0	1	0	1	0	49.3776274732967	0
4.2	49.5262071524726	0	1	0	1	0	49.5262071524726	0
4.21	49.675309853323	0	1	0	1	0	49.675309853323	0
4.22	49.8249347766164	0	1	0	1	0	49.8249347766164	0
4.23	49.9750811306786	0	1	0	1	0	49.9750811306786	0
4.24	50.1257481313044	0	1	0	1	0	50.1257481313044	0
4.25	50.2769350016692	0	1	0	1	0	50.2769350016692	0
4.26	50.4286409722426	0	1	0	1	0	50.4286409722426	0
4.27	50.5808652807027	0	1	0	1	0	50.5808652807027	0
4.28	50.7336071718525	0	1	0	1	0	50.7336071718525	0
4.29	50.8868658975361	0	1	0	1	0	50.8868658975361	0
4.3	51.0406407165573	0	1	0	1	0	51.0406407165573	0
4.31	51.1949308945989	0	1	0	1	0	51.1949308945989	0
4.32	51.3497357041427	0	1	0	1	0	51.3497357041427	0
4.33	51.5050544243914	0	1	0	1	0	51.5050544243914	0
4.34	51.6608863411908	0	1	0	1	0	51.6608863411908	0
4.35	51.8172307469539	0	1	0	1	0	51.8172307469539	0
4.36	51.9740869405852	0	1	0	1	0	51.9740869405852	0
4.37	52.1314542274064	0	1	0	1	0	52.1314542274064	0
4.38	52.2893319190835	0	1	0	1	0	52.2893319190835	0
4.39	52.4477193335543	0	1	0	1	0	52.4477193335543	0
4.4	52.6066157949571	0	1	0	1	0	52.6066157949571	0
4.41	52.7660206335604	0	1	0	1	0	52.7660206335604	0
4.42	52.9259331856938	0	1	0	1	0	52.9259331856938	0
4.43	53.0863527936794	0	1	0	1	0	53.0863527936794	0
4.44	53.2472788057641	0	1	0	1	0	53.2472788057641	0
4.45	53.4087105760535	0	1	0	1	0	53.4087105760535	0
4.46	53.5706474644459	0	1	0	1	0	53.5706474644459	0
4.47	53.7330888365674	0	1	0	1	0	53.7330888365674	0
4.48	53.8960340637085	0	1	0	1	0	53.8960340637085	0
4.49	54.0594825227604	0	1	0	1	0	54.0594825227604	0
4.5	54.2234335961531	0	1	0	1	0	54.2234335961531	0
4.51	54.387886671794	0	1	0	1	0	54.387886671794	0
4.52	54.5528411430072	0	1	0	1	0	54.5528411430072	0
4.53	54.7182964084738	0	1	0	1	0	54.7182964084738	0
4.54	54.8842518721728	0	1	0	1	0	54.8842518721728	0
4.55	55.0507069433231	0	1	0	1	0	55.0507069433231	0
4.56	55.2176610363257	0	1	0	1	0	55.2176610363257	0
4.57	55.3851135707073	0	1	0	1	0	55.3851135707073	0
4.58	55.5530639710642	0	1	0	1	0	55.5530639710642	0
4.59	55.7215116670071	0	1	0	1	0	55.7215116670071	0
4.6	55.8904560931066	0	1	0	1	0	55.8904560931066	0
4.61	56.0598966888395	0	1	0	1	0	56.0598966888395	0
4.62	56.2298328985355	0	1	0	1	0	56.2298328985355	0
4.63	56.400264171325	0	1	0	1	0	56.400264171325	0
4.64	56.5711899610872	0	1	0	1	0	56.5711899610872	0
4.65	56.7426097263992	0	1	0	1	0	56.7426097263992	0
4.66	56.9145229304854	0	1	0	1	0	56.9145229304854	0
4.67	57.086929041168	0	1	0	1	0	57.086929041168	0
4.68	57.2598275308175	0	1	0	1	0	57.2598275308175	0
4.69	57.4332178763047	0	1	0	1	0	57.4332178763047	0
4.7	57.6070995589524	0	1	0	1	0	57.6070995589524	0
4.71	57.7814720644882	0	1	0	1	0	57.7814720644882	0
4.72	57.9563348829983	0	1	0	1	0	57.9563348829983	0
4.73	58.1316875088807	0	1	0	1	0	58.1316875088807	0
4.74	58.3075294408002	0	1	0	1	0	58.3075294408002	0
4.75	58.4838601816436	0	1	0	1	0	58.4838601816436	0
4.76	58.6606792384747	0	1	0	1	0	58.6606792384747	0
4.77	58.8379861224913	0	1	0	1	0	58.8379861224913	0
4.78	59.0157803489814	0	1	0	1	0	59.0157803489814	0
4.79	59.1940614372807	0	1	0	1	0	59.1940614372807	0
4.8	59.3728289107306	0	1	0	1	0	59.3728289107306	0
4.81	59.5520822966362	0	1	0	1	0	59.5520822966362	0
4.82	59.7318211262255	0	1	0	1	0	59.7318211262255	0
4.83	59.9120449346086	0	1	0	1	0	59.9120449346086	0
4.84	60.0927532607377	0	1	0	1	0	60.0927532607377	0
4.85	60.2739456473676	0	1	0	1	0	60.2739456473676	0
4.86	60.4556216410161	0	1	0	1	0	60.4556216410161	0
4.87	60.6377807919259	0	1	0	1	0	60.6377807919259	0
4.88	60.8204226540264	0	1	0	1	0	60.8204226540264	0
4.89	61.0035467848955	0	1	0	1	0	61.0035467848955	0
4.9	61.187152745723	0	1	0	1	0	61.187152745723	0
4.91	61.3712401012733	0	1	0	1	0	61.3712401012733	0
4.92	61.5558084198494	0	1	0	1	0	61.5558084198494	0
4.93	61.7408572732569	0	1	0	1	0	61.7408572732569	0
