# GHZ S RI R 50
1	51.3228356062984	0	1	0	1	0	51.3228356062984	0
1.01	50.8862037542466	0	1	0	1	0	50.8862037542466	0
1.02	50.4592883188936	0	1	0	1	0	50.4592883188936	0
1.03	50.0418176225061	0	1	0	1	0	50.0418176225061	0
1.04	49.6335304364942	0	1	0	1	0	49.6335304364942	0
1.05	49.2341754838335	0	1	0	1	0	49.2341754838335	0
1.06	48.8435109696513	0	1	0	1	0	48.8435109696513	0
1.07	48.4613041381357	0	1	0	1	0	48.4613041381357	0
1.08	48.0873308540604	0	1	0	1	0	48.0873308540604	0
1.09	47.7213752073449	0	1	0	1	0	47.7213752073449	0
1.1	47.3632291391845	0	1	0	1	0	47.3632291391845	0
1.11	47.012692088389	0	1	0	1	0	47.012692088389	0
1.12	46.6695706566679	0	1	0	1	0	46.6695706566679	0
1.13	46.3336782916879	0	1	0	1	0	46.3336782916879	0
1.14	46.0048349868115	0	1	0	1	0	46.0048349868115	0
1.15	45.6828669965017	0	1	0	1	0	45.6828669965017	0
1.16	45.367606566447	0	1	0	1	0	45.367606566447	0
1.17	45.0588916775258	0	1	0	1	0	45.0588916775258	0
1.18	44.7565658027905	0	1	0	1	0	44.7565658027905	0
1.19	44.4604776767031	0	1	0	1	0	44.4604776767031	0
1.2	44.1704810759104	0	1	0	1	0	44.1704810759104	0
1.21	43.886434610889	0	1	0	1	0	43.886434610889	0
1.22	43.6082015278377	0	1	0	1	0	43.6082015278377	0
1.23	43.3356495202333	0	1	0	1	0	43.3356495202333	0
1.24	43.0686505495048	0	1	0	1	0	43.0686505495048	0
1.25	42.8070806743158	0	1	0	1	0	42.8070806743158	0
1.26	42.5508198879753	0	1	0	1	0	42.5508198879753	0
1.27	42.2997519635305	0	1	0	1	0	42.2997519635305	0
1.28	42.0537643061211	0	1	0	1	0	42.0537643061211	0
1.29	41.8127478122003	0	1	0	1	0	41.8127478122003	0
1.3	41.5765967352532	0	1	0	1	0	41.5765967352532	0
1.31	41.3452085576665	0	1	0	1	0	41.3452085576665	0
1.32	41.1184838684209	0	1	0	1	0	41.1184838684209	0
1.33	40.8963262463026	0	1	0	1	0	40.8963262463026	0
1.34	40.6786421483425	0	1	0	1	0	40.6786421483425	0
1.35	40.4653408032155	0	1	0	1	0	40.4653408032155	0
1.36	40.256334109341	0	1	0	1	0	40.256334109341	0
1.37	40.0515365374475	0	1	0	1	0	40.0515365374475	0
1.38	39.8508650373727	0	1	0	1	0	39.8508650373727	0
1.39	39.6542389488872	0	1	0	1	0	39.6542389488872	0
1.4	39.4615799163395	0	1	0	1	0	39.4615799163395	0
1.41	39.2728118069334	0	1	0	1	0	39.2728118069334	0
1.42	39.0878606324586	0	1	0	1	0	39.0878606324586	0
1.43	38.906654474305	0	1	0	1	0	38.906654474305	0
1.44	38.7291234116017	0	1	0	1	0	38.7291234116017	0
1.45	38.5551994523294	0	1	0	1	0	38.5551994523294	0
1.46	38.384816467264	0	1	0	1	0	38.384816467264	0
1.47	38.2179101266159	0	1	0	1	0	38.2179101266159	0
1.48	38.0544178392385	0	1	0	1	0	38.0544178392385	0
1.49	37.8942786942844	0	1	0	1	0	37.8942786942844	0
1.5	37.7374334051955	0	1	0	1	0	37.7374334051955	0
1.51	37.5838242559186	0	1	0	1	0	37.5838242559186	0
1.52	37.433395049244	0	1	0	1	0	37.433395049244	0
1.53	37.28609105717	0	1	0	1	0	37.28609105717	0
1.54	37.1418589732016	0	1	0	1	0	37.1418589732016	0
1.55	37.000646866495	0	1	0	1	0	37.000646866495	0
1.56	36.8624041377669	0	1	0	1	0	36.8624041377669	0
1.57	36.7270814768873	0	1	0	1	0	36.7270814768873	0
1.58	36.5946308220842	0	1	0	1	0	36.5946308220842	0
1.59	36.4650053206867	0	1	0	1	0	36.4650053206867	0
1.6	36.3381592913407	0	1	0	1	0	36.3381592913407	0
1.61	36.2140481876325	0	1	0	1	0	36.2140481876325	0
1.62	36.0926285630599	0	1	0	1	0	36.0926285630599	0
1.63	35.9738580372926	0	1	0	1	0	35.9738580372926	0
1.64	35.8576952636667	0	1	0	1	0	35.8576952636667	0
1.65	35.7440998978619	0	1	0	1	0	35.7440998978619	0
1.66	35.6330325677099	0	1	0	1	0	35.6330325677099	0
1.67	35.5244548440888	0	1	0	1	0	35.5244548440888	0
1.68	35.4183292128553	0	1	0	1	0	35.4183292128553	0
1.69	35.3146190477752	0	1	0	1	0	35.3146190477752	0
1.7	35.2132885844078	0	1	0	1	0	35.2132885844078	0
1.71	35.1143028949076	0	1	0	1	0	35.1143028949076	0
1.72	35.0176278637046	0	1	0	1	0	35.0176278637046	0
1.73	34.9232301640281	0	1	0	1	0	34.9232301640281	0
1.74	34.8310772352399	0	1	0	1	0	34.8310772352399	0
1.75	34.7411372609453	0	1	0	1	0	34.7411372609453	0
1.76	34.6533791478491	0	1	0	1	0	34.6533791478491	0
1.77	34.5677725053296	0	1	0	1	0	34.5677725053296	0
1.78	34.4842876257006	0	1	0	1	0	34.4842876257006	0
1.79	34.4028954651345	0	1	0	1	0	34.4028954651345	0
1.8	34.3235676252222	0	1	0	1	0	34.3235676252222	0
1.81	34.246276335144	0	1	0	1	0	34.246276335144	0
1.82	34.1709944344274	0	1	0	1	0	34.1709944344274	0
1.83	34.0976953562719	0	1	0	1	0	34.0976953562719	0
1.84	34.0263531114158	0	1	0	1	0	34.0263531114158	0
1.85	33.9569422725276	0	1	0	1	0	33.9569422725276	0
1.86	33.8894379591	0	1	0	1	0	33.8894379591	0
1.87	33.8238158228292	0	1	0	1	0	33.8238158228292	0
1.88	33.7600520334603	0	1	0	1	0	33.7600520334603	0
1.89	33.6981232650824	0	1	0	1	0	33.6981232650824	0
1.9	33.6380066828566	0	1	0	1	0	33.6380066828566	0
1.91	33.5796799301602	0	1	0	1	0	33.5796799301602	0
1.92	33.5231211161339	0	1	0	1	0	33.5231211161339	0
1.93	33.4683088036144	0	1	0	1	0	33.4683088036144	0
1.94	33.4152219974424	0	1	0	1	0	33.4152219974424	0
1.95	33.3638401331281	0	1	0	1	0	33.3638401331281	0
1.96	33.3141430658653	0	1	0	1	0	33.3141430658653	0
1.97	33.2661110598793	0	1	0	1	0	33.2661110598793	0
1.98	33.2197247780982	0	1	0	1	0	33.2197247780982	0
1.99	33.1749652721346	0	1	0	1	0	33.1749652721346	0
2	33.131813972569	0	1	0	1	0	33.131813972569	0
2.01	33.0902526795228	0	1	0	1	0	33.0902526795228	0
2.02	33.0502635535107	0	1	0	1	0	33.0502635535107	0
2.03	33.0118291065645	0	1	0	1	0	33.0118291065645	0
2.04	32.9749321936174	0	1	0	1	0	32.9749321936174	0
2.05	32.9395560041404	0	1	0	1	0	32.9395560041404	0
2.06	32.9056840540224	0	1	0	1	0	32.9056840540224	0
2.07	32.8733001776862	0	1	0	1	0	32.8733001776862	0
2.08	32.8423885204309	0	1	0	1	0	32.8423885204309	0
2.09	32.8129335309947	0	1	0	1	0	32.8129335309947	0
2.1	32.7849199543305	0	1	0	1	0	32.7849199543305	0
2.11	32.7583328245864	0	1	0	1	0	32.7583328245864	0
2.12	32.733157458285	0	1	0	1	0	32.733157458285	0
2.13	32.7093794476949	0	1	0	1	0	32.7093794476949	0
2.14	32.6869846543883	0	1	0	1	0	32.6869846543883	0
2.15	32.6659592029777	0	1	0	1	0	32.6659592029777	0
2.16	32.6462894750274	0	1	0	1	0	32.6462894750274	0
2.17	32.6279621031326	0	1	0	1	0	32.6279621031326	0
2.18	32.610963965162	0	1	0	1	0	32.610963965162	0
2.19	32.5952821786581	0	1	0	1	0	32.5952821786581	0
2.2	32.5809040953898	0	1	0	1	0	32.5809040953898	0
2.21	32.5678172960531	0	1	0	1	0	32.5678172960531	0
2.22	32.5560095851156	0	1	0	1	0	32.5560095851156	0
2.23	32.5454689857985	0	1	0	1	0	32.5454689857985	0
2.24	32.5361837351942	0	1	0	1	0	32.5361837351942	0
2.25	32.5281422795135	0	1	0	1	0	32.5281422795135	0
2.26	32.5213332694589	0	1	0	1	0	32.5213332694589	0
2.27	32.5157455557207	0	1	0	1	0	32.5157455557207	0
2.28	32.5113681845911	0	1	0	1	0	32.5113681845911	0
2.29	32.5081903936932	0	1	0	1	0	32.5081903936932	0
2.3	32.5062016078221	0	1	0	1	0	32.5062016078221	0
2.31	32.5053914348934	0	1	0	1	0	32.5053914348934	0
2.32	32.5057496619963	0	1	0	1	0	32.5057496619963	0
2.33	32.5072662515492	0	1	0	1	0	32.5072662515492	0
2.34	32.5099313375529	0	1	0	1	0	32.5099313375529	0
2.35	32.5137352219402	0	1	0	1	0	32.5137352219402	0
2.36	32.5186683710179	0	1	0	1	0	32.5186683710179	0
2.37	32.5247214119991	0	1	0	1	0	32.5247214119991	0
2.38	32.5318851296226	0	1	0	1	0	32.5318851296226	0
2.39	32.5401504628575	0	1	0	1	0	32.5401504628575	0
2.4	32.5495085016902	0	1	0	1	0	32.5495085016902	0
2.41	32.559950483991	0	1	0	1	0	32.559950483991	0
2.42	32.571467792459	0	1	0	1	0	32.571467792459	0
2.43	32.5840519516417	0	1	0	1	0	32.5840519516417	0
2.44	32.5976946250285	0	1	0	1	0	32.5976946250285	0
2.45	32.6123876122151	0	1	0	1	0	32.6123876122151	0
2.46	32.628122846137	0	1	0	1	0	32.628122846137	0
2.47	32.6448923903706	0	1	0	1	0	32.6448923903706	0
2.48	32.6626884364991	0	1	0	1	0	32.6626884364991	0
2.49	32.681503301542	0	1	0	1	0	32.681503301542	0
2.5	32.7013294254465	0	1	0	1	0	32.7013294254465	0
2.51	32.7221593686389	0	1	0	1	0	32.7221593686389	0
2.52	32.7439858096338	0	1	0	1	0	32.7439858096338	0
2.53	32.7668015427005	0	1	0	1	0	32.7668015427005	0
2.54	32.7905994755845	0	1	0	1	0	32.7905994755845	0
2.55	32.8153726272823	0	1	0	1	0	32.8153726272823	0
2.56	32.8411141258685	0	1	0	1	0	32.8411141258685	0
2.57	32.8678172063739	0	1	0	1	0	32.8678172063739	0
2.58	32.8954752087124	0	1	0	1	0	32.8954752087124	0
2.59	32.9240815756564	0	1	0	1	0	32.9240815756564	0
2.6	32.9536298508588	0	1	0	1	0	32.9536298508588	0
2.61	32.9841136769202	0	1	0	1	0	32.9841136769202	0
2.62	33.0155267935009	0	1	0	1	0	33.0155267935009	0
2.63	33.0478630354754	0	1	0	1	0	33.0478630354754	0
2.64	33.0811163311293	0	1	0	1	0	33.0811163311293	0
2.65	33.1152807003964	0	1	0	1	0	33.1152807003964	0
2.66	33.1503502531368	0	1	0	1	0	33.1503502531368	0
2.67	33.186319187452	0	1	0	1	0	33.186319187452	0
2.68	33.2231817880391	0	1	0	1	0	33.2231817880391	0
2.69	33.2609324245812	0	1	0	1	0	33.2609324245812	0
2.7	33.2995655501735	0	1	0	1	0	33.2995655501735	0
2.71	33.3390756997842	0	1	0	1	0	33.3390756997842	0
2.72	33.3794574887497	0	1	0	1	0	33.3794574887497	0
2.73	33.4207056113026	0	1	0	1	0	33.4207056113026	0
2.74	33.462814839132	0	1	0	1	0	33.462814839132	0
2.75	33.505780019975	0	1	0	1	0	33.505780019975	0
2.76	33.5495960762394	0	1	0	1	0	33.5495960762394	0
2.77	33.5942580036552	0	1	0	1	0	33.5942580036552	0
2.78	33.6397608699569	0	1	0	1	0	33.6397608699569	0
2.79	33.686099813592	0	1	0	1	0	33.686099813592	0
2.8	33.7332700424589	0	1	0	1	0	33.7332700424589	0
2.81	33.7812668326711	0	1	0	1	0	33.7812668326711	0
2.82	33.8300855273474	0	1	0	1	0	33.8300855273474	0
2.83	33.8797215354282	0	1	0	1	0	33.8797215354282	0
2.84	33.930170330517	0	1	0	1	0	33.930170330517	0
2.85	33.9814274497455	0	1	0	1	0	33.9814274497455	0
2.86	34.0334884926629	0	1	0	1	0	34.0334884926629	0
2.87	34.0863491201492	0	1	0	1	0	34.0863491201492	0
2.88	34.1400050533495	0	1	0	1	0	34.1400050533495	0
2.89	34.1944520726322	0	1	0	1	0	34.1944520726322	0
2.9	34.2496860165673	0	1	0	1	0	34.2496860165673	0
2.91	34.3057027809265	0	1	0	1	0	34.3057027809265	0
2.92	34.3624983177041	0	1	0	1	0	34.3624983177041	0
2.93	34.4200686341569	0	1	0	1	0	34.4200686341569	0
2.94	34.4784097918651	0	1	0	1	0	34.4784097918651	0
2.95	34.5375179058109	0	1	0	1	0	34.5375179058109	0
2.96	34.597389143477	0	1	0	1	0	34.597389143477	0
2.97	34.6580197239624	0	1	0	1	0	34.6580197239624	0
2.98	34.7194059171163	0	1	0	1	0	34.7194059171163	0
2.99	34.7815440426897	0	1	0	1	0	34.7815440426897	0
3	34.8444304695037	0	1	0	1	0	34.8444304695037	0
3.01	34.9080616146341	0	1	0	1	0	34.9080616146341	0
3.02	34.9724339426127	0	1	0	1	0	34.9724339426127	0
3.03	35.0375439646442	0	1	0	1	0	35.0375439646442	0
3.04	35.1033882378385	0	1	0	1	0	35.1033882378385	0
3.05	35.169963364458	0	1	0	1	0	35.169963364458	0
3.06	35.2372659911802	0	1	0	1	0	35.2372659911802	0
3.07	35.3052928083738	0	1	0	1	0	35.3052928083738	0
3.08	35.3740405493902	0	1	0	1	0	35.3740405493902	0
3.09	35.443505989867	0	1	0	1	0	35.443505989867	0
3.1	35.5136859470468	0	1	0	1	0	35.5136859470468	0
3.11	35.5845772791078	0	1	0	1	0	35.5845772791078	0
3.12	35.6561768845081	0	1	0	1	0	35.6561768845081	0
3.13	35.7284817013422	0	1	0	1	0	35.7284817013422	0
3.14	35.8014887067094	0	1	0	1	0	35.8014887067094	0
3.15	35.8751949160954	0	1	0	1	0	35.8751949160954	0
3.16	35.9495973827645	0	1	0	1	0	35.9495973827645	0
3.17	36.0246931971636	0	1	0	1	0	36.0246931971636	0
3.18	36.100479486338	0	1	0	1	0	36.100479486338	0
3.19	36.1769534133573	0	1	0	1	0	36.1769534133573	0
3.2	36.2541121767529	0	1	0	1	0	36.2541121767529	0
3.21	36.3319530099652	0	1	0	1	0	36.3319530099652	0
3.22	36.4104731808022	0	1	0	1	0	36.4104731808022	0
3.23	36.4896699909068	0	1	0	1	0	36.4896699909068	0
3.24	36.5695407752349	0	1	0	1	0	36.5695407752349	0
3.25	36.6500829015433	0	1	0	1	0	36.6500829015433	0
3.26	36.7312937698859	0	1	0	1	0	36.7312937698859	0
3.27	36.8131708121204	0	1	0	1	0	36.8131708121204	0
3.28	36.8957114914232	0	1	0	1	0	36.8957114914232	0
3.29	36.9789133018137	0	1	0	1	0	36.9789133018137	0
3.3	37.0627737676866	0	1	0	1	0	37.0627737676866	0
3.31	37.1472904433535	0	1	0	1	0	37.1472904433535	0
3.32	37.2324609125921	0	1	0	1	0	37.2324609125921	0
3.33	37.3182827882036	0	1	0	1	0	37.3182827882036	0
3.34	37.4047537115786	0	1	0	1	0	37.4047537115786	0
3.35	37.49187135227	0	1	0	1	0	37.49187135227	0
3.36	37.5796334075744	0	1	0	1	0	37.5796334075744	0
3.37	37.6680376021201	0	1	0	1	0	37.6680376021201	0
3.38	37.7570816874626	0	1	0	1	0	37.7570816874626	0
3.39	37.8467634416881	0	1	0	1	0	37.8467634416881	0
3.4	37.9370806690227	0	1	0	1	0	37.9370806690227	0
3.41	38.0280311994496	0	1	0	1	0	38.0280311994496	0
3.42	38.1196128883321	0	1	0	1	0	38.1196128883321	0
3.43	38.2118236160439	0	1	0	1	0	38.2118236160439	0
3.44	38.3046612876056	0	1	0	1	0	38.3046612876056	0
3.45	38.3981238323273	0	1	0	1	0	38.3981238323273	0
3.46	38.4922092034579	0	1	0	1	0	38.4922092034579	0
3.47	38.5869153778398	0	1	0	1	0	38.5869153778398	0
3.48	38.6822403555701	0	1	0	1	0	38.6822403555701	0
3.49	38.7781821596674	0	1	0	1	0	38.7781821596674	0
3.5	38.8747388357445	0	1	0	1	0	38.8747388357445	0
3.51	38.9719084516864	0	1	0	1	0	38.9719084516864	0
3.52	39.0696890973338	0	1	0	1	0	39.0696890973338	0
3.53	39.1680788841725	0	1	0	1	0	39.1680788841725	0
3.54	39.2670759450271	0	1	0	1	0	39.2670759450271	0
3.55	39.3666784337612	0	1	0	1	0	39.3666784337612	0
3.56	39.4668845249812	0	1	0	1	0	39.4668845249812	0
3.57	39.5676924137462	0	1	0	1	0	39.5676924137462	0
3.58	39.6691003152824	0	1	0	1	0	39.6691003152824	0
3.59	39.7711064647016	0	1	0	1	0	39.7711064647016	0
3.6	39.873709116726	0	1	0	1	0	39.873709116726	0
3.61	39.9769065454158	0	1	0	1	0	39.9769065454158	0
3.62	40.0806970439023	0	1	0	1	0	40.0806970439023	0
3.63	40.1850789241254	0	1	0	1	0	40.1850789241254	0
3.64	40.290050516575	0	1	0	1	0	40.290050516575	0
3.65	40.3956101700372	0	1	0	1	0	40.3956101700372	0
3.66	40.5017562513438	0	1	0	1	0	40.5017562513438	0
3.67	40.6084871451273	0	1	0	1	0	40.6084871451273	0
3.68	40.715801253578	0	1	0	1	0	40.715801253578	0
3.69	40.823696996207	0	1	0	1	0	40.823696996207	0
3.7	40.9321728096117	0	1	0	1	0	40.9321728096117	0
3.71	41.0412271472455	0	1	0	1	0	41.0412271472455	0
3.72	41.1508584791913	0	1	0	1	0	41.1508584791913	0
3.73	41.2610652919388	0	1	0	1	0	41.2610652919388	0
3.74	41.3718460881649	0	1	0	1	0	41.3718460881649	0
3.75	41.4831993865178	0	1	0	1	0	41.4831993865178	0
3.76	41.595123721405	0	1	0	1	0	41.595123721405	0
3.77	41.7076176427839	0	1	0	1	0	41.7076176427839	0
3.78	41.8206797159563	0	1	0	1	0	41.8206797159563	0
3.79	41.9343085213658	0	1	0	1	0	41.9343085213658	0
3.8	42.0485026543991	0	1	0	1	0	42.0485026543991	0
3.81	42.163260725189	0	1	0	1	0	42.163260725189	0
3.82	42.2785813584223	0	1	0	1	0	42.2785813584223	0
3.83	42.3944631931491	0	1	0	1	0	42.3944631931491	0
3.84	42.5109048825961	0	1	0	1	0	42.5109048825961	0
3.85	42.6279050939826	0	1	0	1	0	42.6279050939826	0
3.86	42.745462508339	0	1	0	1	0	42.745462508339	0
3.87	42.8635758203284	0	1	0	1	0	42.8635758203284	0
3.88	42.9822437380711	0	1	0	1	0	42.9822437380711	0
3.89	43.1014649829715	0	1	0	1	0	43.1014649829715	0
3.9	43.2212382895477	0	1	0	1	0	43.2212382895477	0
3.91	43.341562405264	0	1	0	1	0	43.341562405264	0
3.92	43.4624360903657	0	1	0	1	0	43.4624360903657	0
3.93	43.5838581177163	0	1	0	1	0	43.5838581177163	0
3.94	43.7058272726376	0	1	0	1	0	43.7058272726376	0
3.95	43.8283423527522	0	1	0	1	0	43.8283423527522	0
3.96	43.9514021678276	0	1	0	1	0	43.9514021678276	0
3.97	44.0750055396237	0	1	0	1	0	44.0750055396237	0
3.98	44.199151301742	0	1	0	1	0	44.199151301742	0
3.99	44.3238382994772	0	1	0	1	0	44.3238382994772	0
4	44.449065389671	0	1	0	1	0	44.449065389671	0
4.01	44.5748314405683	0	1	0	1	0	44.5748314405683	0
4.02	44.7011353316752	0	1	0	1	0	44.7011353316752	0
4.03	44.8279759536193	0	1	0	1	0	44.8279759536193	0
4.04	44.9553522080121	0	1	0	1	0	44.9553522080121	0
4.05	45.0832630073134	0	1	0	1	0	45.0832630073134	0
4.06	45.2117072746976	0	1	0	1	0	45.2117072746976	0
4.07	45.3406839439222	0	1	0	1	0	45.3406839439222	0
4.08	45.4701919591982	0	1	0	1	0	45.4701919591982	0
4.09	45.6002302750619	0	1	0	1	0	45.6002302750619	0
4.1	45.7307978562494	0	1	0	1	0	45.7307978562494	0
4.11	45.8618936775724	0	1	0	1	0	45.8618936775724	0
4.12	45.9935167237958	0	1	0	1	0	45.9935167237958	0
4.13	46.1256659895173	0	1	0	1	0	46.1256659895173	0
4.14	46.2583404790486	0	1	0	1	0	46.2583404790486	0
4.15	46.3915392062986	0	1	0	1	0	46.3915392062986	0
4.16	46.5252611946575	0	1	0	1	0	46.5252611946575	0
4.17	46.6595054768837	0	1	0	1	0	46.6595054768837	0
4.18	46.7942710949915	0	1	0	1	0	46.7942710949915	0
4.19	46.9295571001405	0	1	0	1	0	46.9295571001405	0
4.2	47.0653625525271	0	1	0	1	0	47.0653625525271	0
4.21	47.2016865212768	0	1	0	1	0	47.2016865212768	0
4.22	47.3385280843384	0	1	0	1	0	47.3385280843384	0
4.23	47.4758863283802	0	1	0	1	0	47.4758863283802	0
4.24	47.6137603486866	0	1	0	1	0	47.6137603486866	0
4.25	47.7521492490571	0	1	0	1	0	47.7521492490571	0
4.26	47.8910521417061	0	1	0	1	0	47.8910521417061	0
4.27	48.0304681471647	0	1	0	1	0	48.0304681471647	0
4.28	48.170396394183	0	1	0	1	0	48.170396394183	0
4.29	48.3108360196349	0	1	0	1	0	48.3108360196349	0
4.3	48.4517861684234	0	1	0	1	0	48.4517861684234	0
4.31	48.5932459933873	0	1	0	1	0	48.5932459933873	0
4.32	48.7352146552096	0	1	0	1	0	48.7352146552096	0
4.33	48.8776913223266	0	1	0	1	0	48.8776913223266	0
4.34	49.0206751708391	0	1	0	1	0	49.0206751708391	0
4.35	49.1641653844236	0	1	0	1	0	49.1641653844236	0
4.36	49.3081611542463	0	1	0	1	0	49.3081611542463	0
4.37	49.4526616788764	0	1	0	1	0	49.4526616788764	0
4.38	49.5976661642025	0	1	0	1	0	49.5976661642025	0
4.39	49.7431738233485	0	1	0	1	0	49.7431738233485	0
4.4	49.889183876592	0	1	0	1	0	49.889183876592	0
4.41	50.0356955512828	0	1	0	1	0	50.0356955512828	0
4.42	50.182708081763	0	1	0	1	0	50.182708081763	0
4.43	50.3302207092881	0	1	0	1	0	50.3302207092881	0
4.44	50.4782326819491	0	1	0	1	0	50.4782326819491	0
4.45	50.6267432545959	0	1	0	1	0	50.6267432545959	0
4.46	50.7757516887611	0	1	0	1	0	50.7757516887611	0
4.47	50.9252572525857	0	1	0	1	0	50.9252572525857	0
4.48	51.075259220745	0	1	0	1	0	51.075259220745	0
4.49	51.2257568743763	0	1	0	1	0	51.2257568743763	0
4.5	51.3767495010064	0	1	0	1	0	51.3767495010064	0
4.51	51.5282363944813	0	1	0	1	0	51.5282363944813	0
4.52	51.6802168548964	0	1	0	1	0	51.6802168548964	0
4.53	51.8326901885269	0	1	0	1	0	51.8326901885269	0
4.54	51.9856557077602	0	1	0	1	0	51.9856557077602	0
4.55	52.1391127310288	0	1	0	1	0	52.1391127310288	0
4.56	52.2930605827439	0	1	0	1	0	52.2930605827439	0
4.57	52.4474985932296	0	1	0	1	0	52.4474985932296	0
4.58	52.602426098659	0	1	0	1	0	52.602426098659	0
4.59	52.7578424409902	0	1	0	1	0	52.7578424409902	0
4.6	52.9137469679031	0	1	0	1	0	52.9137469679031	0
4.61	53.0701390327381	0	1	0	1	0	53.0701390327381	0
4.62	53.2270179944341	0	1	0	1	0	53.2270179944341	0
4.63	53.3843832174682	0	1	0	1	0	53.3843832174682	0
4.64	53.5422340717964	0	1	0	1	0	53.5422340717964	0
4.65	53.7005699327944	0	1	0	1	0	53.7005699327944	0
4.66	53.8593901811993	0	1	0	1	0	53.8593901811993	0
4.67	54.0186942030527	0	1	0	1	0	54.0186942030527	0
4.68	54.1784813896433	0	1	0	1	0	54.1784813896433	0
4.69	54.3387511374516	0	1	0	1	0	54.3387511374516	0
4.7	54.4995028480946	0	1	0	1	0	54.4995028480946	0
4.71	54.6607359282708	0	1	0	1	0	54.6607359282708	0
4.72	54.8224497897068	0	1	0	1	0	54.8224497897068	0
4.73	54.984643849104	0	1	0	1	0	54.984643849104	0
4.74	55.1473175280862	0	1	0	1	0	55.1473175280862	0
4.75	55.3104702531478	0	1	0	1	0	55.3104702531478	0
4.76	55.4741014556024	0	1	0	1	0	55.4741014556024	0
4.77	55.6382105715326	0	1	0	1	0	55.6382105715326	0
4.78	55.8027970417399	0	1	0	1	0	55.8027970417399	0
4.79	55.9678603116956	0	1	0	1	0	55.9678603116956	0
4.8	56.133399831492	0	1	0	1	0	56.133399831492	0
4.81	56.2994150557943	0	1	0	1	0	56.2994150557943	0
4.82	56.4659054437936	0	1	0	1	0	56.4659054437936	0
4.83	56.6328704591596	0	1	0	1	0	56.6328704591596	0
4.84	56.8003095699945	0	1	0	1	0	56.8003095699945	0
4.85	56.9682222487872	0	1	0	1	0	56.9682222487872	0
4.86	57.1366079723683	0	1	0	1	0	57.1366079723683	0
4.87	57.3054662218656	0	1	0	1	0	57.3054662218656	0
4.88	57.4747964826598	0	1	0	1	0	57.4747964826598	0
4.89	57.6445982443412	0	1	0	1	0	57.6445982443412	0
4.9	57.8148710006667	0	1	0	1	0	57.8148710006667	0
4.91	57.9856142495175	0	1	0	1	0	57.9856142495175	0
4.92	58.1568274928569	0	1	0	1	0	58.1568274928569	0
4.93	58.3285102366892	0	1	0	1	0	58.3285102366892	0
