# GHZ S RI R 50
1	55.1460342894864	0	1	0	1	0	55.1460342894864	0
1.01	54.6782454353839	0	1	0	1	0	54.6782454353839	0
1.02	54.2209294892777	0	1	0	1	0	54.2209294892777	0
1.03	53.7737941669982	0	1	0	1	0	53.7737941669982	0
1.04	53.3365584260748	0	1	0	1	0	53.3365584260748	0
1.05	52.9089519304167	0	1	0	1	0	52.9089519304167	0
1.06	52.4907145452948	0	1	0	1	0	52.4907145452948	0
1.07	52.081595860643	0	1	0	1	0	52.081595860643	0
1.08	51.681354740842	0	1	0	1	0	51.681354740842	0
1.09	51.2897588992862	0	1	0	1	0	51.2897588992862	0
1.1	50.9065844961555	0	1	0	1	0	50.9065844961555	0
1.11	50.5316157579295	0	1	0	1	0	50.5316157579295	0
1.12	50.1646446172853	0	1	0	1	0	50.1646446172853	0
1.13	49.8054703721147	0	1	0	1	0	49.8054703721147	0
1.14	49.4538993624889	0	1	0	1	0	49.4538993624889	0
1.15	49.1097446644765	0	1	0	1	0	49.1097446644765	0
1.16	48.7728257997989	0	1	0	1	0	48.7728257997989	0
1.17	48.4429684603752	0	1	0	1	0	48.4429684603752	0
1.18	48.1200042468729	0	1	0	1	0	48.1200042468729	0
1.19	47.8037704204412	0	1	0	1	0	47.8037704204412	0
1.2	47.4941096668578	0	1	0	1	0	47.4941096668578	0
1.21	47.1908698723706	0	1	0	1	0	47.1908698723706	0
1.22	46.8939039105634	0	1	0	1	0	46.8939039105634	0
1.23	46.6030694396191	0	1	0	1	0	46.6030694396191	0
1.24	46.318228709392	0	1	0	1	0	46.318228709392	0
1.25	46.0392483777411	0	1	0	1	0	46.0392483777411	0
1.26	45.7659993356094	0	1	0	1	0	45.7659993356094	0
1.27	45.4983565403667	0	1	0	1	0	45.4983565403667	0
1.28	45.2361988569649	0	1	0	1	0	45.2361988569649	0
1.29	44.9794089064818	0	1	0	1	0	44.9794089064818	0
1.3	44.7278729216539	0	1	0	1	0	44.7278729216539	0
1.31	44.4814806090276	0	1	0	1	0	44.4814806090276	0
1.32	44.2401250173751	0	1	0	1	0	44.2401250173751	0
1.33	44.0037024120467	0	1	0	1	0	44.0037024120467	0
1.34	43.7721121549496	0	1	0	1	0	43.7721121549496	0
1.35	43.5452565898603	0	1	0	1	0	43.5452565898603	0
1.36	43.3230409327974	0	1	0	1	0	43.3230409327974	0
1.37	43.1053731671946	0	1	0	1	0	43.1053731671946	0
1.38	42.8921639436329	0	1	0	1	0	42.8921639436329	0
1.39	42.6833264838992	0	1	0	1	0	42.6833264838992	0
1.4	42.4787764891583	0	1	0	1	0	42.4787764891583	0
1.41	42.278432052031	0	1	0	1	0	42.278432052031	0
1.42	42.0822135723883	0	1	0	1	0	42.0822135723883	0
1.43	41.8900436766784	0	1	0	1	0	41.8900436766784	0
1.44	41.7018471406146	0	1	0	1	0	41.7018471406146	0
1.45	41.5175508150632	0	1	0	1	0	41.5175508150632	0
1.46	41.337083554976	0	1	0	1	0	41.337083554976	0
1.47	41.1603761512248	0	1	0	1	0	41.1603761512248	0
1.48	40.9873612651982	0	1	0	1	0	40.9873612651982	0
1.49	40.8179733660328	0	1	0	1	0	40.8179733660328	0
1.5	40.652148670355	0	1	0	1	0	40.652148670355	0
1.51	40.4898250844168	0	1	0	1	0	40.4898250844168	0
1.52	40.3309421485163	0	1	0	1	0	40.3309421485163	0
1.53	40.1754409835974	0	1	0	1	0	40.1754409835974	0
1.54	40.0232642399302	0	1	0	1	0	40.0232642399302	0
1.55	39.8743560477776	0	1	0	1	0	39.8743560477776	0
1.56	39.7286619699602	0	1	0	1	0	39.7286619699602	0
1.57	39.5861289562328	0	1	0	1	0	39.5861289562328	0
1.58	39.4467052993945	0	1	0	1	0	39.4467052993945	0
1.59	39.3103405930546	0	1	0	1	0	39.3103405930546	0
1.6	39.176985690982	0	1	0	1	0	39.176985690982	0
1.61	39.04659266797	0	1	0	1	0	39.04659266797	0
1.62	38.9191147821504	0	1	0	1	0	38.9191147821504	0
1.63	38.7945064386947	0	1	0	1	0	38.7945064386947	0
1.64	38.6727231548433	0	1	0	1	0	38.6727231548433	0
1.65	38.5537215262067	0	1	0	1	0	38.5537215262067	0
1.66	38.4374591942842	0	1	0	1	0	38.4374591942842	0
1.67	38.3238948151499	0	1	0	1	0	38.3238948151499	0
1.68	38.2129880292572	0	1	0	1	0	38.2129880292572	0
1.69	38.1046994323149	0	1	0	1	0	38.1046994323149	0
1.7	37.9989905471919	0	1	0	1	0	37.9989905471919	0
1.71	37.8958237968066	0	1	0	1	0	37.8958237968066	0
1.72	37.7951624779631	0	1	0	1	0	37.7951624779631	0
1.73	37.6969707360946	0	1	0	1	0	37.6969707360946	0
1.74	37.6012135408767	0	1	0	1	0	37.6012135408767	0
1.75	37.5078566626786	0	1	0	1	0	37.5078566626786	0
1.76	37.4168666498154	0	1	0	1	0	37.4168666498154	0
1.77	37.3282108065726	0	1	0	1	0	37.3282108065726	0
1.78	37.2418571719708	0	1	0	1	0	37.2418571719708	0
1.79	37.1577744992423	0	1	0	1	0	37.1577744992423	0
1.8	37.0759322359923	0	1	0	1	0	37.0759322359923	0
1.81	36.9963005050169	0	1	0	1	0	36.9963005050169	0
1.82	36.9188500857539	0	1	0	1	0	36.9188500857539	0
1.83	36.8435523963422	0	1	0	1	0	36.8435523963422	0
1.84	36.7703794762653	0	1	0	1	0	36.7703794762653	0
1.85	36.6993039695585	0	1	0	1	0	36.6993039695585	0
1.86	36.6302991085573	0	1	0	1	0	36.6302991085573	0
1.87	36.5633386981677	0	1	0	1	0	36.5633386981677	0
1.88	36.4983971006381	0	1	0	1	0	36.4983971006381	0
1.89	36.4354492208147	0	1	0	1	0	36.4354492208147	0
1.9	36.374470491863	0	1	0	1	0	36.374470491863	0
1.91	36.3154368614368	0	1	0	1	0	36.3154368614368	0
1.92	36.2583247782807	0	1	0	1	0	36.2583247782807	0
1.93	36.2031111792482	0	1	0	1	0	36.2031111792482	0
1.94	36.1497734767215	0	1	0	1	0	36.1497734767215	0
1.95	36.0982895464187	0	1	0	1	0	36.0982895464187	0
1.96	36.0486377155737	0	1	0	1	0	36.0486377155737	0
1.97	36.0007967514767	0	1	0	1	0	36.0007967514767	0
1.98	35.9547458503614	0	1	0	1	0	35.9547458503614	0
1.99	35.9104646266277	0	1	0	1	0	35.9104646266277	0
2	35.8679331023875	0	1	0	1	0	35.8679331023875	0
2.01	35.8271316973227	0	1	0	1	0	35.8271316973227	0
2.02	35.7880412188442	0	1	0	1	0	35.7880412188442	0
2.03	35.750642852542	0	1	0	1	0	35.750642852542	0
2.04	35.714918152916	0	1	0	1	0	35.714918152916	0
2.05	35.6808490343786	0	1	0	1	0	35.6808490343786	0
2.06	35.6484177625182	0	1	0	1	0	35.6484177625182	0
2.07	35.6176069456176	0	1	0	1	0	35.6176069456176	0
2.08	35.5883995264155	0	1	0	1	0	35.5883995264155	0
2.09	35.5607787741052	0	1	0	1	0	35.5607787741052	0
2.1	35.5347282765623	0	1	0	1	0	35.5347282765623	0
2.11	35.5102319327926	0	1	0	1	0	35.5102319327926	0
2.12	35.4872739455943	0	1	0	1	0	35.4872739455943	0
2.13	35.4658388144265	0	1	0	1	0	35.4658388144265	0
2.14	35.4459113284783	0	1	0	1	0	35.4459113284783	0
2.15	35.4274765599304	0	1	0	1	0	35.4274765599304	0
2.16	35.4105198574047	0	1	0	1	0	35.4105198574047	0
2.17	35.3950268395946	0	1	0	1	0	35.3950268395946	0
2.18	35.3809833890707	0	1	0	1	0	35.3809833890707	0
2.19	35.3683756462561	0	1	0	1	0	35.3683756462561	0
2.2	35.3571900035662	0	1	0	1	0	35.3571900035662	0
2.21	35.3474130997077	0	1	0	1	0	35.3474130997077	0
2.22	35.3390318141311	0	1	0	1	0	35.3390318141311	0
2.23	35.3320332616333	0	1	0	1	0	35.3320332616333	0
2.24	35.3264047871039	0	1	0	1	0	35.3264047871039	0
2.25	35.3221339604124	0	1	0	1	0	35.3221339604124	0
2.26	35.3192085714305	0	1	0	1	0	35.3192085714305	0
2.27	35.3176166251864	0	1	0	1	0	35.3176166251864	0
2.28	35.3173463371465	0	1	0	1	0	35.3173463371465	0
2.29	35.3183861286203	0	1	0	1	0	35.3183861286203	0
2.3	35.3207246222861	0	1	0	1	0	35.3207246222861	0
2.31	35.324350637832	0	1	0	1	0	35.324350637832	0
2.32	35.3292531877102	0	1	0	1	0	35.3292531877102	0
2.33	35.3354214730001	0	1	0	1	0	35.3354214730001	0
2.34	35.3428448793782	0	1	0	1	0	35.3428448793782	0
2.35	35.3515129731903	0	1	0	1	0	35.3515129731903	0
2.36	35.3614154976239	0	1	0	1	0	35.3614154976239	0
2.37	35.372542368977	0	1	0	1	0	35.372542368977	0
2.38	35.3848836730219	0	1	0	1	0	35.3848836730219	0
2.39	35.3984296614591	0	1	0	1	0	35.3984296614591	0
2.4	35.413170748461	0	1	0	1	0	35.413170748461	0
2.41	35.4290975073008	0	1	0	1	0	35.4290975073008	0
2.42	35.4462006670652	0	1	0	1	0	35.4462006670652	0
2.43	35.4644711094488	0	1	0	1	0	35.4644711094488	0
2.44	35.4838998656265	0	1	0	1	0	35.4838998656265	0
2.45	35.5044781132028	0	1	0	1	0	35.5044781132028	0
2.46	35.5261971732361	0	1	0	1	0	35.5261971732361	0
2.47	35.5490485073343	0	1	0	1	0	35.5490485073343	0
2.48	35.5730237148214	0	1	0	1	0	35.5730237148214	0
2.49	35.5981145299718	0	1	0	1	0	35.5981145299718	0
2.5	35.6243128193118	0	1	0	1	0	35.6243128193118	0
2.51	35.6516105789846	0	1	0	1	0	35.6516105789846	0
2.52	35.6799999321787	0	1	0	1	0	35.6799999321787	0
2.53	35.7094731266175	0	1	0	1	0	35.7094731266175	0
2.54	35.7400225321072	0	1	0	1	0	35.7400225321072	0
2.55	35.7716406381433	0	1	0	1	0	35.7716406381433	0
2.56	35.8043200515731	0	1	0	1	0	35.8043200515731	0
2.57	35.8380534943123	0	1	0	1	0	35.8380534943123	0
2.58	35.8728338011153	0	1	0	1	0	35.8728338011153	0
2.59	35.9086539173964	0	1	0	1	0	35.9086539173964	0
2.6	35.9455068971021	0	1	0	1	0	35.9455068971021	0
2.61	35.983385900632	0	1	0	1	0	35.983385900632	0
2.62	36.0222841928068	0	1	0	1	0	36.0222841928068	0
2.63	36.0621951408835	0	1	0	1	0	36.0621951408835	0
2.64	36.1031122126153	0	1	0	1	0	36.1031122126153	0
2.65	36.1450289743552	0	1	0	1	0	36.1450289743552	0
2.66	36.1879390892028	0	1	0	1	0	36.1879390892028	0
2.67	36.2318363151927	0	1	0	1	0	36.2318363151927	0
2.68	36.276714503523	0	1	0	1	0	36.276714503523	0
2.69	36.3225675968239	0	1	0	1	0	36.3225675968239	0
2.7	36.3693896274642	0	1	0	1	0	36.3693896274642	0
2.71	36.417174715896	0	1	0	1	0	36.417174715896	0
2.72	36.4659170690354	0	1	0	1	0	36.4659170690354	0
2.73	36.5156109786788	0	1	0	1	0	36.5156109786788	0
2.74	36.5662508199538	0	1	0	1	0	36.5662508199538	0
2.75	36.6178310498047	0	1	0	1	0	36.6178310498047	0
2.76	36.6703462055097	0	1	0	1	0	36.6703462055097	0
2.77	36.7237909032311	0	1	0	1	0	36.7237909032311	0
2.78	36.7781598365966	0	1	0	1	0	36.7781598365966	0
2.79	36.8334477753108	0	1	0	1	0	36.8334477753108	0
2.8	36.8896495637968	0	1	0	1	0	36.8896495637968	0
2.81	36.9467601198669	0	1	0	1	0	36.9467601198669	0
2.82	37.0047744334209	0	1	0	1	0	37.0047744334209	0
2.83	37.0636875651729	0	1	0	1	0	37.0636875651729	0
2.84	37.1234946454043	0	1	0	1	0	37.1234946454043	0
2.85	37.1841908727435	0	1	0	1	0	37.1841908727435	0
2.86	37.245771512971	0	1	0	1	0	37.245771512971	0
2.87	37.3082318978494	0	1	0	1	0	37.3082318978494	0
2.88	37.3715674239778	0	1	0	1	0	37.3715674239778	0
2.89	37.4357735516705	0	1	0	1	0	37.4357735516705	0
2.9	37.5008458038578	0	1	0	1	0	37.5008458038578	0
2.91	37.5667797650107	0	1	0	1	0	37.5667797650107	0
2.92	37.6335710800869	0	1	0	1	0	37.6335710800869	0
2.93	37.7012154534985	0	1	0	1	0	37.7012154534985	0
2.94	37.769708648101	0	1	0	1	0	37.769708648101	0
2.95	37.8390464842027	0	1	0	1	0	37.8390464842027	0
2.96	37.9092248385944	0	1	0	1	0	37.9092248385944	0
2.97	37.980239643598	0	1	0	1	0	37.980239643598	0
2.98	38.0520868861354	0	1	0	1	0	38.0520868861354	0
2.99	38.124762606815	0	1	0	1	0	38.124762606815	0
3	38.1982628990371	0	1	0	1	0	38.1982628990371	0
3.01	38.2725839081171	0	1	0	1	0	38.2725839081171	0
3.02	38.3477218304257	0	1	0	1	0	38.3477218304257	0
3.03	38.4236729125464	0	1	0	1	0	38.4236729125464	0
3.04	38.5004334504501	0	1	0	1	0	38.5004334504501	0
3.05	38.5779997886848	0	1	0	1	0	38.5779997886848	0
3.06	38.6563683195823	0	1	0	1	0	38.6563683195823	0
3.07	38.7355354824799	0	1	0	1	0	38.7355354824799	0
3.08	38.8154977629573	0	1	0	1	0	38.8154977629573	0
3.09	38.8962516920882	0	1	0	1	0	38.8962516920882	0
3.1	38.9777938457067	0	1	0	1	0	38.9777938457067	0
3.11	39.0601208436876	0	1	0	1	0	39.0601208436876	0
3.12	39.1432293492406	0	1	0	1	0	39.1432293492406	0
3.13	39.2271160682182	0	1	0	1	0	39.2271160682182	0
3.14	39.3117777484366	0	1	0	1	0	39.3117777484366	0
3.15	39.3972111790092	0	1	0	1	0	39.3972111790092	0
3.16	39.4834131896941	0	1	0	1	0	39.4834131896941	0
3.17	39.5703806502519	0	1	0	1	0	39.5703806502519	0
3.18	39.6581104698177	0	1	0	1	0	39.6581104698177	0
3.19	39.7465995962833	0	1	0	1	0	39.7465995962833	0
3.2	39.835845015692	0	1	0	1	0	39.835845015692	0
3.21	39.925843751644	0	1	0	1	0	39.925843751644	0
3.22	40.0165928647136	0	1	0	1	0	40.0165928647136	0
3.23	40.1080894518766	0	1	0	1	0	40.1080894518766	0
3.24	40.2003306459484	0	1	0	1	0	40.2003306459484	0
3.25	40.2933136150332	0	1	0	1	0	40.2933136150332	0
3.26	40.3870355619822	0	1	0	1	0	40.3870355619822	0
3.27	40.4814937238623	0	1	0	1	0	40.4814937238623	0
3.28	40.5766853714351	0	1	0	1	0	40.5766853714351	0
3.29	40.6726078086441	0	1	0	1	0	40.6726078086441	0
3.3	40.7692583721124	0	1	0	1	0	40.7692583721124	0
3.31	40.8666344306489	0	1	0	1	0	40.8666344306489	0
3.32	40.9647333847637	0	1	0	1	0	40.9647333847637	0
3.33	41.0635526661918	0	1	0	1	0	41.0635526661918	0
3.34	41.1630897374261	0	1	0	1	0	41.1630897374261	0
3.35	41.2633420912579	0	1	0	1	0	41.2633420912579	0
3.36	41.3643072503263	0	1	0	1	0	41.3643072503263	0
3.37	41.4659827666753	0	1	0	1	0	41.4659827666753	0
3.38	41.5683662213188	0	1	0	1	0	41.5683662213188	0
3.39	41.6714552238132	0	1	0	1	0	41.6714552238132	0
3.4	41.7752474118378	0	1	0	1	0	41.7752474118378	0
3.41	41.8797404507826	0	1	0	1	0	41.8797404507826	0
3.42	41.9849320333427	0	1	0	1	0	41.9849320333427	0
3.43	42.0908198791208	0	1	0	1	0	42.0908198791208	0
3.44	42.1974017342355	0	1	0	1	0	42.1974017342355	0
3.45	42.3046753709379	0	1	0	1	0	42.3046753709379	0
3.46	42.4126385872328	0	1	0	1	0	42.4126385872328	0
3.47	42.5212892065087	0	1	0	1	0	42.5212892065087	0
3.48	42.6306250771724	0	1	0	1	0	42.6306250771724	0
3.49	42.7406440722909	0	1	0	1	0	42.7406440722909	0
3.5	42.8513440892389	0	1	0	1	0	42.8513440892389	0
3.51	42.9627230493527	0	1	0	1	0	42.9627230493527	0
3.52	43.0747788975898	0	1	0	1	0	43.0747788975898	0
3.53	43.1875096021943	0	1	0	1	0	43.1875096021943	0
3.54	43.300913154368	0	1	0	1	0	43.300913154368	0
3.55	43.4149875679468	0	1	0	1	0	43.4149875679468	0
3.56	43.5297308790835	0	1	0	1	0	43.5297308790835	0
3.57	43.6451411459345	0	1	0	1	0	43.6451411459345	0
3.58	43.7612164483528	0	1	0	1	0	43.7612164483528	0
3.59	43.8779548875859	0	1	0	1	0	43.8779548875859	0
3.6	43.9953545859783	0	1	0	1	0	43.9953545859783	0
3.61	44.11341368668	0	1	0	1	0	44.11341368668	0
3.62	44.2321303533581	0	1	0	1	0	44.2321303533581	0
3.63	44.3515027699153	0	1	0	1	0	44.3515027699153	0
3.64	44.4715291402111	0	1	0	1	0	44.4715291402111	0
3.65	44.5922076877889	0	1	0	1	0	44.5922076877889	0
3.66	44.7135366556068	0	1	0	1	0	44.7135366556068	0
3.67	44.8355143057732	0	1	0	1	0	44.8355143057732	0
3.68	44.9581389192868	0	1	0	1	0	44.9581389192868	0
3.69	45.0814087957803	0	1	0	1	0	45.0814087957803	0
3.7	45.2053222532689	0	1	0	1	0	45.2053222532689	0
3.71	45.3298776279021	0	1	0	1	0	45.3298776279021	0
3.72	45.4550732737207	0	1	0	1	0	45.4550732737207	0
3.73	45.5809075624163	0	1	0	1	0	45.5809075624163	0
3.74	45.7073788830954	0	1	0	1	0	45.7073788830954	0
3.75	45.8344856420477	0	1	0	1	0	45.8344856420477	0
3.76	45.9622262625171	0	1	0	1	0	45.9622262625171	0
3.77	46.0905991844769	0	1	0	1	0	46.0905991844769	0
3.78	46.2196028644088	0	1	0	1	0	46.2196028644088	0
3.79	46.3492357750849	0	1	0	1	0	46.3492357750849	0
3.8	46.4794964053534	0	1	0	1	0	46.4794964053534	0
3.81	46.6103832599274	0	1	0	1	0	46.6103832599274	0
3.82	46.7418948591777	0	1	0	1	0	46.7418948591777	0
3.83	46.8740297389281	0	1	0	1	0	46.8740297389281	0
3.84	47.0067864502541	0	1	0	1	0	47.0067864502541	0
3.85	47.1401635592852	0	1	0	1	0	47.1401635592852	0
3.86	47.2741596470093	0	1	0	1	0	47.2741596470093	0
3.87	47.4087733090815	0	1	0	1	0	47.4087733090815	0
3.88	47.5440031556344	0	1	0	1	0	47.5440031556344	0
3.89	47.6798478110924	0	1	0	1	0	47.6798478110924	0
3.9	47.8163059139884	0	1	0	1	0	47.8163059139884	0
3.91	47.9533761167833	0	1	0	1	0	47.9533761167833	0
3.92	48.0910570856884	0	1	0	1	0	48.0910570856884	0
3.93	48.2293475004903	0	1	0	1	0	48.2293475004903	0
3.94	48.3682460543792	0	1	0	1	0	48.3682460543792	0
3.95	48.5077514537785	0	1	0	1	0	48.5077514537785	0
3.96	48.647862418178	0	1	0	1	0	48.647862418178	0
3.97	48.7885776799695	0	1	0	1	0	48.7885776799695	0
3.98	48.9298959842845	0	1	0	1	0	48.9298959842845	0
3.99	49.0718160888348	0	1	0	1	0	49.0718160888348	0
4	49.2143367637548	0	1	0	1	0	49.2143367637548	0
4.01	49.3574567914472	0	1	0	1	0	49.3574567914472	0
4.02	49.5011749664298	0	1	0	1	0	49.5011749664298	0
4.03	49.6454900951858	0	1	0	1	0	49.6454900951858	0
4.04	49.790400996015	0	1	0	1	0	49.790400996015	0
4.05	49.9359064988886	0	1	0	1	0	49.9359064988886	0
4.06	50.0820054453052	0	1	0	1	0	50.0820054453052	0
4.07	50.2286966881491	0	1	0	1	0	50.2286966881491	0
4.08	50.3759790915506	0	1	0	1	0	50.3759790915506	0
4.09	50.5238515307492	0	1	0	1	0	50.5238515307492	0
4.1	50.6723128919573	0	1	0	1	0	50.6723128919573	0
4.11	50.8213620722272	0	1	0	1	0	50.8213620722272	0
4.12	50.9709979793194	0	1	0	1	0	50.9709979793194	0
4.13	51.1212195315732	0	1	0	1	0	51.1212195315732	0
4.14	51.2720256577785	0	1	0	1	0	51.2720256577785	0
4.15	51.4234152970501	0	1	0	1	0	51.4234152970501	0
4.16	51.5753873987038	0	1	0	1	0	51.5753873987038	0
4.17	51.7279409221337	0	1	0	1	0	51.7279409221337	0
4.18	51.881074836692	0	1	0	1	0	51.881074836692	0
4.19	52.0347881215699	0	1	0	1	0	52.0347881215699	0
4.2	52.1890797656809	0	1	0	1	0	52.1890797656809	0
4.21	52.3439487675445	0	1	0	1	0	52.3439487675445	0
4.22	52.4993941351734	0	1	0	1	0	52.4993941351734	0
4.23	52.6554148859604	0	1	0	1	0	52.6554148859604	0
4.24	52.8120100465685	0	1	0	1	0	52.8120100465685	0
4.25	52.9691786528214	0	1	0	1	0	52.9691786528214	0
4.26	53.1269197495959	0	1	0	1	0	53.1269197495959	0
4.27	53.2852323907165	0	1	0	1	0	53.2852323907165	0
4.28	53.4441156388502	0	1	0	1	0	53.4441156388502	0
4.29	53.6035685654035	0	1	0	1	0	53.6035685654035	0
4.3	53.7635902504215	0	1	0	1	0	53.7635902504215	0
4.31	53.9241797824868	0	1	0	1	0	53.9241797824868	0
4.32	54.085336258621	0	1	0	1	0	54.085336258621	0
4.33	54.2470587841875	0	1	0	1	0	54.2470587841875	0
4.34	54.4093464727952	0	1	0	1	0	54.4093464727952	0
4.35	54.5721984462036	0	1	0	1	0	54.5721984462036	0
4.36	54.7356138342296	0	1	0	1	0	54.7356138342296	0
4.37	54.8995917746549	0	1	0	1	0	54.8995917746549	0
4.38	55.0641314131355	0	1	0	1	0	55.0641314131355	0
4.39	55.2292319031121	0	1	0	1	0	55.2292319031121	0
4.4	55.3948924057209	0	1	0	1	0	55.3948924057209	0
4.41	55.5611120897072	0	1	0	1	0	55.5611120897072	0
4.42	55.7278901313389	0	1	0	1	0	55.7278901313389	0
4.43	55.8952257143216	0	1	0	1	0	55.8952257143216	0
4.44	56.0631180297149	0	1	0	1	0	56.0631180297149	0
4.45	56.2315662758498	0	1	0	1	0	56.2315662758498	0
4.46	56.4005696582473	0	1	0	1	0	56.4005696582473	0
4.47	56.5701273895375	0	1	0	1	0	56.5701273895375	0
4.48	56.7402386893808	0	1	0	1	0	56.7402386893808	0
4.49	56.9109027843895	0	1	0	1	0	56.9109027843895	0
4.5	57.0821189080503	0	1	0	1	0	57.0821189080503	0
4.51	57.2538863006483	0	1	0	1	0	57.2538863006483	0
4.52	57.4262042091916	0	1	0	1	0	57.4262042091916	0
4.53	57.5990718873375	0	1	0	1	0	57.5990718873375	0
4.54	57.7724885953188	0	1	0	1	0	57.7724885953188	0
4.55	57.9464535998719	0	1	0	1	0	57.9464535998719	0
4.56	58.1209661741651	0	1	0	1	0	58.1209661741651	0
4.57	58.2960255977287	0	1	0	1	0	58.2960255977287	0
4.58	58.4716311563852	0	1	0	1	0	58.4716311563852	0
4.59	58.647782142181	0	1	0	1	0	58.647782142181	0
4.6	58.8244778533183	0	1	0	1	0	58.8244778533183	0
4.61	59.0017175940891	0	1	0	1	0	59.0017175940891	0
4.62	59.1795006748085	0	1	0	1	0	59.1795006748085	0
4.63	59.3578264117502	0	1	0	1	0	59.3578264117502	0
4.64	59.5366941270818	0	1	0	1	0	59.5366941270818	0
4.65	59.7161031488021	0	1	0	1	0	59.7161031488021	0
4.66	59.896052810678	0	1	0	1	0	59.896052810678	0
4.67	60.0765424521827	0	1	0	1	0	60.0765424521827	0
4.68	60.2575714184352	0	1	0	1	0	60.2575714184352	0
4.69	60.4391390601398	0	1	0	1	0	60.4391390601398	0
4.7	60.6212447335265	0	1	0	1	0	60.6212447335265	0
4.71	60.8038878002928	0	1	0	1	0	60.8038878002928	0
4.72	60.9870676275455	0	1	0	1	0	60.9870676275455	0
4.73	61.1707835877434	0	1	0	1	0	61.1707835877434	0
4.74	61.3550350586412	0	1	0	1	0	61.3550350586412	0
4.75	61.5398214232335	0	1	0	1	0	61.5398214232335	0
4.76	61.7251420696998	0	1	0	1	0	61.7251420696998	0
4.77	61.9109963913502	0	1	0	1	0	61.9109963913502	0
4.78	62.0973837865716	0	1	0	1	0	62.0973837865716	0
4.79	62.284303658775	0	1	0	1	0	62.284303658775	0
4.8	62.4717554163428	0	1	0	1	0	62.4717554163428	0
4.81	62.6597384725773	0	1	0	1	0	62.6597384725773	0
4.82	62.8482522456498	0	1	0	1	0	62.8482522456498	0
4.83	63.03729615855	0	1	0	1	0	63.03729615855	0
4.84	63.2268696390362	0	1	0	1	0	63.2268696390362	0
4.85	63.4169721195863	0	1	0	1	0	63.4169721195863	0
4.86	63.6076030373491	0	1	0	1	0	63.6076030373491	0
4.87	63.7987618340966	0	1	0	1	0	63.7987618340966	0
4.88	63.9904479561761	0	1	0	1	0	63.9904479561761	0
4.89	64.1826608544641	0	1	0	1	0	64.1826608544641	0
4.9	64.3753999843194	0	1	0	1	0	64.3753999843194	0
4.91	64.5686648055382	0	1	0	1	0	64.5686648055382	0
4.92	64.7624547823082	0	1	0	1	0	64.7624547823082	0
4.93	64.9567693831648	0	1	0	1	0	64.9567693831648	0
