# GHZ S RI R 50
1	46.759589042036	0	1	0	1	0	46.759589042036	0
1.01	46.3856913242432	0	1	0	1	0	46.3856913242432	0
1.02	46.0203243358892	0	1	0	1	0	46.0203243358892	0
1.03	45.663251369096	0	1	0	1	0	45.663251369096	0
1.04	45.3142448201352	0	1	0	1	0	45.3142448201352	0
1.05	44.9730857558961	0	1	0	1	0	44.9730857558961	0
1.06	44.6395635048953	0	1	0	1	0	44.6395635048953	0
1.07	44.3134752712186	0	1	0	1	0	44.3134752712186	0
1.08	43.9946257699116	0	1	0	1	0	43.9946257699116	0
1.09	43.6828268824403	0	1	0	1	0	43.6828268824403	0
1.1	43.3778973309448	0	1	0	1	0	43.3778973309448	0
1.11	43.0796623701004	0	1	0	1	0	43.0796623701004	0
1.12	42.787953495487	0	1	0	1	0	42.787953495487	0
1.13	42.5026081674429	0	1	0	1	0	42.5026081674429	0
1.14	42.2234695494521	0	1	0	1	0	42.2234695494521	0
1.15	41.950386260182	0	1	0	1	0	41.950386260182	0
1.16	41.6832121383458	0	1	0	1	0	41.6832121383458	0
1.17	41.421806019624	0	1	0	1	0	41.421806019624	0
1.18	41.166031524928	0	1	0	1	0	41.166031524928	0
1.19	40.9157568593404	0	1	0	1	0	40.9157568593404	0
1.2	40.6708546211077	0	1	0	1	0	40.6708546211077	0
1.21	40.4312016201045	0	1	0	1	0	40.4312016201045	0
1.22	40.1966787052262	0	1	0	1	0	40.1966787052262	0
1.23	39.9671706002004	0	1	0	1	0	39.9671706002004	0
1.24	39.7425657473446	0	1	0	1	0	39.7425657473446	0
1.25	39.5227561588219	0	1	0	1	0	39.5227561588219	0
1.26	39.3076372749807	0	1	0	1	0	39.3076372749807	0
1.27	39.0971078293868	0	1	0	1	0	39.0971078293868	0
1.28	38.8910697201821	0	1	0	1	0	38.8910697201821	0
1.29	38.6894278874266	0	1	0	1	0	38.6894278874266	0
1.3	38.4920901961015	0	1	0	1	0	38.4920901961015	0
1.31	38.298967324471	0	1	0	1	0	38.298967324471	0
1.32	38.1099726575184	0	1	0	1	0	38.1099726575184	0
1.33	37.9250221851904	0	1	0	1	0	37.9250221851904	0
1.34	37.7440344051959	0	1	0	1	0	37.7440344051959	0
1.35	37.5669302301269	0	1	0	1	0	37.5669302301269	0
1.36	37.3936328986754	0	1	0	1	0	37.3936328986754	0
1.37	37.2240678907397	0	1	0	1	0	37.2240678907397	0
1.38	37.0581628462209	0	1	0	1	0	37.0581628462209	0
1.39	36.8958474873251	0	1	0	1	0	36.8958474873251	0
1.4	36.7370535441954	0	1	0	1	0	36.7370535441954	0
1.41	36.5817146837084	0	1	0	1	0	36.5817146837084	0
1.42	36.4297664412795	0	1	0	1	0	36.4297664412795	0
1.43	36.281146155529	0	1	0	1	0	36.281146155529	0
1.44	36.1357929056715	0	1	0	1	0	36.1357929056715	0
1.45	35.9936474514945	0	1	0	1	0	35.9936474514945	0
1.46	35.8546521758055	0	1	0	1	0	35.8546521758055	0
1.47	35.7187510292264	0	1	0	1	0	35.7187510292264	0
1.48	35.5858894772272	0	1	0	1	0	35.5858894772272	0
1.49	35.4560144492924	0	1	0	1	0	35.4560144492924	0
1.5	35.32907429012	0	1	0	1	0	35.32907429012	0
1.51	35.2050187127604	0	1	0	1	0	35.2050187127604	0
1.52	35.0837987536049	0	1	0	1	0	35.0837987536049	0
1.53	34.9653667291389	0	1	0	1	0	34.9653667291389	0
1.54	34.849676194381	0	1	0	1	0	34.849676194381	0
1.55	34.7366819029295	0	1	0	1	0	34.7366819029295	0
1.56	34.6263397685474	0	1	0	1	0	34.6263397685474	0
1.57	34.5186068282135	0	1	0	1	0	34.5186068282135	0
1.58	34.4134412065782	0	1	0	1	0	34.4134412065782	0
1.59	34.3108020817597	0	1	0	1	0	34.3108020817597	0
1.6	34.2106496524235	0	1	0	1	0	34.2106496524235	0
1.61	34.1129451060878	0	1	0	1	0	34.1129451060878	0
1.62	34.0176505886038	0	1	0	1	0	34.0176505886038	0
1.63	33.9247291747592	0	1	0	1	0	33.9247291747592	0
1.64	33.834144839956	0	1	0	1	0	33.834144839956	0
1.65	33.7458624329203	0	1	0	1	0	33.7458624329203	0
1.66	33.6598476493967	0	1	0	1	0	33.6598476493967	0
1.67	33.5760670067885	0	1	0	1	0	33.5760670067885	0
1.68	33.4944878197039	0	1	0	1	0	33.4944878197039	0
1.69	33.4150781763696	0	1	0	1	0	33.4150781763696	0
1.7	33.3378069158777	0	1	0	1	0	33.3378069158777	0
1.71	33.2626436062304	0	1	0	1	0	33.2626436062304	0
1.72	33.1895585231507	0	1	0	1	0	33.1895585231507	0
1.73	33.1185226296284	0	1	0	1	0	33.1185226296284	0
1.74	33.0495075561704	0	1	0	1	0	33.0495075561704	0
1.75	32.9824855817293	0	1	0	1	0	32.9824855817293	0
1.76	32.9174296152817	0	1	0	1	0	32.9174296152817	0
1.77	32.8543131780304	0	1	0	1	0	32.8543131780304	0
1.78	32.7931103862075	0	1	0	1	0	32.7931103862075	0
1.79	32.7337959344535	0	1	0	1	0	32.7337959344535	0
1.8	32.6763450797498	0	1	0	1	0	32.6763450797498	0
1.81	32.6207336258852	0	1	0	1	0	32.6207336258852	0
1.82	32.5669379084333	0	1	0	1	0	32.5669379084333	0
1.83	32.5149347802228	0	1	0	1	0	32.5149347802228	0
1.84	32.4647015972818	0	1	0	1	0	32.4647015972818	0
1.85	32.416216205238	0	1	0	1	0	32.416216205238	0
1.86	32.3694569261569	0	1	0	1	0	32.3694569261569	0
1.87	32.3244025458033	0	1	0	1	0	32.3244025458033	0
1.88	32.2810323013087	0	1	0	1	0	32.2810323013087	0
1.89	32.2393258692304	0	1	0	1	0	32.2393258692304	0
1.9	32.1992633539876	0	1	0	1	0	32.1992633539876	0
1.91	32.1608252766609	0	1	0	1	0	32.1608252766609	0
1.92	32.1239925641419	0	1	0	1	0	32.1239925641419	0
1.93	32.0887465386193	0	1	0	1	0	32.0887465386193	0
1.94	32.0550689073919	0	1	0	1	0	32.0550689073919	0
1.95	32.022941752993	0	1	0	1	0	32.022941752993	0
1.96	31.9923475236186	0	1	0	1	0	31.9923475236186	0
1.97	31.9632690238466	0	1	0	1	0	31.9632690238466	0
1.98	31.935689405637	0	1	0	1	0	31.935689405637	0
1.99	31.9095921596039	0	1	0	1	0	31.9095921596039	0
2	31.8849611065492	0	1	0	1	0	31.8849611065492	0
2.01	31.8617803892489	0	1	0	1	0	31.8617803892489	0
2.02	31.8400344644834	0	1	0	1	0	31.8400344644834	0
2.03	31.8197080953035	0	1	0	1	0	31.8197080953035	0
2.04	31.8007863435234	0	1	0	1	0	31.8007863435234	0
2.05	31.7832545624345	0	1	0	1	0	31.7832545624345	0
2.06	31.7670983897302	0	1	0	1	0	31.7670983897302	0
2.07	31.7523037406362	0	1	0	1	0	31.7523037406362	0
2.08	31.7388568012395	0	1	0	1	0	31.7388568012395	0
2.09	31.726744022008	0	1	0	1	0	31.726744022008	0
2.1	31.7159521114961	0	1	0	1	0	31.7159521114961	0
2.11	31.7064680302286	0	1	0	1	0	31.7064680302286	0
2.12	31.6982789847581	0	1	0	1	0	31.6982789847581	0
2.13	31.69137242189	0	1	0	1	0	31.69137242189	0
2.14	31.6857360230686	0	1	0	1	0	31.6857360230686	0
2.15	31.6813576989207	0	1	0	1	0	31.6813576989207	0
2.16	31.6782255839504	0	1	0	1	0	31.6782255839504	0
2.17	31.6763280313805	0	1	0	1	0	31.6763280313805	0
2.18	31.6756536081363	0	1	0	1	0	31.6756536081363	0
2.19	31.6761910899664	0	1	0	1	0	31.6761910899664	0
2.2	31.6779294566966	0	1	0	1	0	31.6779294566966	0
2.21	31.6808578876127	0	1	0	1	0	31.6808578876127	0
2.22	31.6849657569687	0	1	0	1	0	31.6849657569687	0
2.23	31.6902426296147	0	1	0	1	0	31.6902426296147	0
2.24	31.6966782567428	0	1	0	1	0	31.6966782567428	0
2.25	31.7042625717461	0	1	0	1	0	31.7042625717461	0
2.26	31.7129856861878	0	1	0	1	0	31.7129856861878	0
2.27	31.7228378858767	0	1	0	1	0	31.7228378858767	0
2.28	31.7338096270459	0	1	0	1	0	31.7338096270459	0
2.29	31.7458915326319	0	1	0	1	0	31.7458915326319	0
2.3	31.7590743886507	0	1	0	1	0	31.7590743886507	0
2.31	31.7733491406675	0	1	0	1	0	31.7733491406675	0
2.32	31.7887068903588	0	1	0	1	0	31.7887068903588	0
2.33	31.8051388921618	0	1	0	1	0	31.8051388921618	0
2.34	31.8226365500105	0	1	0	1	0	31.8226365500105	0
2.35	31.841191414155	0	1	0	1	0	31.841191414155	0
2.36	31.8607951780615	0	1	0	1	0	31.8607951780615	0
2.37	31.8814396753907	0	1	0	1	0	31.8814396753907	0
2.38	31.903116877053	0	1	0	1	0	31.903116877053	0
2.39	31.9258188883366	0	1	0	1	0	31.9258188883366	0
2.4	31.9495379461084	0	1	0	1	0	31.9495379461084	0
2.41	31.9742664160838	0	1	0	1	0	31.9742664160838	0
2.42	31.9999967901649	0	1	0	1	0	31.9999967901649	0
2.43	32.0267216838438	0	1	0	1	0	32.0267216838438	0
2.44	32.0544338336702	0	1	0	1	0	32.0544338336702	0
2.45	32.0831260947805	0	1	0	1	0	32.0831260947805	0
2.46	32.1127914384881	0	1	0	1	0	32.1127914384881	0
2.47	32.1434229499311	0	1	0	1	0	32.1434229499311	0
2.48	32.1750138257775	0	1	0	1	0	32.1750138257775	0
2.49	32.2075573719859	0	1	0	1	0	32.2075573719859	0
2.5	32.2410470016197	0	1	0	1	0	32.2410470016197	0
2.51	32.2754762327132	0	1	0	1	0	32.2754762327132	0
2.52	32.3108386861891	0	1	0	1	0	32.3108386861891	0
2.53	32.347128083825	0	1	0	1	0	32.347128083825	0
2.54	32.3843382462685	0	1	0	1	0	32.3843382462685	0
2.55	32.4224630910977	0	1	0	1	0	32.4224630910977	0
2.56	32.4614966309288	0	1	0	1	0	32.4614966309288	0
2.57	32.501432971567	0	1	0	1	0	32.501432971567	0
2.58	32.5422663102002	0	1	0	1	0	32.5422663102002	0
2.59	32.5839909336349	0	1	0	1	0	32.5839909336349	0
2.6	32.6266012165731	0	1	0	1	0	32.6266012165731	0
2.61	32.6700916199281	0	1	0	1	0	32.6700916199281	0
2.62	32.7144566891796	0	1	0	1	0	32.7144566891796	0
2.63	32.7596910527657	0	1	0	1	0	32.7596910527657	0
2.64	32.8057894205116	0	1	0	1	0	32.8057894205116	0
2.65	32.8527465820945	0	1	0	1	0	32.8527465820945	0
2.66	32.9005574055421	0	1	0	1	0	32.9005574055421	0
2.67	32.9492168357658	0	1	0	1	0	32.9492168357658	0
2.68	32.9987198931258	0	1	0	1	0	32.9987198931258	0
2.69	33.0490616720293	0	1	0	1	0	33.0490616720293	0
2.7	33.1002373395587	0	1	0	1	0	33.1002373395587	0
2.71	33.152242134131	0	1	0	1	0	33.152242134131	0
2.72	33.2050713641867	0	1	0	1	0	33.2050713641867	0
2.73	33.2587204069068	0	1	0	1	0	33.2587204069068	0
2.74	33.3131847069589	0	1	0	1	0	33.3131847069589	0
2.75	33.36845977527	0	1	0	1	0	33.36845977527	0
2.76	33.424541187826	0	1	0	1	0	33.424541187826	0
2.77	33.4814245844975	0	1	0	1	0	33.4814245844975	0
2.78	33.5391056678909	0	1	0	1	0	33.5391056678909	0
2.79	33.5975802022238	0	1	0	1	0	33.5975802022238	0
2.8	33.6568440122252	0	1	0	1	0	33.6568440122252	0
2.81	33.7168929820584	0	1	0	1	0	33.7168929820584	0
2.82	33.7777230542673	0	1	0	1	0	33.7777230542673	0
2.83	33.8393302287452	0	1	0	1	0	33.8393302287452	0
2.84	33.9017105617248	0	1	0	1	0	33.9017105617248	0
2.85	33.9648601647899	0	1	0	1	0	33.9648601647899	0
2.86	34.0287752039079	0	1	0	1	0	34.0287752039079	0
2.87	34.093451898482	0	1	0	1	0	34.093451898482	0
2.88	34.1588865204238	0	1	0	1	0	34.1588865204238	0
2.89	34.2250753932448	0	1	0	1	0	34.2250753932448	0
2.9	34.2920148911664	0	1	0	1	0	34.2920148911664	0
2.91	34.3597014382493	0	1	0	1	0	34.3597014382493	0
2.92	34.4281315075394	0	1	0	1	0	34.4281315075394	0
2.93	34.4973016202321	0	1	0	1	0	34.4973016202321	0
2.94	34.5672083448536	0	1	0	1	0	34.5672083448536	0
2.95	34.6378482964586	0	1	0	1	0	34.6378482964586	0
2.96	34.7092181358443	0	1	0	1	0	34.7092181358443	0
2.97	34.78131456878	0	1	0	1	0	34.78131456878	0
2.98	34.8541343452534	0	1	0	1	0	34.8541343452534	0
2.99	34.9276742587303	0	1	0	1	0	34.9276742587303	0
3	35.0019311454302	0	1	0	1	0	35.0019311454302	0
3.01	35.0769018836164	0	1	0	1	0	35.0769018836164	0
3.02	35.1525833928997	0	1	0	1	0	35.1525833928997	0
3.03	35.228972633556	0	1	0	1	0	35.228972633556	0
3.04	35.3060666058576	0	1	0	1	0	35.3060666058576	0
3.05	35.3838623494176	0	1	0	1	0	35.3838623494176	0
3.06	35.4623569425467	0	1	0	1	0	35.4623569425467	0
3.07	35.5415475016235	0	1	0	1	0	35.5415475016235	0
3.08	35.6214311804762	0	1	0	1	0	35.6214311804762	0
3.09	35.7020051697764	0	1	0	1	0	35.7020051697764	0
3.1	35.7832666964453	0	1	0	1	0	35.7832666964453	0
3.11	35.8652130230707	0	1	0	1	0	35.8652130230707	0
3.12	35.9478414473354	0	1	0	1	0	35.9478414473354	0
3.13	36.0311493014566	0	1	0	1	0	36.0311493014566	0
3.14	36.115133951636	0	1	0	1	0	36.115133951636	0
3.15	36.1997927975204	0	1	0	1	0	36.1997927975204	0
3.16	36.2851232716723	0	1	0	1	0	36.2851232716723	0
3.17	36.3711228390511	0	1	0	1	0	36.3711228390511	0
3.18	36.4577889965034	0	1	0	1	0	36.4577889965034	0
3.19	36.5451192722633	0	1	0	1	0	36.5451192722633	0
3.2	36.6331112254619	0	1	0	1	0	36.6331112254619	0
3.21	36.7217624456464	0	1	0	1	0	36.7217624456464	0
3.22	36.8110705523072	0	1	0	1	0	36.8110705523072	0
3.23	36.9010331944147	0	1	0	1	0	36.9010331944147	0
3.24	36.9916480499646	0	1	0	1	0	36.9916480499646	0
3.25	37.082912825531	0	1	0	1	0	37.082912825531	0
3.26	37.1748252558281	0	1	0	1	0	37.1748252558281	0
3.27	37.2673831032801	0	1	0	1	0	37.2673831032801	0
3.28	37.3605841575987	0	1	0	1	0	37.3605841575987	0
3.29	37.4544262353684	0	1	0	1	0	37.4544262353684	0
3.3	37.5489071796394	0	1	0	1	0	37.5489071796394	0
3.31	37.6440248595277	0	1	0	1	0	37.6440248595277	0
3.32	37.7397771698226	0	1	0	1	0	37.7397771698226	0
3.33	37.8361620306011	0	1	0	1	0	37.8361620306011	0
3.34	37.9331773868498	0	1	0	1	0	37.9331773868498	0
3.35	38.0308212080924	0	1	0	1	0	38.0308212080924	0
3.36	38.1290914880251	0	1	0	1	0	38.1290914880251	0
3.37	38.2279862441579	0	1	0	1	0	38.2279862441579	0
3.38	38.327503517462	0	1	0	1	0	38.327503517462	0
3.39	38.4276413720242	0	1	0	1	0	38.4276413720242	0
3.4	38.5283978947065	0	1	0	1	0	38.5283978947065	0
3.41	38.6297711948127	0	1	0	1	0	38.6297711948127	0
3.42	38.7317594037597	0	1	0	1	0	38.7317594037597	0
3.43	38.8343606747557	0	1	0	1	0	38.8343606747557	0
3.44	38.9375731824831	0	1	0	1	0	38.9375731824831	0
3.45	39.0413951227874	0	1	0	1	0	39.0413951227874	0
3.46	39.1458247123714	0	1	0	1	0	39.1458247123714	0
3.47	39.2508601884948	0	1	0	1	0	39.2508601884948	0
3.48	39.3564998086784	0	1	0	1	0	39.3564998086784	0
3.49	39.4627418504142	0	1	0	1	0	39.4627418504142	0
3.5	39.5695846108801	0	1	0	1	0	39.5695846108801	0
3.51	39.6770264066594	0	1	0	1	0	39.6770264066594	0
3.52	39.785065573465	0	1	0	1	0	39.785065573465	0
3.53	39.8937004658686	0	1	0	1	0	39.8937004658686	0
3.54	40.0029294570344	0	1	0	1	0	40.0029294570344	0
3.55	40.1127509384571	0	1	0	1	0	40.1127509384571	0
3.56	40.2231633197044	0	1	0	1	0	40.2231633197044	0
3.57	40.3341650281641	0	1	0	1	0	40.3341650281641	0
3.58	40.4457545087952	0	1	0	1	0	40.4457545087952	0
3.59	40.5579302238826	0	1	0	1	0	40.5579302238826	0
3.6	40.6706906527975	0	1	0	1	0	40.6706906527975	0
3.61	40.7840342917598	0	1	0	1	0	40.7840342917598	0
3.62	40.8979596536058	0	1	0	1	0	40.8979596536058	0
3.63	41.0124652675594	0	1	0	1	0	41.0124652675594	0
3.64	41.1275496790067	0	1	0	1	0	41.1275496790067	0
3.65	41.2432114492751	0	1	0	1	0	41.2432114492751	0
3.66	41.3594491554148	0	1	0	1	0	41.3594491554148	0
3.67	41.4762613899852	0	1	0	1	0	41.4762613899852	0
3.68	41.593646760844	0	1	0	1	0	41.593646760844	0
3.69	41.7116038909397	0	1	0	1	0	41.7116038909397	0
3.7	41.8301314181081	0	1	0	1	0	41.8301314181081	0
3.71	41.9492279948711	0	1	0	1	0	41.9492279948711	0
3.72	42.0688922882399	0	1	0	1	0	42.0688922882399	0
3.73	42.1891229795203	0	1	0	1	0	42.1891229795203	0
3.74	42.3099187641219	0	1	0	1	0	42.3099187641219	0
3.75	42.4312783513698	0	1	0	1	0	42.4312783513698	0
3.76	42.5532004643198	0	1	0	1	0	42.5532004643198	0
3.77	42.6756838395761	0	1	0	1	0	42.6756838395761	0
3.78	42.7987272271122	0	1	0	1	0	42.7987272271122	0
3.79	42.9223293900945	0	1	0	1	0	42.9223293900945	0
3.8	43.0464891047087	0	1	0	1	0	43.0464891047087	0
3.81	43.171205159989	0	1	0	1	0	43.171205159989	0
3.82	43.2964763576497	0	1	0	1	0	43.2964763576497	0
3.83	43.42230151192	0	1	0	1	0	43.42230151192	0
3.84	43.5486794493808	0	1	0	1	0	43.5486794493808	0
3.85	43.6756090088044	0	1	0	1	0	43.6756090088044	0
3.86	43.8030890409966	0	1	0	1	0	43.8030890409966	0
3.87	43.931118408641	0	1	0	1	0	43.931118408641	0
3.88	44.0596959861463	0	1	0	1	0	44.0596959861463	0
3.89	44.1888206594953	0	1	0	1	0	44.1888206594953	0
3.9	44.3184913260966	0	1	0	1	0	44.3184913260966	0
3.91	44.4487068946387	0	1	0	1	0	44.4487068946387	0
3.92	44.5794662849456	0	1	0	1	0	44.5794662849456	0
3.93	44.7107684278358	0	1	0	1	0	44.7107684278358	0
3.94	44.8426122649821	0	1	0	1	0	44.8426122649821	0
3.95	44.9749967487749	0	1	0	1	0	44.9749967487749	0
3.96	45.1079208421862	0	1	0	1	0	45.1079208421862	0
3.97	45.2413835186368	0	1	0	1	0	45.2413835186368	0
3.98	45.375383761865	0	1	0	1	0	45.375383761865	0
3.99	45.5099205657968	0	1	0	1	0	45.5099205657968	0
4	45.6449929344193	0	1	0	1	0	45.6449929344193	0
4.01	45.7805998816548	0	1	0	1	0	45.7805998816548	0
4.02	45.9167404312372	0	1	0	1	0	45.9167404312372	0
4.03	46.0534136165905	0	1	0	1	0	46.0534136165905	0
4.04	46.1906184807088	0	1	0	1	0	46.1906184807088	0
4.05	46.3283540760381	0	1	0	1	0	46.3283540760381	0
4.06	46.4666194643596	0	1	0	1	0	46.4666194643596	0
4.07	46.6054137166758	0	1	0	1	0	46.6054137166758	0
4.08	46.7447359130968	0	1	0	1	0	46.7447359130968	0
4.09	46.884585142729	0	1	0	1	0	46.884585142729	0
4.1	47.0249605035659	0	1	0	1	0	47.0249605035659	0
4.11	47.1658611023793	0	1	0	1	0	47.1658611023793	0
4.12	47.3072860546136	0	1	0	1	0	47.3072860546136	0
4.13	47.4492344842798	0	1	0	1	0	47.4492344842798	0
4.14	47.5917055238529	0	1	0	1	0	47.5917055238529	0
4.15	47.7346983141694	0	1	0	1	0	47.7346983141694	0
4.16	47.8782120043272	0	1	0	1	0	47.8782120043272	0
4.17	48.022245751586	0	1	0	1	0	48.022245751586	0
4.18	48.1667987212704	0	1	0	1	0	48.1667987212704	0
4.19	48.311870086673	0	1	0	1	0	48.311870086673	0
4.2	48.4574590289599	0	1	0	1	0	48.4574590289599	0
4.21	48.6035647370769	0	1	0	1	0	48.6035647370769	0
4.22	48.7501864076579	0	1	0	1	0	48.7501864076579	0
4.23	48.8973232449333	0	1	0	1	0	48.8973232449333	0
4.24	49.0449744606409	0	1	0	1	0	49.0449744606409	0
4.25	49.1931392739373	0	1	0	1	0	49.1931392739373	0
4.26	49.3418169113113	0	1	0	1	0	49.3418169113113	0
4.27	49.4910066064974	0	1	0	1	0	49.4910066064974	0
4.28	49.6407076003915	0	1	0	1	0	49.6407076003915	0
4.29	49.7909191409675	0	1	0	1	0	49.7909191409675	0
4.3	49.9416404831948	0	1	0	1	0	49.9416404831948	0
4.31	50.0928708889573	0	1	0	1	0	50.0928708889573	0
4.32	50.2446096269733	0	1	0	1	0	50.2446096269733	0
4.33	50.3968559727165	0	1	0	1	0	50.3968559727165	0
4.34	50.5496092083384	0	1	0	1	0	50.5496092083384	0
4.35	50.7028686225913	0	1	0	1	0	50.7028686225913	0
4.36	50.8566335107527	0	1	0	1	0	50.8566335107527	0
4.37	51.0109031745508	0	1	0	1	0	51.0109031745508	0
4.38	51.1656769220905	0	1	0	1	0	51.1656769220905	0
4.39	51.3209540677812	0	1	0	1	0	51.3209540677812	0
4.4	51.4767339322647	0	1	0	1	0	51.4767339322647	0
4.41	51.633015842345	0	1	0	1	0	51.633015842345	0
4.42	51.7897991309183	0	1	0	1	0	51.7897991309183	0
4.43	51.9470831369042	0	1	0	1	0	51.9470831369042	0
4.44	52.1048672051782	0	1	0	1	0	52.1048672051782	0
4.45	52.2631506865043	0	1	0	1	0	52.2631506865043	0
4.46	52.4219329374695	0	1	0	1	0	52.4219329374695	0
4.47	52.5812133204181	0	1	0	1	0	52.5812133204181	0
4.48	52.7409912033881	0	1	0	1	0	52.7409912033881	0
4.49	52.9012659600473	0	1	0	1	0	52.9012659600473	0
4.5	53.0620369696308	0	1	0	1	0	53.0620369696308	0
4.51	53.2233036168795	0	1	0	1	0	53.2233036168795	0
4.52	53.385065291979	0	1	0	1	0	53.385065291979	0
4.53	53.5473213904997	0	1	0	1	0	53.5473213904997	0
4.54	53.7100713133373	0	1	0	1	0	53.7100713133373	0
4.55	53.8733144666542	0	1	0	1	0	53.8733144666542	0
4.56	54.037050261822	0	1	0	1	0	54.037050261822	0
4.57	54.2012781153646	0	1	0	1	0	54.2012781153646	0
4.58	54.3659974489015	0	1	0	1	0	54.3659974489015	0
4.59	54.5312076890927	0	1	0	1	0	54.5312076890927	0
4.6	54.6969082675838	0	1	0	1	0	54.6969082675838	0
4.61	54.8630986209516	0	1	0	1	0	54.8630986209516	0
4.62	55.0297781906515	0	1	0	1	0	55.0297781906515	0
4.63	55.1969464229638	0	1	0	1	0	55.1969464229638	0
4.64	55.3646027689428	0	1	0	1	0	55.3646027689428	0
4.65	55.5327466843644	0	1	0	1	0	55.5327466843644	0
4.66	55.7013776296763	0	1	0	1	0	55.7013776296763	0
4.67	55.8704950699474	0	1	0	1	0	55.8704950699474	0
4.68	56.040098474819	0	1	0	1	0	56.040098474819	0
4.69	56.2101873184553	0	1	0	1	0	56.2101873184553	0
4.7	56.380761079496	0	1	0	1	0	56.380761079496	0
4.71	56.5518192410083	0	1	0	1	0	56.5518192410083	0
4.72	56.7233612904404	0	1	0	1	0	56.7233612904404	0
4.73	56.8953867195747	0	1	0	1	0	56.8953867195747	0
4.74	57.0678950244825	0	1	0	1	0	57.0678950244825	0
4.75	57.2408857054788	0	1	0	1	0	57.2408857054788	0
4.76	57.4143582670775	0	1	0	1	0	57.4143582670775	0
4.77	57.5883122179476	0	1	0	1	0	57.5883122179476	0
4.78	57.7627470708696	0	1	0	1	0	57.7627470708696	0
4.79	57.9376623426926	0	1	0	1	0	57.9376623426926	0
4.8	58.1130575542921	0	1	0	1	0	58.1130575542921	0
4.81	58.2889322305279	0	1	0	1	0	58.2889322305279	0
4.82	58.4652859002028	0	1	0	1	0	58.4652859002028	0
4.83	58.6421180960221	0	1	0	1	0	58.6421180960221	0
4.84	58.8194283545527	0	1	0	1	0	58.8194283545527	0
4.85	58.997216216184	0	1	0	1	0	58.997216216184	0
4.86	59.1754812250879	0	1	0	1	0	59.1754812250879	0
4.87	59.3542229291805	0	1	0	1	0	59.3542229291805	0
4.88	59.5334408800832	0	1	0	1	0	59.5334408800832	0
4.89	59.7131346330855	0	1	0	1	0	59.7131346330855	0
4.9	59.8933037471069	0	1	0	1	0	59.8933037471069	0
4.91	60.0739477846604	0	1	0	1	0	60.0739477846604	0
4.92	60.2550663118156	0	1	0	1	0	60.2550663118156	0
4.93	60.4366588981631	0	1	0	1	0	60.4366588981631	0
