# GHZ S RI R 50
1	56.905068903864	0	1	0	1	0	56.905068903864	0
1.01	56.4278333260468	0	1	0	1	0	56.4278333260468	0
1.02	55.9610212881653	0	1	0	1	0	55.9610212881653	0
1.03	55.5043396437537	0	1	0	1	0	55.5043396437537	0
1.04	55.0575065212104	0	1	0	1	0	55.0575065212104	0
1.05	54.6202507868995	0	1	0	1	0	54.6202507868995	0
1.06	54.1923115386431	0	1	0	1	0	54.1923115386431	0
1.07	53.7734376276158	0	1	0	1	0	53.7734376276158	0
1.08	53.3633872068004	0	1	0	1	0	53.3633872068004	0
1.09	52.9619273042997	0	1	0	1	0	52.9619273042997	0
1.1	52.5688334199219	0	1	0	1	0	52.5688334199219	0
1.11	52.1838891435722	0	1	0	1	0	52.1838891435722	0
1.12	51.8068857940876	0	1	0	1	0	51.8068857940876	0
1.13	51.437622077249	0	1	0	1	0	51.437622077249	0
1.14	51.0759037617924	0	1	0	1	0	51.0759037617924	0
1.15	50.7215433723239	0	1	0	1	0	50.7215433723239	0
1.16	50.3743598981182	0	1	0	1	0	50.3743598981182	0
1.17	50.034178516851	0	1	0	1	0	50.034178516851	0
1.18	49.7008303323785	0	1	0	1	0	49.7008303323785	0
1.19	49.374152125738	0	1	0	1	0	49.374152125738	0
1.2	49.0539861185991	0	1	0	1	0	49.0539861185991	0
1.21	48.7401797484439	0	1	0	1	0	48.7401797484439	0
1.22	48.4325854548043	0	1	0	1	0	48.4325854548043	0
1.23	48.1310604759266	0	1	0	1	0	48.1310604759266	0
1.24	47.8354666552749	0	1	0	1	0	47.8354666552749	0
1.25	47.5456702573224	0	1	0	1	0	47.5456702573224	0
1.26	47.2615417921148	0	1	0	1	0	47.2615417921148	0
1.27	46.9829558481215	0	1	0	1	0	46.9829558481215	0
1.28	46.709790932922	0	1	0	1	0	46.709790932922	0
1.29	46.4419293213028	0	1	0	1	0	46.4419293213028	0
1.3	46.1792569103648	0	1	0	1	0	46.1792569103648	0
1.31	45.9216630812666	0	1	0	1	0	45.9216630812666	0
1.32	45.6690405672531	0	1	0	1	0	45.6690405672531	0
1.33	45.4212853276371	0	1	0	1	0	45.4212853276371	0
1.34	45.1782964274232	0	1	0	1	0	45.1782964274232	0
1.35	44.939975922283	0	1	0	1	0	44.939975922283	0
1.36	44.7062287486032	0	1	0	1	0	44.7062287486032	0
1.37	44.4769626183507	0	1	0	1	0	44.4769626183507	0
1.38	44.2520879185078	0	1	0	1	0	44.2520879185078	0
1.39	44.0315176148488	0	1	0	1	0	44.0315176148488	0
1.4	43.8151671598399	0	1	0	1	0	43.8151671598399	0
1.41	43.6029544044591	0	1	0	1	0	43.6029544044591	0
1.42	43.3947995137412	0	1	0	1	0	43.3947995137412	0
1.43	43.1906248858672	0	1	0	1	0	43.1906248858672	0
1.44	42.9903550746237	0	1	0	1	0	42.9903550746237	0
1.45	42.7939167150726	0	1	0	1	0	42.7939167150726	0
1.46	42.6012384522738	0	1	0	1	0	42.6012384522738	0
1.47	42.4122508729184	0	1	0	1	0	42.4122508729184	0
1.48	42.2268864397328	0	1	0	1	0	42.2268864397328	0
1.49	42.0450794285246	0	1	0	1	0	42.0450794285246	0
1.5	41.8667658677465	0	1	0	1	0	41.8667658677465	0
1.51	41.6918834804617	0	1	0	1	0	41.6918834804617	0
1.52	41.5203716286002	0	1	0	1	0	41.5203716286002	0
1.53	41.3521712594012	0	1	0	1	0	41.3521712594012	0
1.54	41.1872248539414	0	1	0	1	0	41.1872248539414	0
1.55	41.0254763776572	0	1	0	1	0	41.0254763776572	0
1.56	40.8668712327686	0	1	0	1	0	40.8668712327686	0
1.57	40.7113562125217	0	1	0	1	0	40.7113562125217	0
1.58	40.5588794571691	0	1	0	1	0	40.5588794571691	0
1.59	40.4093904116113	0	1	0	1	0	40.4093904116113	0
1.6	40.262839784626	0	1	0	1	0	40.262839784626	0
1.61	40.1191795096178	0	1	0	1	0	40.1191795096178	0
1.62	39.9783627068206	0	1	0	1	0	39.9783627068206	0
1.63	39.8403436468922	0	1	0	1	0	39.8403436468922	0
1.64	39.7050777158401	0	1	0	1	0	39.7050777158401	0
1.65	39.5725213812231	0	1	0	1	0	39.5725213812231	0
1.66	39.4426321595746	0	1	0	1	0	39.4426321595746	0
1.67	39.3153685849959	0	1	0	1	0	39.3153685849959	0
1.68	39.1906901788718	0	1	0	1	0	39.1906901788718	0
1.69	39.0685574206608	0	1	0	1	0	39.0685574206608	0
1.7	38.9489317197162	0	1	0	1	0	38.9489317197162	0
1.71	38.8317753880969	0	1	0	1	0	38.8317753880969	0
1.72	38.7170516143254	0	1	0	1	0	38.7170516143254	0
1.73	38.6047244380565	0	1	0	1	0	38.6047244380565	0
1.74	38.4947587256196	0	1	0	1	0	38.4947587256196	0
1.75	38.3871201463997	0	1	0	1	0	38.3871201463997	0
1.76	38.2817751500228	0	1	0	1	0	38.2817751500228	0
1.77	38.1786909443155	0	1	0	1	0	38.1786909443155	0
1.78	38.0778354740072	0	1	0	1	0	38.0778354740072	0
1.79	37.9791774001462	0	1	0	1	0	37.9791774001462	0
1.8	37.8826860802019	0	1	0	1	0	37.8826860802019	0
1.81	37.7883315488267	0	1	0	1	0	37.7883315488267	0
1.82	37.6960844992522	0	1	0	1	0	37.6960844992522	0
1.83	37.6059162652949	0	1	0	1	0	37.6059162652949	0
1.84	37.5177988039493	0	1	0	1	0	37.5177988039493	0
1.85	37.4317046785452	0	1	0	1	0	37.4317046785452	0
1.86	37.3476070424483	0	1	0	1	0	37.3476070424483	0
1.87	37.2654796232838	0	1	0	1	0	37.2654796232838	0
1.88	37.1852967076636	0	1	0	1	0	37.1852967076636	0
1.89	37.1070331263983	0	1	0	1	0	37.1070331263983	0
1.9	37.0306642401762	0	1	0	1	0	37.0306642401762	0
1.91	36.9561659256922	0	1	0	1	0	36.9561659256922	0
1.92	36.8835145622099	0	1	0	1	0	36.8835145622099	0
1.93	36.812687018542	0	1	0	1	0	36.812687018542	0
1.94	36.7436606404326	0	1	0	1	0	36.7436606404326	0
1.95	36.6764132383289	0	1	0	1	0	36.6764132383289	0
1.96	36.6109230755259	0	1	0	1	0	36.6109230755259	0
1.97	36.5471688566729	0	1	0	1	0	36.5471688566729	0
1.98	36.4851297166286	0	1	0	1	0	36.4851297166286	0
1.99	36.4247852096512	0	1	0	1	0	36.4247852096512	0
2	36.366115298914	0	1	0	1	0	36.366115298914	0
2.01	36.3091003463329	0	1	0	1	0	36.3091003463329	0
2.02	36.253721102697	0	1	0	1	0	36.253721102697	0
2.03	36.19995869809	0	1	0	1	0	36.19995869809	0
2.04	36.1477946325941	0	1	0	1	0	36.1477946325941	0
2.05	36.0972107672653	0	1	0	1	0	36.0972107672653	0
2.06	36.0481893153723	0	1	0	1	0	36.0481893153723	0
2.07	36.0007128338886	0	1	0	1	0	36.0007128338886	0
2.08	35.9547642152308	0	1	0	1	0	35.9547642152308	0
2.09	35.910326679233	0	1	0	1	0	35.910326679233	0
2.1	35.8673837653517	0	1	0	1	0	35.8673837653517	0
2.11	35.8259193250916	0	1	0	1	0	35.8259193250916	0
2.12	35.785917514646	0	1	0	1	0	35.785917514646	0
2.13	35.7473627877445	0	1	0	1	0	35.7473627877445	0
2.14	35.7102398887011	0	1	0	1	0	35.7102398887011	0
2.15	35.6745338456565	0	1	0	1	0	35.6745338456565	0
2.16	35.6402299640083	0	1	0	1	0	35.6402299640083	0
2.17	35.607313820022	0	1	0	1	0	35.607313820022	0
2.18	35.5757712546191	0	1	0	1	0	35.5757712546191	0
2.19	35.5455883673341	0	1	0	1	0	35.5455883673341	0
2.2	35.5167515104375	0	1	0	1	0	35.5167515104375	0
2.21	35.4892472832173	0	1	0	1	0	35.4892472832173	0
2.22	35.463062526416	0	1	0	1	0	35.463062526416	0
2.23	35.4381843168165	0	1	0	1	0	35.4381843168165	0
2.24	35.4145999619734	0	1	0	1	0	35.4145999619734	0
2.25	35.3922969950847	0	1	0	1	0	35.3922969950847	0
2.26	35.3712631699999	0	1	0	1	0	35.3712631699999	0
2.27	35.3514864563597	0	1	0	1	0	35.3514864563597	0
2.28	35.3329550348637	0	1	0	1	0	35.3329550348637	0
2.29	35.315657292662	0	1	0	1	0	35.315657292662	0
2.3	35.2995818188676	0	1	0	1	0	35.2995818188676	0
2.31	35.2847174001844	0	1	0	1	0	35.2847174001844	0
2.32	35.2710530166492	0	1	0	1	0	35.2710530166492	0
2.33	35.2585778374824	0	1	0	1	0	35.2585778374824	0
2.34	35.2472812170462	0	1	0	1	0	35.2472812170462	0
2.35	35.237152690905	0	1	0	1	0	35.237152690905	0
2.36	35.2281819719867	0	1	0	1	0	35.2281819719867	0
2.37	35.2203589468404	0	1	0	1	0	35.2203589468404	0
2.38	35.2136736719894	0	1	0	1	0	35.2136736719894	0
2.39	35.2081163703749	0	1	0	1	0	35.2081163703749	0
2.4	35.2036774278891	0	1	0	1	0	35.2036774278891	0
2.41	35.2003473899944	0	1	0	1	0	35.2003473899944	0
2.42	35.1981169584268	0	1	0	1	0	35.1981169584268	0
2.43	35.1969769879798	0	1	0	1	0	35.1969769879798	0
2.44	35.1969184833685	0	1	0	1	0	35.1969184833685	0
2.45	35.1979325961698	0	1	0	1	0	35.1979325961698	0
2.46	35.2000106218373	0	1	0	1	0	35.2000106218373	0
2.47	35.2031439967891	0	1	0	1	0	35.2031439967891	0
2.48	35.2073242955653	0	1	0	1	0	35.2073242955653	0
2.49	35.2125432280551	0	1	0	1	0	35.2125432280551	0
2.5	35.2187926367892	0	1	0	1	0	35.2187926367892	0
2.51	35.2260644942979	0	1	0	1	0	35.2260644942979	0
2.52	35.2343509005316	0	1	0	1	0	35.2343509005316	0
2.53	35.2436440803429	0	1	0	1	0	35.2436440803429	0
2.54	35.2539363810274	0	1	0	1	0	35.2539363810274	0
2.55	35.2652202699232	0	1	0	1	0	35.2652202699232	0
2.56	35.2774883320662	0	1	0	1	0	35.2774883320662	0
2.57	35.2907332679005	0	1	0	1	0	35.2907332679005	0
2.58	35.3049478910415	0	1	0	1	0	35.3049478910415	0
2.59	35.320125126091	0	1	0	1	0	35.320125126091	0
2.6	35.3362580065034	0	1	0	1	0	35.3362580065034	0
2.61	35.3533396725	0	1	0	1	0	35.3533396725	0
2.62	35.3713633690315	0	1	0	1	0	35.3713633690315	0
2.63	35.390322443787	0	1	0	1	0	35.390322443787	0
2.64	35.4102103452481	0	1	0	1	0	35.4102103452481	0
2.65	35.4310206207875	0	1	0	1	0	35.4310206207875	0
2.66	35.4527469148096	0	1	0	1	0	35.4527469148096	0
2.67	35.475382966934	0	1	0	1	0	35.475382966934	0
2.68	35.4989226102185	0	1	0	1	0	35.4989226102185	0
2.69	35.5233597694228	0	1	0	1	0	35.5233597694228	0
2.7	35.5486884593102	0	1	0	1	0	35.5486884593102	0
2.71	35.574902782987	0	1	0	1	0	35.574902782987	0
2.72	35.6019969302784	0	1	0	1	0	35.6019969302784	0
2.73	35.6299651761405	0	1	0	1	0	35.6299651761405	0
2.74	35.6588018791065	0	1	0	1	0	35.6588018791065	0
2.75	35.6885014797674	0	1	0	1	0	35.6885014797674	0
2.76	35.7190584992855	0	1	0	1	0	35.7190584992855	0
2.77	35.7504675379397	0	1	0	1	0	35.7504675379397	0
2.78	35.7827232737026	0	1	0	1	0	35.7827232737026	0
2.79	35.8158204608487	0	1	0	1	0	35.8158204608487	0
2.8	35.849753928591	0	1	0	1	0	35.849753928591	0
2.81	35.8845185797483	0	1	0	1	0	35.8845185797483	0
2.82	35.9201093894397	0	1	0	1	0	35.9201093894397	0
2.83	35.9565214038073	0	1	0	1	0	35.9565214038073	0
2.84	35.9937497387659	0	1	0	1	0	35.9937497387659	0
2.85	36.0317895787791	0	1	0	1	0	36.0317895787791	0
2.86	36.0706361756603	0	1	0	1	0	36.0706361756603	0
2.87	36.1102848473999	0	1	0	1	0	36.1102848473999	0
2.88	36.1507309770162	0	1	0	1	0	36.1507309770162	0
2.89	36.1919700114302	0	1	0	1	0	36.1919700114302	0
2.9	36.2339974603644	0	1	0	1	0	36.2339974603644	0
2.91	36.2768088952628	0	1	0	1	0	36.2768088952628	0
2.92	36.3203999482349	0	1	0	1	0	36.3203999482349	0
2.93	36.3647663110201	0	1	0	1	0	36.3647663110201	0
2.94	36.4099037339734	0	1	0	1	0	36.4099037339734	0
2.95	36.4558080250722	0	1	0	1	0	36.4558080250722	0
2.96	36.5024750489429	0	1	0	1	0	36.5024750489429	0
2.97	36.5499007259071	0	1	0	1	0	36.5499007259071	0
2.98	36.5980810310473	0	1	0	1	0	36.5980810310473	0
2.99	36.6470119932908	0	1	0	1	0	36.6470119932908	0
3	36.6966896945129	0	1	0	1	0	36.6966896945129	0
3.01	36.7471102686567	0	1	0	1	0	36.7471102686567	0
3.02	36.7982699008714	0	1	0	1	0	36.7982699008714	0
3.03	36.8501648266674	0	1	0	1	0	36.8501648266674	0
3.04	36.9027913310877	0	1	0	1	0	36.9027913310877	0
3.05	36.9561457478963	0	1	0	1	0	36.9561457478963	0
3.06	37.0102244587814	0	1	0	1	0	37.0102244587814	0
3.07	37.0650238925759	0	1	0	1	0	37.0650238925759	0
3.08	37.120540524491	0	1	0	1	0	37.120540524491	0
3.09	37.1767708753665	0	1	0	1	0	37.1767708753665	0
3.1	37.2337115109345	0	1	0	1	0	37.2337115109345	0
3.11	37.2913590410978	0	1	0	1	0	37.2913590410978	0
3.12	37.349710119222	0	1	0	1	0	37.349710119222	0
3.13	37.4087614414411	0	1	0	1	0	37.4087614414411	0
3.14	37.4685097459765	0	1	0	1	0	37.4685097459765	0
3.15	37.5289518124693	0	1	0	1	0	37.5289518124693	0
3.16	37.5900844613244	0	1	0	1	0	37.5900844613244	0
3.17	37.6519045530679	0	1	0	1	0	37.6519045530679	0
3.18	37.7144089877159	0	1	0	1	0	37.7144089877159	0
3.19	37.7775947041561	0	1	0	1	0	37.7775947041561	0
3.2	37.8414586795398	0	1	0	1	0	37.8414586795398	0
3.21	37.9059979286865	0	1	0	1	0	37.9059979286865	0
3.22	37.9712095034984	0	1	0	1	0	37.9712095034984	0
3.23	38.0370904923869	0	1	0	1	0	38.0370904923869	0
3.24	38.1036380197088	0	1	0	1	0	38.1036380197088	0
3.25	38.1708492452133	0	1	0	1	0	38.1708492452133	0
3.26	38.2387213634997	0	1	0	1	0	38.2387213634997	0
3.27	38.3072516034836	0	1	0	1	0	38.3072516034836	0
3.28	38.3764372278749	0	1	0	1	0	38.3764372278749	0
3.29	38.4462755326631	0	1	0	1	0	38.4462755326631	0
3.3	38.5167638466138	0	1	0	1	0	38.5167638466138	0
3.31	38.5878995307736	0	1	0	1	0	38.5878995307736	0
3.32	38.6596799779832	0	1	0	1	0	38.6596799779832	0
3.33	38.7321026124011	0	1	0	1	0	38.7321026124011	0
3.34	38.8051648890337	0	1	0	1	0	38.8051648890337	0
3.35	38.8788642932758	0	1	0	1	0	38.8788642932758	0
3.36	38.9531983404577	0	1	0	1	0	38.9531983404577	0
3.37	39.0281645754015	0	1	0	1	0	39.0281645754015	0
3.38	39.1037605719844	0	1	0	1	0	39.1037605719844	0
3.39	39.1799839327107	0	1	0	1	0	39.1799839327107	0
3.4	39.2568322882905	0	1	0	1	0	39.2568322882905	0
3.41	39.334303297226	0	1	0	1	0	39.334303297226	0
3.42	39.4123946454055	0	1	0	1	0	39.4123946454055	0
3.43	39.4911040457038	0	1	0	1	0	39.4911040457038	0
3.44	39.5704292375905	0	1	0	1	0	39.5704292375905	0
3.45	39.6503679867439	0	1	0	1	0	39.6503679867439	0
3.46	39.7309180846729	0	1	0	1	0	39.7309180846729	0
3.47	39.8120773483444	0	1	0	1	0	39.8120773483444	0
3.48	39.8938436198177	0	1	0	1	0	39.8938436198177	0
3.49	39.9762147658847	0	1	0	1	0	39.9762147658847	0
3.5	40.059188677717	0	1	0	1	0	40.059188677717	0
3.51	40.1427632705186	0	1	0	1	0	40.1427632705186	0
3.52	40.2269364831841	0	1	0	1	0	40.2269364831841	0
3.53	40.3117062779635	0	1	0	1	0	40.3117062779635	0
3.54	40.3970706401321	0	1	0	1	0	40.3970706401321	0
3.55	40.4830275776667	0	1	0	1	0	40.4830275776667	0
3.56	40.5695751209259	0	1	0	1	0	40.5695751209259	0
3.57	40.6567113223374	0	1	0	1	0	40.6567113223374	0
3.58	40.7444342560894	0	1	0	1	0	40.7444342560894	0
3.59	40.8327420178277	0	1	0	1	0	40.8327420178277	0
3.6	40.9216327243575	0	1	0	1	0	40.9216327243575	0
3.61	41.0111045133504	0	1	0	1	0	41.0111045133504	0
3.62	41.1011555430563	0	1	0	1	0	41.1011555430563	0
3.63	41.1917839920199	0	1	0	1	0	41.1917839920199	0
3.64	41.2829880588017	0	1	0	1	0	41.2829880588017	0
3.65	41.3747659617042	0	1	0	1	0	41.3747659617042	0
3.66	41.4671159385019	0	1	0	1	0	41.4671159385019	0
3.67	41.5600362461761	0	1	0	1	0	41.5600362461761	0
3.68	41.6535251606541	0	1	0	1	0	41.6535251606541	0
3.69	41.7475809765521	0	1	0	1	0	41.7475809765521	0
3.7	41.8422020069232	0	1	0	1	0	41.8422020069232	0
3.71	41.9373865830083	0	1	0	1	0	41.9373865830083	0
3.72	42.0331330539921	0	1	0	1	0	42.0331330539921	0
3.73	42.1294397867624	0	1	0	1	0	42.1294397867624	0
3.74	42.2263051656734	0	1	0	1	0	42.2263051656734	0
3.75	42.3237275923129	0	1	0	1	0	42.3237275923129	0
3.76	42.421705485273	0	1	0	1	0	42.421705485273	0
3.77	42.5202372799248	0	1	0	1	0	42.5202372799248	0
3.78	42.6193214281963	0	1	0	1	0	42.6193214281963	0
3.79	42.7189563983538	0	1	0	1	0	42.7189563983538	0
3.8	42.8191406747874	0	1	0	1	0	42.8191406747874	0
3.81	42.9198727577988	0	1	0	1	0	42.9198727577988	0
3.82	43.0211511633936	0	1	0	1	0	43.0211511633936	0
3.83	43.122974423076	0	1	0	1	0	43.122974423076	0
3.84	43.225341083647	0	1	0	1	0	43.225341083647	0
3.85	43.3282497070056	0	1	0	1	0	43.3282497070056	0
3.86	43.4316988699536	0	1	0	1	0	43.4316988699536	0
3.87	43.535687164003	0	1	0	1	0	43.535687164003	0
3.88	43.6402131951858	0	1	0	1	0	43.6402131951858	0
3.89	43.7452755838684	0	1	0	1	0	43.7452755838684	0
3.9	43.850872964567	0	1	0	1	0	43.850872964567	0
3.91	43.957003985767	0	1	0	1	0	43.957003985767	0
3.92	44.0636673097447	0	1	0	1	0	44.0636673097447	0
3.93	44.170861612392	0	1	0	1	0	44.170861612392	0
3.94	44.2785855830436	0	1	0	1	0	44.2785855830436	0
3.95	44.3868379243066	0	1	0	1	0	44.3868379243066	0
3.96	44.495617351893	0	1	0	1	0	44.495617351893	0
3.97	44.604922594455	0	1	0	1	0	44.604922594455	0
3.98	44.7147523934221	0	1	0	1	0	44.7147523934221	0
3.99	44.8251055028408	0	1	0	1	0	44.8251055028408	0
4	44.9359806892174	0	1	0	1	0	44.9359806892174	0
4.01	45.0473767313623	0	1	0	1	0	45.0473767313623	0
4.02	45.159292420237	0	1	0	1	0	45.159292420237	0
4.03	45.2717265588035	0	1	0	1	0	45.2717265588035	0
4.04	45.3846779618754	0	1	0	1	0	45.3846779618754	0
4.05	45.4981454559722	0	1	0	1	0	45.4981454559722	0
4.06	45.6121278791744	0	1	0	1	0	45.6121278791744	0
4.07	45.7266240809823	0	1	0	1	0	45.7266240809823	0
4.08	45.8416329221751	0	1	0	1	0	45.8416329221751	0
4.09	45.957153274674	0	1	0	1	0	45.957153274674	0
4.1	46.0731840214056	0	1	0	1	0	46.0731840214056	0
4.11	46.1897240561683	0	1	0	1	0	46.1897240561683	0
4.12	46.3067722835002	0	1	0	1	0	46.3067722835002	0
4.13	46.4243276185494	0	1	0	1	0	46.4243276185494	0
4.14	46.5423889869456	0	1	0	1	0	46.5423889869456	0
4.15	46.6609553246739	0	1	0	1	0	46.6609553246739	0
4.16	46.7800255779501	0	1	0	1	0	46.7800255779501	0
4.17	46.8995987030986	0	1	0	1	0	46.8995987030986	0
4.18	47.0196736664308	0	1	0	1	0	47.0196736664308	0
4.19	47.1402494441265	0	1	0	1	0	47.1402494441265	0
4.2	47.261325022116	0	1	0	1	0	47.261325022116	0
4.21	47.3828993959645	0	1	0	1	0	47.3828993959645	0
4.22	47.504971570758	0	1	0	1	0	47.504971570758	0
4.23	47.6275405609905	0	1	0	1	0	47.6275405609905	0
4.24	47.7506053904533	0	1	0	1	0	47.7506053904533	0
4.25	47.8741650921258	0	1	0	1	0	47.8741650921258	0
4.26	47.9982187080669	0	1	0	1	0	47.9982187080669	0
4.27	48.1227652893097	0	1	0	1	0	48.1227652893097	0
4.28	48.2478038957558	0	1	0	1	0	48.2478038957558	0
4.29	48.3733335960724	0	1	0	1	0	48.3733335960724	0
4.3	48.4993534675902	0	1	0	1	0	48.4993534675902	0
4.31	48.6258625962032	0	1	0	1	0	48.6258625962032	0
4.32	48.752860076269	0	1	0	1	0	48.752860076269	0
4.33	48.8803450105117	0	1	0	1	0	48.8803450105117	0
4.34	49.008316509925	0	1	0	1	0	49.008316509925	0
4.35	49.1367736936775	0	1	0	1	0	49.1367736936775	0
4.36	49.2657156890188	0	1	0	1	0	49.2657156890188	0
4.37	49.3951416311871	0	1	0	1	0	49.3951416311871	0
4.38	49.5250506633178	0	1	0	1	0	49.5250506633178	0
4.39	49.6554419363539	0	1	0	1	0	49.6554419363539	0
4.4	49.7863146089571	0	1	0	1	0	49.7863146089571	0
4.41	49.9176678474202	0	1	0	1	0	49.9176678474202	0
4.42	50.0495008255809	0	1	0	1	0	50.0495008255809	0
4.43	50.1818127247366	0	1	0	1	0	50.1818127247366	0
4.44	50.3146027335603	0	1	0	1	0	50.3146027335603	0
4.45	50.447870048018	0	1	0	1	0	50.447870048018	0
4.46	50.5816138712868	0	1	0	1	0	50.5816138712868	0
4.47	50.7158334136739	0	1	0	1	0	50.7158334136739	0
4.48	50.8505278925376	0	1	0	1	0	50.8505278925376	0
4.49	50.9856965322085	0	1	0	1	0	50.9856965322085	0
4.5	51.1213385639118	0	1	0	1	0	51.1213385639118	0
4.51	51.2574532256915	0	1	0	1	0	51.2574532256915	0
4.52	51.3940397623342	0	1	0	1	0	51.3940397623342	0
4.53	51.5310974252953	0	1	0	1	0	51.5310974252953	0
4.54	51.6686254726251	0	1	0	1	0	51.6686254726251	0
4.55	51.8066231688967	0	1	0	1	0	51.8066231688967	0
4.56	51.9450897851342	0	1	0	1	0	51.9450897851342	0
4.57	52.0840245987423	0	1	0	1	0	52.0840245987423	0
4.58	52.2234268934367	0	1	0	1	0	52.2234268934367	0
4.59	52.3632959591749	0	1	0	1	0	52.3632959591749	0
4.6	52.503631092089	0	1	0	1	0	52.503631092089	0
4.61	52.6444315944182	0	1	0	1	0	52.6444315944182	0
4.62	52.7856967744431	0	1	0	1	0	52.7856967744431	0
4.63	52.9274259464201	0	1	0	1	0	52.9274259464201	0
4.64	53.0696184305174	0	1	0	1	0	53.0696184305174	0
4.65	53.2122735527509	0	1	0	1	0	53.2122735527509	0
4.66	53.355390644922	0	1	0	1	0	53.355390644922	0
4.67	53.4989690445555	0	1	0	1	0	53.4989690445555	0
4.68	53.6430080948381	0	1	0	1	0	53.6430080948381	0
4.69	53.7875071445587	0	1	0	1	0	53.7875071445587	0
4.7	53.932465548048	0	1	0	1	0	53.932465548048	0
4.71	54.0778826651204	0	1	0	1	0	54.0778826651204	0
4.72	54.2237578610155	0	1	0	1	0	54.2237578610155	0
4.73	54.3700905063407	0	1	0	1	0	54.3700905063407	0
4.74	54.5168799770151	0	1	0	1	0	54.5168799770151	0
4.75	54.6641256542129	0	1	0	1	0	54.6641256542129	0
4.76	54.8118269243086	0	1	0	1	0	54.8118269243086	0
4.77	54.9599831788224	0	1	0	1	0	54.9599831788224	0
4.78	55.1085938143665	0	1	0	1	0	55.1085938143665	0
4.79	55.2576582325917	0	1	0	1	0	55.2576582325917	0
4.8	55.407175840135	0	1	0	1	0	55.407175840135	0
4.81	55.557146048568	0	1	0	1	0	55.557146048568	0
4.82	55.7075682743452	0	1	0	1	0	55.7075682743452	0
4.83	55.8584419387543	0	1	0	1	0	55.8584419387543	0
4.84	56.0097664678651	0	1	0	1	0	56.0097664678651	0
4.85	56.1615412924815	0	1	0	1	0	56.1615412924815	0
4.86	56.3137658480916	0	1	0	1	0	56.3137658480916	0
4.87	56.4664395748204	0	1	0	1	0	56.4664395748204	0
4.88	56.619561917382	0	1	0	1	0	56.619561917382	0
4.89	56.7731323250328	0	1	0	1	0	56.7731323250328	0
4.9	56.927150251525	0	1	0	1	0	56.927150251525	0
4.91	57.0816151550607	0	1	0	1	0	57.0816151550607	0
4.92	57.2365264982472	0	1	0	1	0	57.2365264982472	0
4.93	57.3918837480517	0	1	0	1	0	57.3918837480517	0
