# GHZ S RI R 50
1	56.855628844773	0	1	0	1	0	56.855628844773	0
1.01	56.3852802753038	0	1	0	1	0	56.3852802753038	0
1.02	55.9254388834398	0	1	0	1	0	55.9254388834398	0
1.03	55.4758112307654	0	1	0	1	0	55.4758112307654	0
1.04	55.0361151649578	0	1	0	1	0	55.0361151649578	0
1.05	54.6060792823543	0	1	0	1	0	54.6060792823543	0
1.06	54.1854424209396	0	1	0	1	0	54.1854424209396	0
1.07	53.7739531817648	0	1	0	1	0	53.7739531817648	0
1.08	53.3713694769528	0	1	0	1	0	53.3713694769528	0
1.09	52.9774581025854	0	1	0	1	0	52.9774581025854	0
1.1	52.591994334887	0	1	0	1	0	52.591994334887	0
1.11	52.214761548236	0	1	0	1	0	52.214761548236	0
1.12	51.84555085364	0	1	0	1	0	51.84555085364	0
1.13	51.4841607564074	0	1	0	1	0	51.4841607564074	0
1.14	51.1303968318358	0	1	0	1	0	51.1303968318358	0
1.15	50.7840714178209	0	1	0	1	0	50.7840714178209	0
1.16	50.4450033233658	0	1	0	1	0	50.4450033233658	0
1.17	50.1130175520373	0	1	0	1	0	50.1130175520373	0
1.18	49.7879450394848	0	1	0	1	0	49.7879450394848	0
1.19	49.4696224041931	0	1	0	1	0	49.4696224041931	0
1.2	49.1578917106972	0	1	0	1	0	49.1578917106972	0
1.21	48.8526002445397	0	1	0	1	0	48.8526002445397	0
1.22	48.553600298294	0	1	0	1	0	48.553600298294	0
1.23	48.2607489680276	0	1	0	1	0	48.2607489680276	0
1.24	47.973907959612	0	1	0	1	0	47.973907959612	0
1.25	47.6929434043307	0	1	0	1	0	47.6929434043307	0
1.26	47.4177256832679	0	1	0	1	0	47.4177256832679	0
1.27	47.1481292599935	0	1	0	1	0	47.1481292599935	0
1.28	46.8840325210904	0	1	0	1	0	46.8840325210904	0
1.29	46.6253176241006	0	1	0	1	0	46.6253176241006	0
1.3	46.3718703524875	0	1	0	1	0	46.3718703524875	0
1.31	46.1235799772427	0	1	0	1	0	46.1235799772427	0
1.32	45.8803391247821	0	1	0	1	0	45.8803391247821	0
1.33	45.6420436508024	0	1	0	1	0	45.6420436508024	0
1.34	45.4085925197853	0	1	0	1	0	45.4085925197853	0
1.35	45.1798876898576	0	1	0	1	0	45.1798876898576	0
1.36	44.9558340027308	0	1	0	1	0	44.9558340027308	0
1.37	44.7363390784603	0	1	0	1	0	44.7363390784603	0
1.38	44.5213132147811	0	1	0	1	0	44.5213132147811	0
1.39	44.3106692907886	0	1	0	1	0	44.3106692907886	0
1.4	44.1043226747465	0	1	0	1	0	44.1043226747465	0
1.41	43.9021911358191	0	1	0	1	0	43.9021911358191	0
1.42	43.7041947595323	0	1	0	1	0	43.7041947595323	0
1.43	43.5102558667817	0	1	0	1	0	43.5102558667817	0
1.44	43.320298936216	0	1	0	1	0	43.320298936216	0
1.45	43.1342505298313	0	1	0	1	0	43.1342505298313	0
1.46	42.952039221624	0	1	0	1	0	42.952039221624	0
1.47	42.7735955291552	0	1	0	1	0	42.7735955291552	0
1.48	42.5988518478897	0	1	0	1	0	42.5988518478897	0
1.49	42.4277423881791	0	1	0	1	0	42.4277423881791	0
1.5	42.2602031147657	0	1	0	1	0	42.2602031147657	0
1.51	42.09617168869	0	1	0	1	0	42.09617168869	0
1.52	41.9355874114916	0	1	0	1	0	41.9355874114916	0
1.53	41.7783911715975	0	1	0	1	0	41.7783911715975	0
1.54	41.6245253928008	0	1	0	1	0	41.6245253928008	0
1.55	41.4739339847318	0	1	0	1	0	41.4739339847318	0
1.56	41.3265622952355	0	1	0	1	0	41.3265622952355	0
1.57	41.1823570645685	0	1	0	1	0	41.1823570645685	0
1.58	41.0412663813355	0	1	0	1	0	41.0412663813355	0
1.59	40.903239640088	0	1	0	1	0	40.903239640088	0
1.6	40.7682275005139	0	1	0	1	0	40.7682275005139	0
1.61	40.6361818481472	0	1	0	1	0	40.6361818481472	0
1.62	40.5070557565335	0	1	0	1	0	40.5070557565335	0
1.63	40.3808034507879	0	1	0	1	0	40.3808034507879	0
1.64	40.2573802724859	0	1	0	1	0	40.2573802724859	0
1.65	40.1367426458317	0	1	0	1	0	40.1367426458317	0
1.66	40.0188480450486	0	1	0	1	0	40.0188480450486	0
1.67	39.9036549629412	0	1	0	1	0	39.9036549629412	0
1.68	39.7911228805811	0	1	0	1	0	39.7911228805811	0
1.69	39.6812122380672	0	1	0	1	0	39.6812122380672	0
1.7	39.5738844063201	0	1	0	1	0	39.5738844063201	0
1.71	39.4691016598643	0	1	0	1	0	39.4691016598643	0
1.72	39.3668271505612	0	1	0	1	0	39.3668271505612	0
1.73	39.2670248822519	0	1	0	1	0	39.2670248822519	0
1.74	39.1696596862758	0	1	0	1	0	39.1696596862758	0
1.75	39.0746971978272	0	1	0	1	0	39.0746971978272	0
1.76	38.9821038331187	0	1	0	1	0	38.9821038331187	0
1.77	38.8918467673186	0	1	0	1	0	38.8918467673186	0
1.78	38.8038939132319	0	1	0	1	0	38.8038939132319	0
1.79	38.7182139006959	0	1	0	1	0	38.7182139006959	0
1.8	38.6347760566624	0	1	0	1	0	38.6347760566624	0
1.81	38.5535503859409	0	1	0	1	0	38.5535503859409	0
1.82	38.4745075525758	0	1	0	1	0	38.4745075525758	0
1.83	38.3976188618344	0	1	0	1	0	38.3976188618344	0
1.84	38.3228562427828	0	1	0	1	0	38.3228562427828	0
1.85	38.250192231426	0	1	0	1	0	38.250192231426	0
1.86	38.1795999543926	0	1	0	1	0	38.1795999543926	0
1.87	38.1110531131427	0	1	0	1	0	38.1110531131427	0
1.88	38.0445259686799	0	1	0	1	0	38.0445259686799	0
1.89	37.9799933267482	0	1	0	1	0	37.9799933267482	0
1.9	37.9174305234972	0	1	0	1	0	37.9174305234972	0
1.91	37.8568134115969	0	1	0	1	0	37.8568134115969	0
1.92	37.7981183467867	0	1	0	1	0	37.7981183467867	0
1.93	37.7413221748424	0	1	0	1	0	37.7413221748424	0
1.94	37.6864022189466	0	1	0	1	0	37.6864022189466	0
1.95	37.6333362674471	0	1	0	1	0	37.6333362674471	0
1.96	37.5821025619911	0	1	0	1	0	37.5821025619911	0
1.97	37.5326797860196	0	1	0	1	0	37.5326797860196	0
1.98	37.4850470536112	0	1	0	1	0	37.4850470536112	0
1.99	37.4391838986618	0	1	0	1	0	37.4391838986618	0
2	37.3950702643897	0	1	0	1	0	37.3950702643897	0
2.01	37.3526864931529	0	1	0	1	0	37.3526864931529	0
2.02	37.3120133165698	0	1	0	1	0	37.3120133165698	0
2.03	37.2730318459313	0	1	0	1	0	37.2730318459313	0
2.04	37.235723562895	0	1	0	1	0	37.235723562895	0
2.05	37.2000703104522	0	1	0	1	0	37.2000703104522	0
2.06	37.1660542841573	0	1	0	1	0	37.1660542841573	0
2.07	37.1336580236122	0	1	0	1	0	37.1336580236122	0
2.08	37.1028644041956	0	1	0	1	0	37.1028644041956	0
2.09	37.0736566290298	0	1	0	1	0	37.0736566290298	0
2.1	37.0460182211782	0	1	0	1	0	37.0460182211782	0
2.11	37.0199330160629	0	1	0	1	0	37.0199330160629	0
2.12	36.9953851540978	0	1	0	1	0	36.9953851540978	0
2.13	36.9723590735299	0	1	0	1	0	36.9723590735299	0
2.14	36.9508395034797	0	1	0	1	0	36.9508395034797	0
2.15	36.9308114571773	0	1	0	1	0	36.9308114571773	0
2.16	36.9122602253855	0	1	0	1	0	36.9122602253855	0
2.17	36.895171370005	0	1	0	1	0	36.895171370005	0
2.18	36.879530717856	0	1	0	1	0	36.879530717856	0
2.19	36.8653243546293	0	1	0	1	0	36.8653243546293	0
2.2	36.8525386190034	0	1	0	1	0	36.8525386190034	0
2.21	36.8411600969203	0	1	0	1	0	36.8411600969203	0
2.22	36.831175616017	0	1	0	1	0	36.831175616017	0
2.23	36.8225722402057	0	1	0	1	0	36.8225722402057	0
2.24	36.8153372644005	0	1	0	1	0	36.8153372644005	0
2.25	36.8094582093835	0	1	0	1	0	36.8094582093835	0
2.26	36.8049228168081	0	1	0	1	0	36.8049228168081	0
2.27	36.8017190443336	0	1	0	1	0	36.8017190443336	0
2.28	36.7998350608886	0	1	0	1	0	36.7998350608886	0
2.29	36.7992592420579	0	1	0	1	0	36.7992592420579	0
2.3	36.79998016559	0	1	0	1	0	36.79998016559	0
2.31	36.8019866070214	0	1	0	1	0	36.8019866070214	0
2.32	36.8052675354137	0	1	0	1	0	36.8052675354137	0
2.33	36.809812109201	0	1	0	1	0	36.809812109201	0
2.34	36.8156096721431	0	1	0	1	0	36.8156096721431	0
2.35	36.8226497493829	0	1	0	1	0	36.8226497493829	0
2.36	36.830922043603	0	1	0	1	0	36.830922043603	0
2.37	36.8404164312805	0	1	0	1	0	36.8404164312805	0
2.38	36.8511229590357	0	1	0	1	0	36.8511229590357	0
2.39	36.8630318400726	0	1	0	1	0	36.8630318400726	0
2.4	36.8761334507087	0	1	0	1	0	36.8761334507087	0
2.41	36.8904183269905	0	1	0	1	0	36.8904183269905	0
2.42	36.9058771613933	0	1	0	1	0	36.9058771613933	0
2.43	36.9225007996031	0	1	0	1	0	36.9225007996031	0
2.44	36.9402802373764	0	1	0	1	0	36.9402802373764	0
2.45	36.9592066174776	0	1	0	1	0	36.9592066174776	0
2.46	36.9792712266915	0	1	0	1	0	36.9792712266915	0
2.47	37.0004654929073	0	1	0	1	0	37.0004654929073	0
2.48	37.0227809822743	0	1	0	1	0	37.0227809822743	0
2.49	37.0462093964253	0	1	0	1	0	37.0462093964253	0
2.5	37.0707425697669	0	1	0	1	0	37.0707425697669	0
2.51	37.0963724668346	0	1	0	1	0	37.0963724668346	0
2.52	37.1230911797111	0	1	0	1	0	37.1230911797111	0
2.53	37.1508909255054	0	1	0	1	0	37.1508909255054	0
2.54	37.1797640438919	0	1	0	1	0	37.1797640438919	0
2.55	37.2097029947066	0	1	0	1	0	37.2097029947066	0
2.56	37.2407003556008	0	1	0	1	0	37.2407003556008	0
2.57	37.2727488197487	0	1	0	1	0	37.2727488197487	0
2.58	37.3058411936088	0	1	0	1	0	37.3058411936088	0
2.59	37.3399703947363	0	1	0	1	0	37.3399703947363	0
2.6	37.3751294496476	0	1	0	1	0	37.3751294496476	0
2.61	37.411311491732	0	1	0	1	0	37.411311491732	0
2.62	37.4485097592129	0	1	0	1	0	37.4485097592129	0
2.63	37.4867175931542	0	1	0	1	0	37.4867175931542	0
2.64	37.5259284355128	0	1	0	1	0	37.5259284355128	0
2.65	37.566135827235	0	1	0	1	0	37.566135827235	0
2.66	37.6073334063956	0	1	0	1	0	37.6073334063956	0
2.67	37.6495149063792	0	1	0	1	0	37.6495149063792	0
2.68	37.6926741541021	0	1	0	1	0	37.6926741541021	0
2.69	37.7368050682734	0	1	0	1	0	37.7368050682734	0
2.7	37.7819016576958	0	1	0	1	0	37.7819016576958	0
2.71	37.8279580196024	0	1	0	1	0	37.8279580196024	0
2.72	37.8749683380323	0	1	0	1	0	37.8749683380323	0
2.73	37.9229268822396	0	1	0	1	0	37.9229268822396	0
2.74	37.9718280051394	0	1	0	1	0	37.9718280051394	0
2.75	38.0216661417858	0	1	0	1	0	38.0216661417858	0
2.76	38.0724358078846	0	1	0	1	0	38.0724358078846	0
2.77	38.1241315983371	0	1	0	1	0	38.1241315983371	0
2.78	38.1767481858156	0	1	0	1	0	38.1767481858156	0
2.79	38.2302803193701	0	1	0	1	0	38.2302803193701	0
2.8	38.2847228230642	0	1	0	1	0	38.2847228230642	0
2.81	38.3400705946402	0	1	0	1	0	38.3400705946402	0
2.82	38.3963186042127	0	1	0	1	0	38.3963186042127	0
2.83	38.4534618929903	0	1	0	1	0	38.4534618929903	0
2.84	38.5114955720238	0	1	0	1	0	38.5114955720238	0
2.85	38.5704148209806	0	1	0	1	0	38.5704148209806	0
2.86	38.6302148869455	0	1	0	1	0	38.6302148869455	0
2.87	38.6908910832459	0	1	0	1	0	38.6908910832459	0
2.88	38.752438788302	0	1	0	1	0	38.752438788302	0
2.89	38.8148534445005	0	1	0	1	0	38.8148534445005	0
2.9	38.8781305570916	0	1	0	1	0	38.8781305570916	0
2.91	38.942265693109	0	1	0	1	0	38.942265693109	0
2.92	39.0072544803122	0	1	0	1	0	39.0072544803122	0
2.93	39.0730926061498	0	1	0	1	0	39.0730926061498	0
2.94	39.1397758167445	0	1	0	1	0	39.1397758167445	0
2.95	39.2072999158989	0	1	0	1	0	39.2072999158989	0
2.96	39.2756607641209	0	1	0	1	0	39.2756607641209	0
2.97	39.344854277669	0	1	0	1	0	39.344854277669	0
2.98	39.4148764276172	0	1	0	1	0	39.4148764276172	0
2.99	39.485723238938	0	1	0	1	0	39.485723238938	0
3	39.5573907896045	0	1	0	1	0	39.5573907896045	0
3.01	39.6298752097096	0	1	0	1	0	39.6298752097096	0
3.02	39.7031726806032	0	1	0	1	0	39.7031726806032	0
3.03	39.7772794340465	0	1	0	1	0	39.7772794340465	0
3.04	39.8521917513828	0	1	0	1	0	39.8521917513828	0
3.05	39.9279059627247	0	1	0	1	0	39.9279059627247	0
3.06	40.0044184461571	0	1	0	1	0	40.0044184461571	0
3.07	40.0817256269561	0	1	0	1	0	40.0817256269561	0
3.08	40.1598239768225	0	1	0	1	0	40.1598239768225	0
3.09	40.2387100131313	0	1	0	1	0	40.2387100131313	0
3.1	40.3183802981942	0	1	0	1	0	40.3183802981942	0
3.11	40.3988314385378	0	1	0	1	0	40.3988314385378	0
3.12	40.4800600841947	0	1	0	1	0	40.4800600841947	0
3.13	40.5620629280085	0	1	0	1	0	40.5620629280085	0
3.14	40.6448367049523	0	1	0	1	0	40.6448367049523	0
3.15	40.7283781914598	0	1	0	1	0	40.7283781914598	0
3.16	40.8126842047693	0	1	0	1	0	40.8126842047693	0
3.17	40.8977516022802	0	1	0	1	0	40.8977516022802	0
3.18	40.9835772809215	0	1	0	1	0	40.9835772809215	0
3.19	41.070158176532	0	1	0	1	0	41.070158176532	0
3.2	41.1574912632528	0	1	0	1	0	41.1574912632528	0
3.21	41.2455735529301	0	1	0	1	0	41.2455735529301	0
3.22	41.3344020945303	0	1	0	1	0	41.3344020945303	0
3.23	41.4239739735648	0	1	0	1	0	41.4239739735648	0
3.24	41.5142863115267	0	1	0	1	0	41.5142863115267	0
3.25	41.6053362653365	0	1	0	1	0	41.6053362653365	0
3.26	41.6971210267995	0	1	0	1	0	41.6971210267995	0
3.27	41.7896378220717	0	1	0	1	0	41.7896378220717	0
3.28	41.8828839111367	0	1	0	1	0	41.8828839111367	0
3.29	41.976856587291	0	1	0	1	0	41.976856587291	0
3.3	42.0715531766401	0	1	0	1	0	42.0715531766401	0
3.31	42.1669710376021	0	1	0	1	0	42.1669710376021	0
3.32	42.2631075604215	0	1	0	1	0	42.2631075604215	0
3.33	42.3599601666912	0	1	0	1	0	42.3599601666912	0
3.34	42.4575263088833	0	1	0	1	0	42.4575263088833	0
3.35	42.5558034698879	0	1	0	1	0	42.5558034698879	0
3.36	42.654789162561	0	1	0	1	0	42.654789162561	0
3.37	42.7544809292795	0	1	0	1	0	42.7544809292795	0
3.38	42.8548763415044	0	1	0	1	0	42.8548763415044	0
3.39	42.9559729993523	0	1	0	1	0	42.9559729993523	0
3.4	43.0577685311736	0	1	0	1	0	43.0577685311736	0
3.41	43.1602605931386	0	1	0	1	0	43.1602605931386	0
3.42	43.2634468688309	0	1	0	1	0	43.2634468688309	0
3.43	43.3673250688476	0	1	0	1	0	43.3673250688476	0
3.44	43.4718929304069	0	1	0	1	0	43.4718929304069	0
3.45	43.577148216962	0	1	0	1	0	43.577148216962	0
3.46	43.6830887178223	0	1	0	1	0	43.6830887178223	0
3.47	43.7897122477805	0	1	0	1	0	43.7897122477805	0
3.48	43.8970166467467	0	1	0	1	0	43.8970166467467	0
3.49	44.0049997793885	0	1	0	1	0	44.0049997793885	0
3.5	44.1136595347773	0	1	0	1	0	44.1136595347773	0
3.51	44.2229938260406	0	1	0	1	0	44.2229938260406	0
3.52	44.3330005900204	0	1	0	1	0	44.3330005900204	0
3.53	44.4436777869372	0	1	0	1	0	44.4436777869372	0
3.54	44.5550234000601	0	1	0	1	0	44.5550234000601	0
3.55	44.6670354353816	0	1	0	1	0	44.6670354353816	0
3.56	44.779711921299	0	1	0	1	0	44.779711921299	0
3.57	44.8930509083002	0	1	0	1	0	44.8930509083002	0
3.58	45.0070504686556	0	1	0	1	0	45.0070504686556	0
3.59	45.1217086961142	0	1	0	1	0	45.1217086961142	0
3.6	45.2370237056059	0	1	0	1	0	45.2370237056059	0
3.61	45.3529936329475	0	1	0	1	0	45.3529936329475	0
3.62	45.4696166345547	0	1	0	1	0	45.4696166345547	0
3.63	45.586890887158	0	1	0	1	0	45.586890887158	0
3.64	45.7048145875241	0	1	0	1	0	45.7048145875241	0
3.65	45.8233859521808	0	1	0	1	0	45.8233859521808	0
3.66	45.9426032171478	0	1	0	1	0	45.9426032171478	0
3.67	46.0624646376704	0	1	0	1	0	46.0624646376704	0
3.68	46.1829684879588	0	1	0	1	0	46.1829684879588	0
3.69	46.3041130609309	0	1	0	1	0	46.3041130609309	0
3.7	46.4258966679596	0	1	0	1	0	46.4258966679596	0
3.71	46.548317638624	0	1	0	1	0	46.548317638624	0
3.72	46.6713743204646	0	1	0	1	0	46.6713743204646	0
3.73	46.7950650787428	0	1	0	1	0	46.7950650787428	0
3.74	46.9193882962038	0	1	0	1	0	46.9193882962038	0
3.75	47.0443423728434	0	1	0	1	0	47.0443423728434	0
3.76	47.1699257256789	0	1	0	1	0	47.1699257256789	0
3.77	47.296136788523	0	1	0	1	0	47.296136788523	0
3.78	47.422974011762	0	1	0	1	0	47.422974011762	0
3.79	47.5504358621368	0	1	0	1	0	47.5504358621368	0
3.8	47.678520822528	0	1	0	1	0	47.678520822528	0
3.81	47.8072273917437	0	1	0	1	0	47.8072273917437	0
3.82	47.9365540843117	0	1	0	1	0	47.9365540843117	0
3.83	48.0664994302735	0	1	0	1	0	48.0664994302735	0
3.84	48.1970619749829	0	1	0	1	0	48.1970619749829	0
3.85	48.3282402789068	0	1	0	1	0	48.3282402789068	0
3.86	48.4600329174295	0	1	0	1	0	48.4600329174295	0
3.87	48.5924384806601	0	1	0	1	0	48.5924384806601	0
3.88	48.7254555732427	0	1	0	1	0	48.7254555732427	0
3.89	48.8590828141694	0	1	0	1	0	48.8590828141694	0
3.9	48.9933188365966	0	1	0	1	0	48.9933188365966	0
3.91	49.1281622876636	0	1	0	1	0	49.1281622876636	0
3.92	49.2636118283146	0	1	0	1	0	49.2636118283146	0
3.93	49.3996661331228	0	1	0	1	0	49.3996661331228	0
3.94	49.5363238901173	0	1	0	1	0	49.5363238901173	0
3.95	49.6735838006134	0	1	0	1	0	49.6735838006134	0
3.96	49.811444579044	0	1	0	1	0	49.811444579044	0
3.97	49.9499049527951	0	1	0	1	0	49.9499049527951	0
3.98	50.0889636620427	0	1	0	1	0	50.0889636620427	0
3.99	50.2286194595925	0	1	0	1	0	50.2286194595925	0
4	50.3688711107224	0	1	0	1	0	50.3688711107224	0
4.01	50.5097173930265	0	1	0	1	0	50.5097173930265	0
4.02	50.6511570962622	0	1	0	1	0	50.6511570962622	0
4.03	50.7931890221994	0	1	0	1	0	50.7931890221994	0
4.04	50.9358119844713	0	1	0	1	0	50.9358119844713	0
4.05	51.0790248084287	0	1	0	1	0	51.0790248084287	0
4.06	51.2228263309951	0	1	0	1	0	51.2228263309951	0
4.07	51.3672154005247	0	1	0	1	0	51.3672154005247	0
4.08	51.5121908766625	0	1	0	1	0	51.5121908766625	0
4.09	51.6577516302059	0	1	0	1	0	51.6577516302059	0
4.1	51.803896542969	0	1	0	1	0	51.803896542969	0
4.11	51.9506245076486	0	1	0	1	0	51.9506245076486	0
4.12	52.097934427692	0	1	0	1	0	52.097934427692	0
4.13	52.2458252171666	0	1	0	1	0	52.2458252171666	0
4.14	52.3942958006323	0	1	0	1	0	52.3942958006323	0
4.15	52.5433451130143	0	1	0	1	0	52.5433451130143	0
4.16	52.6929720994792	0	1	0	1	0	52.6929720994792	0
4.17	52.8431757153117	0	1	0	1	0	52.8431757153117	0
4.18	52.993954925794	0	1	0	1	0	52.993954925794	0
4.19	53.1453087060861	0	1	0	1	0	53.1453087060861	0
4.2	53.2972360411083	0	1	0	1	0	53.2972360411083	0
4.21	53.4497359254257	0	1	0	1	0	53.4497359254257	0
4.22	53.6028073631332	0	1	0	1	0	53.6028073631332	0
4.23	53.7564493677435	0	1	0	1	0	53.7564493677435	0
4.24	53.9106609620757	0	1	0	1	0	53.9106609620757	0
4.25	54.0654411781458	0	1	0	1	0	54.0654411781458	0
4.26	54.2207890570591	0	1	0	1	0	54.2207890570591	0
4.27	54.3767036489033	0	1	0	1	0	54.3767036489033	0
4.28	54.5331840126439	0	1	0	1	0	54.5331840126439	0
4.29	54.6902292160205	0	1	0	1	0	54.6902292160205	0
4.3	54.847838335445	0	1	0	1	0	54.847838335445	0
4.31	55.0060104559008	0	1	0	1	0	55.0060104559008	0
4.32	55.1647446708438	0	1	0	1	0	55.1647446708438	0
4.33	55.3240400821043	0	1	0	1	0	55.3240400821043	0
4.34	55.4838957997908	0	1	0	1	0	55.4838957997908	0
4.35	55.6443109421945	0	1	0	1	0	55.6443109421945	0
4.36	55.8052846356958	0	1	0	1	0	55.8052846356958	0
4.37	55.9668160146718	0	1	0	1	0	55.9668160146718	0
4.38	56.1289042214046	0	1	0	1	0	56.1289042214046	0
4.39	56.2915484059914	0	1	0	1	0	56.2915484059914	0
4.4	56.4547477262561	0	1	0	1	0	56.4547477262561	0
4.41	56.6185013476611	0	1	0	1	0	56.6185013476611	0
4.42	56.7828084432214	0	1	0	1	0	56.7828084432214	0
4.43	56.9476681934191	0	1	0	1	0	56.9476681934191	0
4.44	57.1130797861191	0	1	0	1	0	57.1130797861191	0
4.45	57.2790424164867	0	1	0	1	0	57.2790424164867	0
4.46	57.4455552869052	0	1	0	1	0	57.4455552869052	0
4.47	57.6126176068957	0	1	0	1	0	57.6126176068957	0
4.48	57.7802285930368	0	1	0	1	0	57.7802285930368	0
4.49	57.9483874688867	0	1	0	1	0	57.9483874688867	0
4.5	58.117093464905	0	1	0	1	0	58.117093464905	0
4.51	58.2863458183767	0	1	0	1	0	58.2863458183767	0
4.52	58.4561437733364	0	1	0	1	0	58.4561437733364	0
4.53	58.6264865804939	0	1	0	1	0	58.6264865804939	0
4.54	58.7973734971607	0	1	0	1	0	58.7973734971607	0
4.55	58.9688037871774	0	1	0	1	0	58.9688037871774	0
4.56	59.1407767208421	0	1	0	1	0	59.1407767208421	0
4.57	59.31329157484	0	1	0	1	0	59.31329157484	0
4.58	59.4863476321732	0	1	0	1	0	59.4863476321732	0
4.59	59.6599441820922	0	1	0	1	0	59.6599441820922	0
4.6	59.834080520028	0	1	0	1	0	59.834080520028	0
4.61	60.0087559475251	0	1	0	1	0	60.0087559475251	0
4.62	60.183969772175	0	1	0	1	0	60.183969772175	0
4.63	60.3597213075512	0	1	0	1	0	60.3597213075512	0
4.64	60.5360098731448	0	1	0	1	0	60.5360098731448	0
4.65	60.7128347943006	0	1	0	1	0	60.7128347943006	0
4.66	60.8901954021546	0	1	0	1	0	60.8901954021546	0
4.67	61.0680910335715	0	1	0	1	0	61.0680910335715	0
4.68	61.2465210310842	0	1	0	1	0	61.2465210310842	0
4.69	61.4254847428328	0	1	0	1	0	61.4254847428328	0
4.7	61.6049815225051	0	1	0	1	0	61.6049815225051	0
4.71	61.7850107292779	0	1	0	1	0	61.7850107292779	0
4.72	61.9655717277586	0	1	0	1	0	61.9655717277586	0
4.73	62.1466638879279	0	1	0	1	0	62.1466638879279	0
4.74	62.3282865850832	0	1	0	1	0	62.3282865850832	0
4.75	62.5104391997825	0	1	0	1	0	62.5104391997825	0
4.76	62.6931211177891	0	1	0	1	0	62.6931211177891	0
4.77	62.8763317300173	0	1	0	1	0	62.8763317300173	0
4.78	63.0600704324783	0	1	0	1	0	63.0600704324783	0
4.79	63.244336626227	0	1	0	1	0	63.244336626227	0
4.8	63.4291297173095	0	1	0	1	0	63.4291297173095	0
4.81	63.6144491167114	0	1	0	1	0	63.6144491167114	0
4.82	63.800294240306	0	1	0	1	0	63.800294240306	0
4.83	63.9866645088045	0	1	0	1	0	63.9866645088045	0
4.84	64.1735593477055	0	1	0	1	0	64.1735593477055	0
4.85	64.3609781872455	0	1	0	1	0	64.3609781872455	0
4.86	64.5489204623509	0	1	0	1	0	64.5489204623509	0
4.87	64.7373856125888	0	1	0	1	0	64.7373856125888	0
4.88	64.9263730821204	0	1	0	1	0	64.9263730821204	0
4.89	65.1158823196535	0	1	0	1	0	65.1158823196535	0
4.9	65.3059127783963	0	1	0	1	0	65.3059127783963	0
4.91	65.4964639160116	0	1	0	1	0	65.4964639160116	0
4.92	65.687535194571	0	1	0	1	0	65.687535194571	0
4.93	65.8791260805113	0	1	0	1	0	65.8791260805113	0
