# GHZ S RI R 50
1	58.0216521299976	0	1	0	1	0	58.0216521299976	0
1.01	57.5387120033908	0	1	0	1	0	57.5387120033908	0
1.02	57.0665039084087	0	1	0	1	0	57.0665039084087	0
1.03	56.6047276413976	0	1	0	1	0	56.6047276413976	0
1.04	56.153094544998	0	1	0	1	0	56.153094544998	0
1.05	55.7113269583215	0	1	0	1	0	55.7113269583215	0
1.06	55.2791576982489	0	1	0	1	0	55.2791576982489	0
1.07	54.8563295698151	0	1	0	1	0	54.8563295698151	0
1.08	54.4425949037943	0	1	0	1	0	54.4425949037943	0
1.09	54.0377151197398	0	1	0	1	0	54.0377151197398	0
1.1	53.6414603128573	0	1	0	1	0	53.6414603128573	0
1.11	53.2536088632102	0	1	0	1	0	53.2536088632102	0
1.12	52.8739470658595	0	1	0	1	0	52.8739470658595	0
1.13	52.5022687806428	0	1	0	1	0	52.5022687806428	0
1.14	52.1383751003859	0	1	0	1	0	52.1383751003859	0
1.15	51.7820740364249	0	1	0	1	0	51.7820740364249	0
1.16	51.4331802203947	0	1	0	1	0	51.4331802203947	0
1.17	51.0915146213104	0	1	0	1	0	51.0915146213104	0
1.18	50.7569042770337	0	1	0	1	0	50.7569042770337	0
1.19	50.42918203928	0	1	0	1	0	50.42918203928	0
1.2	50.1081863313739	0	1	0	1	0	50.1081863313739	0
1.21	49.7937609180181	0	1	0	1	0	49.7937609180181	0
1.22	49.4857546863836	0	1	0	1	0	49.4857546863836	0
1.23	49.18402143788	0	1	0	1	0	49.18402143788	0
1.24	48.8884196900005	0	1	0	1	0	48.8884196900005	0
1.25	48.5988124876784	0	1	0	1	0	48.5988124876784	0
1.26	48.3150672236269	0	1	0	1	0	48.3150672236269	0
1.27	48.0370554671668	0	1	0	1	0	48.0370554671668	0
1.28	47.7646528010774	0	1	0	1	0	47.7646528010774	0
1.29	47.4977386660364	0	1	0	1	0	47.4977386660364	0
1.3	47.2361962122393	0	1	0	1	0	47.2361962122393	0
1.31	46.9799121578142	0	1	0	1	0	46.9799121578142	0
1.32	46.7287766536736	0	1	0	1	0	46.7287766536736	0
1.33	46.4826831544617	0	1	0	1	0	46.4826831544617	0
1.34	46.2415282952811	0	1	0	1	0	46.2415282952811	0
1.35	46.005211773898	0	1	0	1	0	46.005211773898	0
1.36	45.7736362381445	0	1	0	1	0	45.7736362381445	0
1.37	45.5467071782515	0	1	0	1	0	45.5467071782515	0
1.38	45.3243328238638	0	1	0	1	0	45.3243328238638	0
1.39	45.1064240454994	0	1	0	1	0	45.1064240454994	0
1.4	44.8928942602331	0	1	0	1	0	44.8928942602331	0
1.41	44.683659341393	0	1	0	1	0	44.683659341393	0
1.42	44.4786375320723	0	1	0	1	0	44.4786375320723	0
1.43	44.277749362271	0	1	0	1	0	44.277749362271	0
1.44	44.080917569489	0	1	0	1	0	44.080917569489	0
1.45	43.8880670226054	0	1	0	1	0	43.8880670226054	0
1.46	43.6991246488862	0	1	0	1	0	43.6991246488862	0
1.47	43.5140193639714	0	1	0	1	0	43.5140193639714	0
1.48	43.3326820046994	0	1	0	1	0	43.3326820046994	0
1.49	43.1550452646383	0	1	0	1	0	43.1550452646383	0
1.5	42.9810436321941	0	1	0	1	0	42.9810436321941	0
1.51	42.8106133311792	0	1	0	1	0	42.8106133311792	0
1.52	42.6436922637269	0	1	0	1	0	42.6436922637269	0
1.53	42.4802199554441	0	1	0	1	0	42.4802199554441	0
1.54	42.3201375027011	0	1	0	1	0	42.3201375027011	0
1.55	42.1633875219619	0	1	0	1	0	42.1633875219619	0
1.56	42.0099141010632	0	1	0	1	0	42.0099141010632	0
1.57	41.8596627523555	0	1	0	1	0	41.8596627523555	0
1.58	41.7125803676233	0	1	0	1	0	41.7125803676233	0
1.59	41.5686151747071	0	1	0	1	0	41.5686151747071	0
1.6	41.427716695751	0	1	0	1	0	41.427716695751	0
1.61	41.2898357070077	0	1	0	1	0	41.2898357070077	0
1.62	41.1549242001309	0	1	0	1	0	41.1549242001309	0
1.63	41.0229353448932	0	1	0	1	0	41.0229353448932	0
1.64	40.8938234532679	0	1	0	1	0	40.8938234532679	0
1.65	40.7675439448169	0	1	0	1	0	40.7675439448169	0
1.66	40.6440533133294	0	1	0	1	0	40.6440533133294	0
1.67	40.5233090946596	0	1	0	1	0	40.5233090946596	0
1.68	40.4052698357127	0	1	0	1	0	40.4052698357127	0
1.69	40.2898950645325	0	1	0	1	0	40.2898950645325	0
1.7	40.1771452614437	0	1	0	1	0	40.1771452614437	0
1.71	40.0669818312083	0	1	0	1	0	40.0669818312083	0
1.72	39.9593670761516	0	1	0	1	0	39.9593670761516	0
1.73	39.8542641702217	0	1	0	1	0	39.8542641702217	0
1.74	39.7516371339425	0	1	0	1	0	39.7516371339425	0
1.75	39.6514508102259	0	1	0	1	0	39.6514508102259	0
1.76	39.5536708410086	0	1	0	1	0	39.5536708410086	0
1.77	39.4582636446806	0	1	0	1	0	39.4582636446806	0
1.78	39.3651963942748	0	1	0	1	0	39.3651963942748	0
1.79	39.2744369963879	0	1	0	1	0	39.2744369963879	0
1.8	39.1859540708031	0	1	0	1	0	39.1859540708031	0
1.81	39.099716930789	0	1	0	1	0	39.099716930789	0
1.82	39.015695564048	0	1	0	1	0	39.015695564048	0
1.83	38.9338606142889	0	1	0	1	0	38.9338606142889	0
1.84	38.8541833634009	0	1	0	1	0	38.8541833634009	0
1.85	38.7766357142052	0	1	0	1	0	38.7766357142052	0
1.86	38.7011901737633	0	1	0	1	0	38.7011901737633	0
1.87	38.6278198372212	0	1	0	1	0	38.6278198372212	0
1.88	38.5564983721685	0	1	0	1	0	38.5564983721685	0
1.89	38.4872000034943	0	1	0	1	0	38.4872000034943	0
1.9	38.419899498722	0	1	0	1	0	38.419899498722	0
1.91	38.3545721538035	0	1	0	1	0	38.3545721538035	0
1.92	38.2911937793584	0	1	0	1	0	38.2911937793584	0
1.93	38.2297406873408	0	1	0	1	0	38.2297406873408	0
1.94	38.170189678118	0	1	0	1	0	38.170189678118	0
1.95	38.1125180279471	0	1	0	1	0	38.1125180279471	0
1.96	38.0567034768353	0	1	0	1	0	38.0567034768353	0
1.97	38.0027242167691	0	1	0	1	0	38.0027242167691	0
1.98	37.9505588803012	0	1	0	1	0	37.9505588803012	0
1.99	37.9001865294804	0	1	0	1	0	37.9001865294804	0
2	37.8515866451147	0	1	0	1	0	37.8515866451147	0
2.01	37.8047391163543	0	1	0	1	0	37.8047391163543	0
2.02	37.7596242305839	0	1	0	1	0	37.7596242305839	0
2.03	37.7162226636143	0	1	0	1	0	37.7162226636143	0
2.04	37.6745154701617	0	1	0	1	0	37.6745154701617	0
2.05	37.6344840746067	0	1	0	1	0	37.6344840746067	0
2.06	37.5961102620213	0	1	0	1	0	37.5961102620213	0
2.07	37.5593761694568	0	1	0	1	0	37.5593761694568	0
2.08	37.5242642774829	0	1	0	1	0	37.5242642774829	0
2.09	37.4907574019692	0	1	0	1	0	37.4907574019692	0
2.1	37.4588386861022	0	1	0	1	0	37.4588386861022	0
2.11	37.4284915926289	0	1	0	1	0	37.4284915926289	0
2.12	37.3996998963198	0	1	0	1	0	37.3996998963198	0
2.13	37.3724476766445	0	1	0	1	0	37.3724476766445	0
2.14	37.3467193106529	0	1	0	1	0	37.3467193106529	0
2.15	37.3224994660542	0	1	0	1	0	37.3224994660542	0
2.16	37.2997730944889	0	1	0	1	0	37.2997730944889	0
2.17	37.2785254249867	0	1	0	1	0	37.2785254249867	0
2.18	37.2587419576042	0	1	0	1	0	37.2587419576042	0
2.19	37.2404084572373	0	1	0	1	0	37.2404084572373	0
2.2	37.2235109476018	0	1	0	1	0	37.2235109476018	0
2.21	37.2080357053781	0	1	0	1	0	37.2080357053781	0
2.22	37.1939692545134	0	1	0	1	0	37.1939692545134	0
2.23	37.1812983606779	0	1	0	1	0	37.1812983606779	0
2.24	37.1700100258693	0	1	0	1	0	37.1700100258693	0
2.25	37.1600914831607	0	1	0	1	0	37.1600914831607	0
2.26	37.1515301915885	0	1	0	1	0	37.1515301915885	0
2.27	37.1443138311754	0	1	0	1	0	37.1443138311754	0
2.28	37.1384302980839	0	1	0	1	0	37.1384302980839	0
2.29	37.1338676998972	0	1	0	1	0	37.1338676998972	0
2.3	37.1306143510234	0	1	0	1	0	37.1306143510234	0
2.31	37.1286587682183	0	1	0	1	0	37.1286587682183	0
2.32	37.1279896662247	0	1	0	1	0	37.1279896662247	0
2.33	37.1285959535237	0	1	0	1	0	37.1285959535237	0
2.34	37.130466728195	0	1	0	1	0	37.130466728195	0
2.35	37.1335912738831	0	1	0	1	0	37.1335912738831	0
2.36	37.1379590558655	0	1	0	1	0	37.1379590558655	0
2.37	37.1435597172208	0	1	0	1	0	37.1435597172208	0
2.38	37.1503830750937	0	1	0	1	0	37.1503830750937	0
2.39	37.1584191170531	0	1	0	1	0	37.1584191170531	0
2.4	37.1676579975419	0	1	0	1	0	37.1676579975419	0
2.41	37.1780900344147	0	1	0	1	0	37.1780900344147	0
2.42	37.1897057055615	0	1	0	1	0	37.1897057055615	0
2.43	37.2024956456149	0	1	0	1	0	37.2024956456149	0
2.44	37.216450642738	0	1	0	1	0	37.216450642738	0
2.45	37.2315616354915	0	1	0	1	0	37.2315616354915	0
2.46	37.2478197097763	0	1	0	1	0	37.2478197097763	0
2.47	37.2652160958513	0	1	0	1	0	37.2652160958513	0
2.48	37.2837421654228	0	1	0	1	0	37.2837421654228	0
2.49	37.3033894288043	0	1	0	1	0	37.3033894288043	0
2.5	37.3241495321443	0	1	0	1	0	37.3241495321443	0
2.51	37.3460142547202	0	1	0	1	0	37.3460142547202	0
2.52	37.3689755062973	0	1	0	1	0	37.3689755062973	0
2.53	37.3930253245496	0	1	0	1	0	37.3930253245496	0
2.54	37.4181558725422	0	1	0	1	0	37.4181558725422	0
2.55	37.4443594362724	0	1	0	1	0	37.4443594362724	0
2.56	37.4716284222687	0	1	0	1	0	37.4716284222687	0
2.57	37.4999553552462	0	1	0	1	0	37.4999553552462	0
2.58	37.5293328758157	0	1	0	1	0	37.5293328758157	0
2.59	37.5597537382466	0	1	0	1	0	37.5597537382466	0
2.6	37.5912108082809	0	1	0	1	0	37.5912108082809	0
2.61	37.6236970609981	0	1	0	1	0	37.6236970609981	0
2.62	37.6572055787284	0	1	0	1	0	37.6572055787284	0
2.63	37.6917295490134	0	1	0	1	0	37.6917295490134	0
2.64	37.7272622626143	0	1	0	1	0	37.7272622626143	0
2.65	37.7637971115633	0	1	0	1	0	37.7637971115633	0
2.66	37.8013275872608	0	1	0	1	0	37.8013275872608	0
2.67	37.8398472786143	0	1	0	1	0	37.8398472786143	0
2.68	37.8793498702192	0	1	0	1	0	37.8793498702192	0
2.69	37.9198291405803	0	1	0	1	0	37.9198291405803	0
2.7	37.9612789603726	0	1	0	1	0	37.9612789603726	0
2.71	38.003693290741	0	1	0	1	0	38.003693290741	0
2.72	38.047066181637	0	1	0	1	0	38.047066181637	0
2.73	38.0913917701924	0	1	0	1	0	38.0913917701924	0
2.74	38.136664279128	0	1	0	1	0	38.136664279128	0
2.75	38.1828780151982	0	1	0	1	0	38.1828780151982	0
2.76	38.2300273676678	0	1	0	1	0	38.2300273676678	0
2.77	38.2781068068234	0	1	0	1	0	38.2781068068234	0
2.78	38.3271108825156	0	1	0	1	0	38.3271108825156	0
2.79	38.3770342227333	0	1	0	1	0	38.3770342227333	0
2.8	38.4278715322086	0	1	0	1	0	38.4278715322086	0
2.81	38.479617591051	0	1	0	1	0	38.479617591051	0
2.82	38.532267253411	0	1	0	1	0	38.532267253411	0
2.83	38.5858154461718	0	1	0	1	0	38.5858154461718	0
2.84	38.6402571676693	0	1	0	1	0	38.6402571676693	0
2.85	38.6955874864379	0	1	0	1	0	38.6955874864379	0
2.86	38.7518015399836	0	1	0	1	0	38.7518015399836	0
2.87	38.8088945335824	0	1	0	1	0	38.8088945335824	0
2.88	38.8668617391037	0	1	0	1	0	38.8668617391037	0
2.89	38.9256984938582	0	1	0	1	0	38.9256984938582	0
2.9	38.9854001994693	0	1	0	1	0	38.9854001994693	0
2.91	39.0459623207687	0	1	0	1	0	39.0459623207687	0
2.92	39.1073803847134	0	1	0	1	0	39.1073803847134	0
2.93	39.169649979326	0	1	0	1	0	39.169649979326	0
2.94	39.2327667526559	0	1	0	1	0	39.2327667526559	0
2.95	39.296726411762	0	1	0	1	0	39.296726411762	0
2.96	39.3615247217161	0	1	0	1	0	39.3615247217161	0
2.97	39.4271575046258	0	1	0	1	0	39.4271575046258	0
2.98	39.4936206386779	0	1	0	1	0	39.4936206386779	0
2.99	39.5609100572007	0	1	0	1	0	39.5609100572007	0
3	39.6290217477444	0	1	0	1	0	39.6290217477444	0
3.01	39.6979517511812	0	1	0	1	0	39.6979517511812	0
3.02	39.7676961608218	0	1	0	1	0	39.7676961608218	0
3.03	39.8382511215506	0	1	0	1	0	39.8382511215506	0
3.04	39.9096128289768	0	1	0	1	0	39.9096128289768	0
3.05	39.9817775286037	0	1	0	1	0	39.9817775286037	0
3.06	40.0547415150128	0	1	0	1	0	40.0547415150128	0
3.07	40.1285011310645	0	1	0	1	0	40.1285011310645	0
3.08	40.2030527671149	0	1	0	1	0	40.2030527671149	0
3.09	40.2783928602465	0	1	0	1	0	40.2783928602465	0
3.1	40.3545178935151	0	1	0	1	0	40.3545178935151	0
3.11	40.4314243952106	0	1	0	1	0	40.4314243952106	0
3.12	40.5091089381319	0	1	0	1	0	40.5091089381319	0
3.13	40.5875681388759	0	1	0	1	0	40.5875681388759	0
3.14	40.6667986571404	0	1	0	1	0	40.6667986571404	0
3.15	40.7467971950395	0	1	0	1	0	40.7467971950395	0
3.16	40.8275604964329	0	1	0	1	0	40.8275604964329	0
3.17	40.9090853462671	0	1	0	1	0	40.9090853462671	0
3.18	40.9913685699296	0	1	0	1	0	40.9913685699296	0
3.19	41.074407032615	0	1	0	1	0	41.074407032615	0
3.2	41.1581976387027	0	1	0	1	0	41.1581976387027	0
3.21	41.2427373311472	0	1	0	1	0	41.2427373311472	0
3.22	41.3280230908784	0	1	0	1	0	41.3280230908784	0
3.23	41.4140519362143	0	1	0	1	0	41.4140519362143	0
3.24	41.5008209222836	0	1	0	1	0	41.5008209222836	0
3.25	41.5883271404596	0	1	0	1	0	41.5883271404596	0
3.26	41.6765677178045	0	1	0	1	0	41.6765677178045	0
3.27	41.7655398165232	0	1	0	1	0	41.7655398165232	0
3.28	41.855240633428	0	1	0	1	0	41.855240633428	0
3.29	41.9456673994123	0	1	0	1	0	41.9456673994123	0
3.3	42.0368173789347	0	1	0	1	0	42.0368173789347	0
3.31	42.1286878695117	0	1	0	1	0	42.1286878695117	0
3.32	42.2212762012195	0	1	0	1	0	42.2212762012195	0
3.33	42.3145797362059	0	1	0	1	0	42.3145797362059	0
3.34	42.4085958682094	0	1	0	1	0	42.4085958682094	0
3.35	42.5033220220883	0	1	0	1	0	42.5033220220883	0
3.36	42.598755653357	0	1	0	1	0	42.598755653357	0
3.37	42.694894247732	0	1	0	1	0	42.694894247732	0
3.38	42.7917353206842	0	1	0	1	0	42.7917353206842	0
3.39	42.8892764170007	0	1	0	1	0	42.8892764170007	0
3.4	42.9875151103534	0	1	0	1	0	42.9875151103534	0
3.41	43.0864490028755	0	1	0	1	0	43.0864490028755	0
3.42	43.1860757247454	0	1	0	1	0	43.1860757247454	0
3.43	43.2863929337781	0	1	0	1	0	43.2863929337781	0
3.44	43.3873983150231	0	1	0	1	0	43.3873983150231	0
3.45	43.48908958037	0	1	0	1	0	43.48908958037	0
3.46	43.5914644681605	0	1	0	1	0	43.5914644681605	0
3.47	43.6945207428072	0	1	0	1	0	43.6945207428072	0
3.48	43.7982561944194	0	1	0	1	0	43.7982561944194	0
3.49	43.9026686384343	0	1	0	1	0	43.9026686384343	0
3.5	44.0077559152558	0	1	0	1	0	44.0077559152558	0
3.51	44.1135158898985	0	1	0	1	0	44.1135158898985	0
3.52	44.2199464516381	0	1	0	1	0	44.2199464516381	0
3.53	44.3270455136681	0	1	0	1	0	44.3270455136681	0
3.54	44.4348110127614	0	1	0	1	0	44.4348110127614	0
3.55	44.5432409089388	0	1	0	1	0	44.5432409089388	0
3.56	44.652333185142	0	1	0	1	0	44.652333185142	0
3.57	44.7620858469131	0	1	0	1	0	44.7620858469131	0
3.58	44.8724969220783	0	1	0	1	0	44.8724969220783	0
3.59	44.9835644604381	0	1	0	1	0	44.9835644604381	0
3.6	45.0952865334619	0	1	0	1	0	45.0952865334619	0
3.61	45.2076612339876	0	1	0	1	0	45.2076612339876	0
3.62	45.3206866759271	0	1	0	1	0	45.3206866759271	0
3.63	45.4343609939752	0	1	0	1	0	45.4343609939752	0
3.64	45.548682343325	0	1	0	1	0	45.548682343325	0
3.65	45.6636488993864	0	1	0	1	0	45.6636488993864	0
3.66	45.7792588575102	0	1	0	1	0	45.7792588575102	0
3.67	45.8955104327165	0	1	0	1	0	45.8955104327165	0
3.68	46.0124018594272	0	1	0	1	0	46.0124018594272	0
3.69	46.1299313912034	0	1	0	1	0	46.1299313912034	0
3.7	46.2480973004865	0	1	0	1	0	46.2480973004865	0
3.71	46.366897878344	0	1	0	1	0	46.366897878344	0
3.72	46.486331434219	0	1	0	1	0	46.486331434219	0
3.73	46.6063962956838	0	1	0	1	0	46.6063962956838	0
3.74	46.7270908081977	0	1	0	1	0	46.7270908081977	0
3.75	46.8484133348684	0	1	0	1	0	46.8484133348684	0
3.76	46.9703622562173	0	1	0	1	0	46.9703622562173	0
3.77	47.0929359699487	0	1	0	1	0	47.0929359699487	0
3.78	47.2161328907224	0	1	0	1	0	47.2161328907224	0
3.79	47.33995144993	0	1	0	1	0	47.33995144993	0
3.8	47.4643900954747	0	1	0	1	0	47.4643900954747	0
3.81	47.5894472915547	0	1	0	1	0	47.5894472915547	0
3.82	47.7151215184501	0	1	0	1	0	47.7151215184501	0
3.83	47.8414112723124	0	1	0	1	0	47.8414112723124	0
3.84	47.9683150649585	0	1	0	1	0	47.9683150649585	0
3.85	48.0958314236667	0	1	0	1	0	48.0958314236667	0
3.86	48.2239588909768	0	1	0	1	0	48.2239588909768	0
3.87	48.3526960244929	0	1	0	1	0	48.3526960244929	0
3.88	48.4820413966888	0	1	0	1	0	48.4820413966888	0
3.89	48.6119935947177	0	1	0	1	0	48.6119935947177	0
3.9	48.7425512202231	0	1	0	1	0	48.7425512202231	0
3.91	48.8737128891542	0	1	0	1	0	48.8737128891542	0
3.92	49.0054772315831	0	1	0	1	0	49.0054772315831	0
3.93	49.1378428915251	0	1	0	1	0	49.1378428915251	0
3.94	49.2708085267621	0	1	0	1	0	49.2708085267621	0
3.95	49.4043728086678	0	1	0	1	0	49.4043728086678	0
3.96	49.5385344220365	0	1	0	1	0	49.5385344220365	0
3.97	49.673292064914	0	1	0	1	0	49.673292064914	0
3.98	49.8086444484308	0	1	0	1	0	49.8086444484308	0
3.99	49.9445902966387	0	1	0	1	0	49.9445902966387	0
4	50.0811283463488	0	1	0	1	0	50.0811283463488	0
4.01	50.2182573469728	0	1	0	1	0	50.2182573469728	0
4.02	50.3559760603657	0	1	0	1	0	50.3559760603657	0
4.03	50.4942832606723	0	1	0	1	0	50.4942832606723	0
4.04	50.6331777341739	0	1	0	1	0	50.6331777341739	0
4.05	50.7726582791399	0	1	0	1	0	50.7726582791399	0
4.06	50.9127237056788	0	1	0	1	0	50.9127237056788	0
4.07	51.0533728355936	0	1	0	1	0	51.0533728355936	0
4.08	51.1946045022383	0	1	0	1	0	51.1946045022383	0
4.09	51.3364175503767	0	1	0	1	0	51.3364175503767	0
4.1	51.4788108360429	0	1	0	1	0	51.4788108360429	0
4.11	51.6217832264048	0	1	0	1	0	51.6217832264048	0
4.12	51.7653335996286	0	1	0	1	0	51.7653335996286	0
4.13	51.9094608447455	0	1	0	1	0	51.9094608447455	0
4.14	52.0541638615209	0	1	0	1	0	52.0541638615209	0
4.15	52.199441560325	0	1	0	1	0	52.199441560325	0
4.16	52.3452928620048	0	1	0	1	0	52.3452928620048	0
4.17	52.4917166977593	0	1	0	1	0	52.4917166977593	0
4.18	52.6387120090151	0	1	0	1	0	52.6387120090151	0
4.19	52.7862777473044	0	1	0	1	0	52.7862777473044	0
4.2	52.9344128741449	0	1	0	1	0	52.9344128741449	0
4.21	53.0831163609213	0	1	0	1	0	53.0831163609213	0
4.22	53.2323871887678	0	1	0	1	0	53.2323871887678	0
4.23	53.3822243484537	0	1	0	1	0	53.3822243484537	0
4.24	53.5326268402691	0	1	0	1	0	53.5326268402691	0
4.25	53.6835936739131	0	1	0	1	0	53.6835936739131	0
4.26	53.8351238683836	0	1	0	1	0	53.8351238683836	0
4.27	53.9872164518679	0	1	0	1	0	53.9872164518679	0
4.28	54.1398704616361	0	1	0	1	0	54.1398704616361	0
4.29	54.2930849439344	0	1	0	1	0	54.2930849439344	0
4.3	54.4468589538813	0	1	0	1	0	54.4468589538813	0
4.31	54.6011915553645	0	1	0	1	0	54.6011915553645	0
4.32	54.7560818209394	0	1	0	1	0	54.7560818209394	0
4.33	54.9115288317291	0	1	0	1	0	54.9115288317291	0
4.34	55.0675316773254	0	1	0	1	0	55.0675316773254	0
4.35	55.2240894556918	0	1	0	1	0	55.2240894556918	0
4.36	55.3812012730674	0	1	0	1	0	55.3812012730674	0
4.37	55.5388662438722	0	1	0	1	0	55.5388662438722	0
4.38	55.6970834906135	0	1	0	1	0	55.6970834906135	0
4.39	55.8558521437942	0	1	0	1	0	55.8558521437942	0
4.4	56.0151713418216	0	1	0	1	0	56.0151713418216	0
4.41	56.1750402309178	0	1	0	1	0	56.1750402309178	0
4.42	56.3354579650317	0	1	0	1	0	56.3354579650317	0
4.43	56.4964237057512	0	1	0	1	0	56.4964237057512	0
4.44	56.6579366222176	0	1	0	1	0	56.6579366222176	0
4.45	56.8199958910406	0	1	0	1	0	56.8199958910406	0
4.46	56.9826006962144	0	1	0	1	0	56.9826006962144	0
4.47	57.1457502290356	0	1	0	1	0	57.1457502290356	0
4.48	57.3094436880209	0	1	0	1	0	57.3094436880209	0
4.49	57.4736802788276	0	1	0	1	0	57.4736802788276	0
4.5	57.6384592141736	0	1	0	1	0	57.6384592141736	0
4.51	57.8037797137594	0	1	0	1	0	57.8037797137594	0
4.52	57.9696410041908	0	1	0	1	0	57.9696410041908	0
4.53	58.1360423189026	0	1	0	1	0	58.1360423189026	0
4.54	58.3029828980837	0	1	0	1	0	58.3029828980837	0
4.55	58.4704619886025	0	1	0	1	0	58.4704619886025	0
4.56	58.6384788439337	0	1	0	1	0	58.6384788439337	0
4.57	58.8070327240864	0	1	0	1	0	58.8070327240864	0
4.58	58.9761228955324	0	1	0	1	0	58.9761228955324	0
4.59	59.1457486311358	0	1	0	1	0	59.1457486311358	0
4.6	59.3159092100837	0	1	0	1	0	59.3159092100837	0
4.61	59.4866039178176	0	1	0	1	0	59.4866039178176	0
4.62	59.6578320459656	0	1	0	1	0	59.6578320459656	0
4.63	59.8295928922756	0	1	0	1	0	59.8295928922756	0
4.64	60.0018857605495	0	1	0	1	0	60.0018857605495	0
4.65	60.1747099605779	0	1	0	1	0	60.1747099605779	0
4.66	60.348064808076	0	1	0	1	0	60.348064808076	0
4.67	60.5219496246201	0	1	0	1	0	60.5219496246201	0
4.68	60.6963637375849	0	1	0	1	0	60.6963637375849	0
4.69	60.871306480082	0	1	0	1	0	60.871306480082	0
4.7	61.0467771908984	0	1	0	1	0	61.0467771908984	0
4.71	61.2227752144367	0	1	0	1	0	61.2227752144367	0
4.72	61.3992999006553	0	1	0	1	0	61.3992999006553	0
4.73	61.5763506050098	0	1	0	1	0	61.5763506050098	0
4.74	61.7539266883949	0	1	0	1	0	61.7539266883949	0
4.75	61.9320275170874	0	1	0	1	0	61.9320275170874	0
4.76	62.1106524626895	0	1	0	1	0	62.1106524626895	0
4.77	62.2898009020729	0	1	0	1	0	62.2898009020729	0
4.78	62.4694722173237	0	1	0	1	0	62.4694722173237	0
4.79	62.6496657956882	0	1	0	1	0	62.6496657956882	0
4.8	62.8303810295188	0	1	0	1	0	62.8303810295188	0
4.81	63.0116173162213	0	1	0	1	0	63.0116173162213	0
4.82	63.1933740582021	0	1	0	1	0	63.1933740582021	0
4.83	63.3756506628168	0	1	0	1	0	63.3756506628168	0
4.84	63.5584465423187	0	1	0	1	0	63.5584465423187	0
4.85	63.7417611138086	0	1	0	1	0	63.7417611138086	0
4.86	63.9255937991848	0	1	0	1	0	63.9255937991848	0
4.87	64.1099440250939	0	1	0	1	0	64.1099440250939	0
4.88	64.2948112228821	0	1	0	1	0	64.2948112228821	0
4.89	64.4801948285471	0	1	0	1	0	64.4801948285471	0
4.9	64.6660942826907	0	1	0	1	0	64.6660942826907	0
4.91	64.8525090304721	0	1	0	1	0	64.8525090304721	0
4.92	65.0394385215613	0	1	0	1	0	65.0394385215613	0
4.93	65.2268822100932	0	1	0	1	0	65.2268822100932	0
