# GHZ S RI R 50
1	66.1737633485267	0	1	0	1	0	66.1737633485267	0
1.01	65.6050469817844	0	1	0	1	0	65.6050469817844	0
1.02	65.0485572583853	0	1	0	1	0	65.0485572583853	0
1.03	64.5039486060861	0	1	0	1	0	64.5039486060861	0
1.04	63.9708887438839	0	1	0	1	0	63.9708887438839	0
1.05	63.4490580490995	0	1	0	1	0	63.4490580490995	0
1.06	62.9381489602871	0	1	0	1	0	62.9381489602871	0
1.07	62.4378654136248	0	1	0	1	0	62.4378654136248	0
1.08	61.9479223106176	0	1	0	1	0	61.9479223106176	0
1.09	61.4680450151006	0	1	0	1	0	61.4680450151006	0
1.1	60.9979688776783	0	1	0	1	0	60.9979688776783	0
1.11	60.5374387858708	0	1	0	1	0	60.5374387858708	0
1.12	60.0862087383577	0	1	0	1	0	60.0862087383577	0
1.13	59.6440414418303	0	1	0	1	0	59.6440414418303	0
1.14	59.2107079290606	0	1	0	1	0	59.2107079290606	0
1.15	58.7859871968985	0	1	0	1	0	58.7859871968985	0
1.16	58.3696658629919	0	1	0	1	0	58.3696658629919	0
1.17	57.9615378401118	0	1	0	1	0	57.9615378401118	0
1.18	57.5614040270371	0	1	0	1	0	57.5614040270371	0
1.19	57.1690720150248	0	1	0	1	0	57.1690720150248	0
1.2	56.7843558089563	0	1	0	1	0	56.7843558089563	0
1.21	56.4070755623125	0	1	0	1	0	56.4070755623125	0
1.22	56.037057325181	0	1	0	1	0	56.037057325181	0
1.23	55.6741328045573	0	1	0	1	0	55.6741328045573	0
1.24	55.3181391362437	0	1	0	1	0	55.3181391362437	0
1.25	54.9689186676965	0	1	0	1	0	54.9689186676965	0
1.26	54.6263187512148	0	1	0	1	0	54.6263187512148	0
1.27	54.2901915468993	0	1	0	1	0	54.2901915468993	0
1.28	53.9603938348476	0	1	0	1	0	53.9603938348476	0
1.29	53.6367868360844	0	1	0	1	0	53.6367868360844	0
1.3	53.3192360417568	0	1	0	1	0	53.3192360417568	0
1.31	53.0076110501525	0	1	0	1	0	53.0076110501525	0
1.32	52.701785411126	0	1	0	1	0	52.701785411126	0
1.33	52.401636477544	0	1	0	1	0	52.401636477544	0
1.34	52.1070452633815	0	1	0	1	0	52.1070452633815	0
1.35	51.8178963081253	0	1	0	1	0	51.8178963081253	0
1.36	51.5340775471597	0	1	0	1	0	51.5340775471597	0
1.37	51.2554801878287	0	1	0	1	0	51.2554801878287	0
1.38	50.9819985908863	0	1	0	1	0	50.9819985908863	0
1.39	50.7135301570653	0	1	0	1	0	50.7135301570653	0
1.4	50.4499752185057	0	1	0	1	0	50.4499752185057	0
1.41	50.1912369348046	0	1	0	1	0	50.1912369348046	0
1.42	49.937221193458	0	1	0	1	0	49.937221193458	0
1.43	49.6878365144792	0	1	0	1	0	49.6878365144792	0
1.44	49.4429939589925	0	1	0	1	0	49.4429939589925	0
1.45	49.2026070416082	0	1	0	1	0	49.2026070416082	0
1.46	48.9665916463995	0	1	0	1	0	48.9665916463995	0
1.47	48.7348659463083	0	1	0	1	0	48.7348659463083	0
1.48	48.5073503258186	0	1	0	1	0	48.5073503258186	0
1.49	48.2839673067437	0	1	0	1	0	48.2839673067437	0
1.5	48.0646414769818	0	1	0	1	0	48.0646414769818	0
1.51	47.8492994221028	0	1	0	1	0	47.8492994221028	0
1.52	47.6378696596352	0	1	0	1	0	47.6378696596352	0
1.53	47.4302825759304	0	1	0	1	0	47.4302825759304	0
1.54	47.2264703654864	0	1	0	1	0	47.2264703654864	0
1.55	47.0263669726205	0	1	0	1	0	47.0263669726205	0
1.56	46.8299080353858	0	1	0	1	0	46.8299080353858	0
1.57	46.6370308316299	0	1	0	1	0	46.6370308316299	0
1.58	46.4476742271031	0	1	0	1	0	46.4476742271031	0
1.59	46.2617786255243	0	1	0	1	0	46.2617786255243	0
1.6	46.0792859205193	0	1	0	1	0	46.0792859205193	0
1.61	45.9001394493508	0	1	0	1	0	45.9001394493508	0
1.62	45.724283948361	0	1	0	1	0	45.724283948361	0
1.63	45.551665510056	0	1	0	1	0	45.551665510056	0
1.64	45.3822315417582	0	1	0	1	0	45.3822315417582	0
1.65	45.2159307257647	0	1	0	1	0	45.2159307257647	0
1.66	45.0527129809432	0	1	0	1	0	45.0527129809432	0
1.67	44.8925294257097	0	1	0	1	0	44.8925294257097	0
1.68	44.7353323423275	0	1	0	1	0	44.7353323423275	0
1.69	44.5810751424736	0	1	0	1	0	44.5810751424736	0
1.7	44.429712334021	0	1	0	1	0	44.429712334021	0
1.71	44.281199488986	0	1	0	1	0	44.281199488986	0
1.72	44.1354932125938	0	1	0	1	0	44.1354932125938	0
1.73	43.9925511134169	0	1	0	1	0	43.9925511134169	0
1.74	43.8523317745435	0	1	0	1	0	43.8523317745435	0
1.75	43.7147947257341	0	1	0	1	0	43.7147947257341	0
1.76	43.5799004165271	0	1	0	1	0	43.5799004165271	0
1.77	43.4476101902571	0	1	0	1	0	43.4476101902571	0
1.78	43.3178862589473	0	1	0	1	0	43.3178862589473	0
1.79	43.1906916790454	0	1	0	1	0	43.1906916790454	0
1.8	43.0659903279666	0	1	0	1	0	43.0659903279666	0
1.81	42.9437468814155	0	1	0	1	0	42.9437468814155	0
1.82	42.8239267914548	0	1	0	1	0	42.8239267914548	0
1.83	42.7064962652932	0	1	0	1	0	42.7064962652932	0
1.84	42.5914222447655	0	1	0	1	0	42.5914222447655	0
1.85	42.4786723864775	0	1	0	1	0	42.4786723864775	0
1.86	42.3682150425919	0	1	0	1	0	42.3682150425919	0
1.87	42.2600192422306	0	1	0	1	0	42.2600192422306	0
1.88	42.1540546734702	0	1	0	1	0	42.1540546734702	0
1.89	42.0502916659096	0	1	0	1	0	42.0502916659096	0
1.9	41.9487011737876	0	1	0	1	0	41.9487011737876	0
1.91	41.8492547596313	0	1	0	1	0	41.8492547596313	0
1.92	41.7519245784151	0	1	0	1	0	41.7519245784151	0
1.93	41.6566833622124	0	1	0	1	0	41.6566833622124	0
1.94	41.563504405322	0	1	0	1	0	41.563504405322	0
1.95	41.4723615498517	0	1	0	1	0	41.4723615498517	0
1.96	41.383229171744	0	1	0	1	0	41.383229171744	0
1.97	41.2960821672268	0	1	0	1	0	41.2960821672268	0
1.98	41.2108959396749	0	1	0	1	0	41.2108959396749	0
1.99	41.1276463868678	0	1	0	1	0	41.1276463868678	0
2	41.046309888629	0	1	0	1	0	41.046309888629	0
2.01	40.9668632948357	0	1	0	1	0	40.9668632948357	0
2.02	40.8892839137832	0	1	0	1	0	40.8892839137832	0
2.03	40.8135495008939	0	1	0	1	0	40.8135495008939	0
2.04	40.7396382477584	0	1	0	1	0	40.7396382477584	0
2.05	40.6675287714975	0	1	0	1	0	40.6675287714975	0
2.06	40.5972001044332	0	1	0	1	0	40.5972001044332	0
2.07	40.5286316840601	0	1	0	1	0	40.5286316840601	0
2.08	40.4618033433059	0	1	0	1	0	40.4618033433059	0
2.09	40.3966953010705	0	1	0	1	0	40.3966953010705	0
2.1	40.333288153037	0	1	0	1	0	40.333288153037	0
2.11	40.2715628627428	0	1	0	1	0	40.2715628627428	0
2.12	40.2115007529037	0	1	0	1	0	40.2115007529037	0
2.13	40.1530834969827	0	1	0	1	0	40.1530834969827	0
2.14	40.0962931109949	0	1	0	1	0	40.0962931109949	0
2.15	40.0411119455412	0	1	0	1	0	40.0411119455412	0
2.16	39.9875226780631	0	1	0	1	0	39.9875226780631	0
2.17	39.9355083053122	0	1	0	1	0	39.9355083053122	0
2.18	39.885052136026	0	1	0	1	0	39.885052136026	0
2.19	39.8361377838053	0	1	0	1	0	39.8361377838053	0
2.2	39.7887491601857	0	1	0	1	0	39.7887491601857	0
2.21	39.7428704678964	0	1	0	1	0	39.7428704678964	0
2.22	39.6984861943023	0	1	0	1	0	39.6984861943023	0
2.23	39.6555811050217	0	1	0	1	0	39.6555811050217	0
2.24	39.6141402377156	0	1	0	1	0	39.6141402377156	0
2.25	39.574148896042	0	1	0	1	0	39.574148896042	0
2.26	39.5355926437713	0	1	0	1	0	39.5355926437713	0
2.27	39.4984572990566	0	1	0	1	0	39.4984572990566	0
2.28	39.4627289288554	0	1	0	1	0	39.4627289288554	0
2.29	39.4283938434972	0	1	0	1	0	39.4283938434972	0
2.3	39.3954385913927	0	1	0	1	0	39.3954385913927	0
2.31	39.3638499538805	0	1	0	1	0	39.3638499538805	0
2.32	39.3336149402073	0	1	0	1	0	39.3336149402073	0
2.33	39.3047207826368	0	1	0	1	0	39.3047207826368	0
2.34	39.2771549316846	0	1	0	1	0	39.2771549316846	0
2.35	39.2509050514749	0	1	0	1	0	39.2509050514749	0
2.36	39.2259590152142	0	1	0	1	0	39.2259590152142	0
2.37	39.2023049007807	0	1	0	1	0	39.2023049007807	0
2.38	39.1799309864244	0	1	0	1	0	39.1799309864244	0
2.39	39.1588257465753	0	1	0	1	0	39.1588257465753	0
2.4	39.1389778477561	0	1	0	1	0	39.1389778477561	0
2.41	39.1203761445972	0	1	0	1	0	39.1203761445972	0
2.42	39.1030096759496	0	1	0	1	0	39.1030096759496	0
2.43	39.0868676610953	0	1	0	1	0	39.0868676610953	0
2.44	39.0719394960488	0	1	0	1	0	39.0719394960488	0
2.45	39.0582147499514	0	1	0	1	0	39.0582147499514	0
2.46	39.0456831615514	0	1	0	1	0	39.0456831615514	0
2.47	39.0343346357717	0	1	0	1	0	39.0343346357717	0
2.48	39.0241592403585	0	1	0	1	0	39.0241592403585	0
2.49	39.0151472026128	0	1	0	1	0	39.0151472026128	0
2.5	39.0072889061984	0	1	0	1	0	39.0072889061984	0
2.51	39.0005748880276	0	1	0	1	0	39.0005748880276	0
2.52	38.9949958352205	0	1	0	1	0	38.9949958352205	0
2.53	38.9905425821363	0	1	0	1	0	38.9905425821363	0
2.54	38.9872061074752	0	1	0	1	0	38.9872061074752	0
2.55	38.9849775314477	0	1	0	1	0	38.9849775314477	0
2.56	38.9838481130113	0	1	0	1	0	38.9838481130113	0
2.57	38.9838092471706	0	1	0	1	0	38.9838092471706	0
2.58	38.9848524623412	0	1	0	1	0	38.9848524623412	0
2.59	38.9869694177738	0	1	0	1	0	38.9869694177738	0
2.6	38.9901519010384	0	1	0	1	0	38.9901519010384	0
2.61	38.994391825566	0	1	0	1	0	38.994391825566	0
2.62	38.9996812282467	0	1	0	1	0	38.9996812282467	0
2.63	39.0060122670825	0	1	0	1	0	39.0060122670825	0
2.64	39.0133772188935	0	1	0	1	0	39.0133772188935	0
2.65	39.0217684770761	0	1	0	1	0	39.0217684770761	0
2.66	39.0311785494119	0	1	0	1	0	39.0311785494119	0
2.67	39.0416000559254	0	1	0	1	0	39.0416000559254	0
2.68	39.0530257267897	0	1	0	1	0	39.0530257267897	0
2.69	39.0654484002798	0	1	0	1	0	39.0654484002798	0
2.7	39.0788610207701	0	1	0	1	0	39.0788610207701	0
2.71	39.0932566367772	0	1	0	1	0	39.0932566367772	0
2.72	39.1086283990453	0	1	0	1	0	39.1086283990453	0
2.73	39.1249695586741	0	1	0	1	0	39.1249695586741	0
2.74	39.1422734652873	0	1	0	1	0	39.1422734652873	0
2.75	39.1605335652414	0	1	0	1	0	39.1605335652414	0
2.76	39.1797433998731	0	1	0	1	0	39.1797433998731	0
2.77	39.1998966037853	0	1	0	1	0	39.1998966037853	0
2.78	39.2209869031691	0	1	0	1	0	39.2209869031691	0
2.79	39.2430081141628	0	1	0	1	0	39.2430081141628	0
2.8	39.2659541412454	0	1	0	1	0	39.2659541412454	0
2.81	39.289818975665	0	1	0	1	0	39.289818975665	0
2.82	39.3145966939004	0	1	0	1	0	39.3145966939004	0
2.83	39.3402814561547	0	1	0	1	0	39.3402814561547	0
2.84	39.3668675048821	0	1	0	1	0	39.3668675048821	0
2.85	39.3943491633441	0	1	0	1	0	39.3943491633441	0
2.86	39.4227208341973	0	1	0	1	0	39.4227208341973	0
2.87	39.45197699811	0	1	0	1	0	39.45197699811	0
2.88	39.482112212408	0	1	0	1	0	39.482112212408	0
2.89	39.513121109748	0	1	0	1	0	39.513121109748	0
2.9	39.5449983968194	0	1	0	1	0	39.5449983968194	0
2.91	39.5777388530715	0	1	0	1	0	39.5777388530715	0
2.92	39.6113373294681	0	1	0	1	0	39.6113373294681	0
2.93	39.6457887472672	0	1	0	1	0	39.6457887472672	0
2.94	39.6810880968251	0	1	0	1	0	39.6810880968251	0
2.95	39.7172304364255	0	1	0	1	0	39.7172304364255	0
2.96	39.7542108911323	0	1	0	1	0	39.7542108911323	0
2.97	39.7920246516647	0	1	0	1	0	39.7920246516647	0
2.98	39.8306669732964	0	1	0	1	0	39.8306669732964	0
2.99	39.8701331747754	0	1	0	1	0	39.8701331747754	0
3	39.9104186372665	0	1	0	1	0	39.9104186372665	0
3.01	39.9515188033145	0	1	0	1	0	39.9515188033145	0
3.02	39.9934291758276	0	1	0	1	0	39.9934291758276	0
3.03	40.0361453170818	0	1	0	1	0	40.0361453170818	0
3.04	40.0796628477439	0	1	0	1	0	40.0796628477439	0
3.05	40.123977445915	0	1	0	1	0	40.123977445915	0
3.06	40.1690848461911	0	1	0	1	0	40.1690848461911	0
3.07	40.214980838744	0	1	0	1	0	40.214980838744	0
3.08	40.2616612684182	0	1	0	1	0	40.2616612684182	0
3.09	40.3091220338469	0	1	0	1	0	40.3091220338469	0
3.1	40.3573590865839	0	1	0	1	0	40.3573590865839	0
3.11	40.4063684302533	0	1	0	1	0	40.4063684302533	0
3.12	40.4561461197147	0	1	0	1	0	40.4561461197147	0
3.13	40.5066882602447	0	1	0	1	0	40.5066882602447	0
3.14	40.5579910067343	0	1	0	1	0	40.5579910067343	0
3.15	40.6100505629015	0	1	0	1	0	40.6100505629015	0
3.16	40.6628631805181	0	1	0	1	0	40.6628631805181	0
3.17	40.7164251586524	0	1	0	1	0	40.7164251586524	0
3.18	40.7707328429253	0	1	0	1	0	40.7707328429253	0
3.19	40.8257826247806	0	1	0	1	0	40.8257826247806	0
3.2	40.881570940769	0	1	0	1	0	40.881570940769	0
3.21	40.9380942718456	0	1	0	1	0	40.9380942718456	0
3.22	40.9953491426804	0	1	0	1	0	40.9953491426804	0
3.23	41.0533321209814	0	1	0	1	0	41.0533321209814	0
3.24	41.1120398168306	0	1	0	1	0	41.1120398168306	0
3.25	41.1714688820324	0	1	0	1	0	41.1714688820324	0
3.26	41.2316160094728	0	1	0	1	0	41.2316160094728	0
3.27	41.2924779324921	0	1	0	1	0	41.2924779324921	0
3.28	41.3540514242681	0	1	0	1	0	41.3540514242681	0
3.29	41.41633329721	0	1	0	1	0	41.41633329721	0
3.3	41.479320402365	0	1	0	1	0	41.479320402365	0
3.31	41.5430096288336	0	1	0	1	0	41.5430096288336	0
3.32	41.6073979031974	0	1	0	1	0	41.6073979031974	0
3.33	41.6724821889557	0	1	0	1	0	41.6724821889557	0
3.34	41.7382594859733	0	1	0	1	0	41.7382594859733	0
3.35	41.8047268299373	0	1	0	1	0	41.8047268299373	0
3.36	41.8718812918244	0	1	0	1	0	41.8718812918244	0
3.37	41.939719977377	0	1	0	1	0	41.939719977377	0
3.38	42.0082400265891	0	1	0	1	0	42.0082400265891	0
3.39	42.0774386132013	0	1	0	1	0	42.0774386132013	0
3.4	42.1473129442041	0	1	0	1	0	42.1473129442041	0
3.41	42.2178602593505	0	1	0	1	0	42.2178602593505	0
3.42	42.2890778306773	0	1	0	1	0	42.2890778306773	0
3.43	42.3609629620342	0	1	0	1	0	42.3609629620342	0
3.44	42.4335129886214	0	1	0	1	0	42.4335129886214	0
3.45	42.5067252765354	0	1	0	1	0	42.5067252765354	0
3.46	42.5805972223226	0	1	0	1	0	42.5805972223226	0
3.47	42.6551262525402	0	1	0	1	0	42.6551262525402	0
3.48	42.7303098233252	0	1	0	1	0	42.7303098233252	0
3.49	42.8061454199706	0	1	0	1	0	42.8061454199706	0
3.5	42.8826305565092	0	1	0	1	0	42.8826305565092	0
3.51	42.9597627753035	0	1	0	1	0	42.9597627753035	0
3.52	43.0375396466439	0	1	0	1	0	43.0375396466439	0
3.53	43.1159587683531	0	1	0	1	0	43.1159587683531	0
3.54	43.1950177653966	0	1	0	1	0	43.1950177653966	0
3.55	43.2747142895013	0	1	0	1	0	43.2747142895013	0
3.56	43.355046018779	0	1	0	1	0	43.355046018779	0
3.57	43.436010657357	0	1	0	1	0	43.436010657357	0
3.58	43.5176059350148	0	1	0	1	0	43.5176059350148	0
3.59	43.599829606827	0	1	0	1	0	43.599829606827	0
3.6	43.6826794528117	0	1	0	1	0	43.6826794528117	0
3.61	43.7661532775851	0	1	0	1	0	43.7661532775851	0
3.62	43.8502489100219	0	1	0	1	0	43.8502489100219	0
3.63	43.934964202921	0	1	0	1	0	43.934964202921	0
3.64	44.0202970326768	0	1	0	1	0	44.0202970326768	0
3.65	44.1062452989563	0	1	0	1	0	44.1062452989563	0
3.66	44.1928069243807	0	1	0	1	0	44.1928069243807	0
3.67	44.2799798542133	0	1	0	1	0	44.2799798542133	0
3.68	44.3677620560512	0	1	0	1	0	44.3677620560512	0
3.69	44.4561515195229	0	1	0	1	0	44.4561515195229	0
3.7	44.5451462559909	0	1	0	1	0	44.5451462559909	0
3.71	44.6347442982585	0	1	0	1	0	44.6347442982585	0
3.72	44.7249437002814	0	1	0	1	0	44.7249437002814	0
3.73	44.8157425368848	0	1	0	1	0	44.8157425368848	0
3.74	44.9071389034836	0	1	0	1	0	44.9071389034836	0
3.75	44.9991309158085	0	1	0	1	0	44.9991309158085	0
3.76	45.0917167096357	0	1	0	1	0	45.0917167096357	0
3.77	45.1848944405207	0	1	0	1	0	45.1848944405207	0
3.78	45.2786622835372	0	1	0	1	0	45.2786622835372	0
3.79	45.3730184330191	0	1	0	1	0	45.3730184330191	0
3.8	45.4679611023075	0	1	0	1	0	45.4679611023075	0
3.81	45.563488523501	0	1	0	1	0	45.563488523501	0
3.82	45.6595989472102	0	1	0	1	0	45.6595989472102	0
3.83	45.7562906423161	0	1	0	1	0	45.7562906423161	0
3.84	45.8535618957324	0	1	0	1	0	45.8535618957324	0
3.85	45.9514110121708	0	1	0	1	0	45.9514110121708	0
3.86	46.0498363139109	0	1	0	1	0	46.0498363139109	0
3.87	46.1488361405731	0	1	0	1	0	46.1488361405731	0
3.88	46.248408848895	0	1	0	1	0	46.248408848895	0
3.89	46.3485528125117	0	1	0	1	0	46.3485528125117	0
3.9	46.4492664217387	0	1	0	1	0	46.4492664217387	0
3.91	46.5505480833591	0	1	0	1	0	46.5505480833591	0
3.92	46.6523962204132	0	1	0	1	0	46.6523962204132	0
3.93	46.7548092719918	0	1	0	1	0	46.7548092719918	0
3.94	46.8577856930324	0	1	0	1	0	46.8577856930324	0
3.95	46.961323954119	0	1	0	1	0	46.961323954119	0
3.96	47.0654225412839	0	1	0	1	0	47.0654225412839	0
3.97	47.1700799558136	0	1	0	1	0	47.1700799558136	0
3.98	47.2752947140571	0	1	0	1	0	47.2752947140571	0
3.99	47.3810653472372	0	1	0	1	0	47.3810653472372	0
4	47.4873904012641	0	1	0	1	0	47.4873904012641	0
4.01	47.5942684365531	0	1	0	1	0	47.5942684365531	0
4.02	47.7016980278433	0	1	0	1	0	47.7016980278433	0
4.03	47.8096777640207	0	1	0	1	0	47.8096777640207	0
4.04	47.9182062479425	0	1	0	1	0	47.9182062479425	0
4.05	48.0272820962647	0	1	0	1	0	48.0272820962647	0
4.06	48.1369039392727	0	1	0	1	0	48.1369039392727	0
4.07	48.2470704207131	0	1	0	1	0	48.2470704207131	0
4.08	48.3577801976294	0	1	0	1	0	48.3577801976294	0
4.09	48.4690319401988	0	1	0	1	0	48.4690319401988	0
4.1	48.5808243315728	0	1	0	1	0	48.5808243315728	0
4.11	48.6931560677186	0	1	0	1	0	48.6931560677186	0
4.12	48.806025857264	0	1	0	1	0	48.806025857264	0
4.13	48.9194324213442	0	1	0	1	0	48.9194324213442	0
4.14	49.0333744934504	0	1	0	1	0	49.0333744934504	0
4.15	49.1478508192812	0	1	0	1	0	49.1478508192812	0
4.16	49.2628601565957	0	1	0	1	0	49.2628601565957	0
4.17	49.3784012750691	0	1	0	1	0	49.3784012750691	0
4.18	49.4944729561499	0	1	0	1	0	49.4944729561499	0
4.19	49.6110739929198	0	1	0	1	0	49.6110739929198	0
4.2	49.7282031899546	0	1	0	1	0	49.7282031899546	0
4.21	49.8458593631884	0	1	0	1	0	49.8458593631884	0
4.22	49.9640413397784	0	1	0	1	0	49.9640413397784	0
4.23	50.0827479579727	0	1	0	1	0	50.0827479579727	0
4.24	50.2019780669793	0	1	0	1	0	50.2019780669793	0
4.25	50.321730526837	0	1	0	1	0	50.321730526837	0
4.26	50.4420042082887	0	1	0	1	0	50.4420042082887	0
4.27	50.5627979926557	0	1	0	1	0	50.5627979926557	0
4.28	50.6841107717143	0	1	0	1	0	50.6841107717143	0
4.29	50.8059414475737	0	1	0	1	0	50.8059414475737	0
4.3	50.9282889325564	0	1	0	1	0	50.9282889325564	0
4.31	51.051152149079	0	1	0	1	0	51.051152149079	0
4.32	51.1745300295358	0	1	0	1	0	51.1745300295358	0
4.33	51.2984215161838	0	1	0	1	0	51.2984215161838	0
4.34	51.4228255610283	0	1	0	1	0	51.4228255610283	0
4.35	51.5477411257118	0	1	0	1	0	51.5477411257118	0
4.36	51.6731671814026	0	1	0	1	0	51.6731671814026	0
4.37	51.7991027086867	0	1	0	1	0	51.7991027086867	0
4.38	51.9255466974593	0	1	0	1	0	51.9255466974593	0
4.39	52.0524981468197	0	1	0	1	0	52.0524981468197	0
4.4	52.179956064966	0	1	0	1	0	52.179956064966	0
4.41	52.3079194690924	0	1	0	1	0	52.3079194690924	0
4.42	52.4363873852873	0	1	0	1	0	52.4363873852873	0
4.43	52.5653588484328	0	1	0	1	0	52.5653588484328	0
4.44	52.6948329021057	0	1	0	1	0	52.6948329021057	0
4.45	52.8248085984801	0	1	0	1	0	52.8248085984801	0
4.46	52.9552849982305	0	1	0	1	0	52.9552849982305	0
4.47	53.0862611704371	0	1	0	1	0	53.0862611704371	0
4.48	53.2177361924919	0	1	0	1	0	53.2177361924919	0
4.49	53.3497091500062	0	1	0	1	0	53.3497091500062	0
4.5	53.4821791367191	0	1	0	1	0	53.4821791367191	0
4.51	53.6151452544076	0	1	0	1	0	53.6151452544076	0
4.52	53.7486066127973	0	1	0	1	0	53.7486066127973	0
4.53	53.8825623294752	0	1	0	1	0	53.8825623294752	0
4.54	54.0170115298029	0	1	0	1	0	54.0170115298029	0
4.55	54.151953346831	0	1	0	1	0	54.151953346831	0
4.56	54.2873869212149	0	1	0	1	0	54.2873869212149	0
4.57	54.4233114011316	0	1	0	1	0	54.4233114011316	0
4.58	54.5597259421978	0	1	0	1	0	54.5597259421978	0
4.59	54.6966297073885	0	1	0	1	0	54.6966297073885	0
4.6	54.8340218669571	0	1	0	1	0	54.8340218669571	0
4.61	54.9719015983567	0	1	0	1	0	54.9719015983567	0
4.62	55.1102680861621	0	1	0	1	0	55.1102680861621	0
4.63	55.2491205219924	0	1	0	1	0	55.2491205219924	0
4.64	55.388458104436	0	1	0	1	0	55.388458104436	0
4.65	55.5282800389748	0	1	0	1	0	55.5282800389748	0
4.66	55.6685855379107	0	1	0	1	0	55.6685855379107	0
4.67	55.8093738202927	0	1	0	1	0	55.8093738202927	0
4.68	55.9506441118442	0	1	0	1	0	55.9506441118442	0
4.69	56.0923956448926	0	1	0	1	0	56.0923956448926	0
4.7	56.2346276582985	0	1	0	1	0	56.2346276582985	0
4.71	56.3773393973864	0	1	0	1	0	56.3773393973864	0
4.72	56.5205301138767	0	1	0	1	0	56.5205301138767	0
4.73	56.6641990658174	0	1	0	1	0	56.6641990658174	0
4.74	56.808345517518	0	1	0	1	0	56.808345517518	0
4.75	56.952968739483	0	1	0	1	0	56.952968739483	0
4.76	57.0980680083474	0	1	0	1	0	57.0980680083474	0
4.77	57.243642606812	0	1	0	1	0	57.243642606812	0
4.78	57.38969182358	0	1	0	1	0	57.38969182358	0
4.79	57.5362149532946	0	1	0	1	0	57.5362149532946	0
4.8	57.683211296477	0	1	0	1	0	57.683211296477	0
4.81	57.8306801594651	0	1	0	1	0	57.8306801594651	0
4.82	57.9786208543536	0	1	0	1	0	57.9786208543536	0
4.83	58.1270326989338	0	1	0	1	0	58.1270326989338	0
4.84	58.2759150166354	0	1	0	1	0	58.2759150166354	0
4.85	58.4252671364679	0	1	0	1	0	58.4252671364679	0
4.86	58.5750883929633	0	1	0	1	0	58.5750883929633	0
4.87	58.7253781261197	0	1	0	1	0	58.7253781261197	0
4.88	58.8761356813447	0	1	0	1	0	58.8761356813447	0
4.89	59.0273604094008	0	1	0	1	0	59.0273604094008	0
4.9	59.1790516663501	0	1	0	1	0	59.1790516663501	0
4.91	59.3312088135008	0	1	0	1	0	59.3312088135008	0
4.92	59.4838312173538	0	1	0	1	0	59.4838312173538	0
4.93	59.6369182495496	0	1	0	1	0	59.6369182495496	0
