# GHZ S RI R 50
1	57.2168819832181	0	1	0	1	0	57.2168819832181	0
1.01	56.7509629477754	0	1	0	1	0	56.7509629477754	0
1.02	56.2954625129596	0	1	0	1	0	56.2954625129596	0
1.03	55.8500898033697	0	1	0	1	0	55.8500898033697	0
1.04	55.41456513112	0	1	0	1	0	55.41456513112	0
1.05	54.9886194631016	0	1	0	1	0	54.9886194631016	0
1.06	54.5719939183982	0	1	0	1	0	54.5719939183982	0
1.07	54.1644392938849	0	1	0	1	0	54.1644392938849	0
1.08	53.7657156161821	0	1	0	1	0	53.7657156161821	0
1.09	53.3755917182728	0	1	0	1	0	53.3755917182728	0
1.1	52.9938448392133	0	1	0	1	0	52.9938448392133	0
1.11	52.6202602454812	0	1	0	1	0	52.6202602454812	0
1.12	52.2546308726087	0	1	0	1	0	52.2546308726087	0
1.13	51.8967569858435	0	1	0	1	0	51.8967569858435	0
1.14	51.5464458586702	0	1	0	1	0	51.5464458586702	0
1.15	51.2035114681047	0	1	0	1	0	51.2035114681047	0
1.16	50.867774205748	0	1	0	1	0	50.867774205748	0
1.17	50.5390606036597	0	1	0	1	0	50.5390606036597	0
1.18	50.2172030741683	0	1	0	1	0	50.2172030741683	0
1.19	49.9020396628013	0	1	0	1	0	49.9020396628013	0
1.2	49.5934138135688	0	1	0	1	0	49.5934138135688	0
1.21	49.2911741458855	0	1	0	1	0	49.2911741458855	0
1.22	48.9951742424638	0	1	0	1	0	48.9951742424638	0
1.23	48.7052724475541	0	1	0	1	0	48.7052724475541	0
1.24	48.421331674947	0	1	0	1	0	48.421331674947	0
1.25	48.1432192251918	0	1	0	1	0	48.1432192251918	0
1.26	47.8708066115189	0	1	0	1	0	47.8708066115189	0
1.27	47.603969393986	0	1	0	1	0	47.603969393986	0
1.28	47.3425870213989	0	1	0	1	0	47.3425870213989	0
1.29	47.0865426805851	0	1	0	1	0	47.0865426805851	0
1.3	46.8357231526234	0	1	0	1	0	46.8357231526234	0
1.31	46.5900186756591	0	1	0	1	0	46.5900186756591	0
1.32	46.3493228139541	0	1	0	1	0	46.3493228139541	0
1.33	46.1135323328453	0	1	0	1	0	46.1135323328453	0
1.34	45.8825470793012	0	1	0	1	0	45.8825470793012	0
1.35	45.6562698677876	0	1	0	1	0	45.6562698677876	0
1.36	45.4346063711683	0	1	0	1	0	45.4346063711683	0
1.37	45.2174650163841	0	1	0	1	0	45.2174650163841	0
1.38	45.0047568846675	0	1	0	1	0	45.0047568846675	0
1.39	44.7963956160643	0	1	0	1	0	44.7963956160643	0
1.4	44.5922973180475	0	1	0	1	0	44.5922973180475	0
1.41	44.3923804780202	0	1	0	1	0	44.3923804780202	0
1.42	44.1965658795148	0	1	0	1	0	44.1965658795148	0
1.43	44.0047765219089	0	1	0	1	0	44.0047765219089	0
1.44	43.8169375434864	0	1	0	1	0	43.8169375434864	0
1.45	43.6329761476821	0	1	0	1	0	43.6329761476821	0
1.46	43.4528215323569	0	1	0	1	0	43.4528215323569	0
1.47	43.2764048219607	0	1	0	1	0	43.2764048219607	0
1.48	43.103659002445	0	1	0	1	0	43.103659002445	0
1.49	42.9345188587957	0	1	0	1	0	42.9345188587957	0
1.5	42.7689209150661	0	1	0	1	0	42.7689209150661	0
1.51	42.6068033767913	0	1	0	1	0	42.6068033767913	0
1.52	42.4481060756768	0	1	0	1	0	42.4481060756768	0
1.53	42.292770416455	0	1	0	1	0	42.292770416455	0
1.54	42.1407393258138	0	1	0	1	0	42.1407393258138	0
1.55	41.9919572033003	0	1	0	1	0	41.9919572033003	0
1.56	41.8463698741146	0	1	0	1	0	41.8463698741146	0
1.57	41.7039245437062	0	1	0	1	0	41.7039245437062	0
1.58	41.5645697540957	0	1	0	1	0	41.5645697540957	0
1.59	41.4282553418439	0	1	0	1	0	41.4282553418439	0
1.6	41.2949323975978	0	1	0	1	0	41.2949323975978	0
1.61	41.1645532271435	0	1	0	1	0	41.1645532271435	0
1.62	41.0370713139018	0	1	0	1	0	41.0370713139018	0
1.63	40.9124412828049	0	1	0	1	0	40.9124412828049	0
1.64	40.790618865494	0	1	0	1	0	40.790618865494	0
1.65	40.6715608667824	0	1	0	1	0	40.6715608667824	0
1.66	40.5552251323315	0	1	0	1	0	40.5552251323315	0
1.67	40.4415705174873	0	1	0	1	0	40.4415705174873	0
1.68	40.3305568572305	0	1	0	1	0	40.3305568572305	0
1.69	40.2221449371932	0	1	0	1	0	40.2221449371932	0
1.7	40.1162964656983	0	1	0	1	0	40.1162964656983	0
1.71	40.0129740467807	0	1	0	1	0	40.0129740467807	0
1.72	39.9121411541488	0	1	0	1	0	39.9121411541488	0
1.73	39.8137621060494	0	1	0	1	0	39.8137621060494	0
1.74	39.7178020409997	0	1	0	1	0	39.7178020409997	0
1.75	39.6242268943507	0	1	0	1	0	39.6242268943507	0
1.76	39.53300337565	0	1	0	1	0	39.53300337565	0
1.77	39.4440989467717	0	1	0	1	0	39.4440989467717	0
1.78	39.3574818007838	0	1	0	1	0	39.3574818007838	0
1.79	39.2731208415239	0	1	0	1	0	39.2731208415239	0
1.8	39.1909856638551	0	1	0	1	0	39.1909856638551	0
1.81	39.1110465345776	0	1	0	1	0	39.1110465345776	0
1.82	39.0332743739682	0	1	0	1	0	39.0332743739682	0
1.83	38.9576407379262	0	1	0	1	0	38.9576407379262	0
1.84	38.8841178007009	0	1	0	1	0	38.8841178007009	0
1.85	38.8126783381796	0	1	0	1	0	38.8126783381796	0
1.86	38.743295711714	0	1	0	1	0	38.743295711714	0
1.87	38.675943852467	0	1	0	1	0	38.675943852467	0
1.88	38.6105972462571	0	1	0	1	0	38.6105972462571	0
1.89	38.5472309188857	0	1	0	1	0	38.5472309188857	0
1.9	38.4858204219269	0	1	0	1	0	38.4858204219269	0
1.91	38.4263418189636	0	1	0	1	0	38.4263418189636	0
1.92	38.368771672254	0	1	0	1	0	38.368771672254	0
1.93	38.3130870298128	0	1	0	1	0	38.3130870298128	0
1.94	38.2592654128913	0	1	0	1	0	38.2592654128913	0
1.95	38.2072848038434	0	1	0	1	0	38.2072848038434	0
1.96	38.1571236343628	0	1	0	1	0	38.1571236343628	0
1.97	38.1087607740783	0	1	0	1	0	38.1087607740783	0
1.98	38.0621755194949	0	1	0	1	0	38.0621755194949	0
1.99	38.0173475832681	0	1	0	1	0	38.0173475832681	0
2	37.9742570838006	0	1	0	1	0	37.9742570838006	0
2.01	37.9328845351485	0	1	0	1	0	37.9328845351485	0
2.02	37.8932108372283	0	1	0	1	0	37.8932108372283	0
2.03	37.8552172663129	0	1	0	1	0	37.8552172663129	0
2.04	37.8188854658068	0	1	0	1	0	37.8188854658068	0
2.05	37.7841974372924	0	1	0	1	0	37.7841974372924	0
2.06	37.7511355318356	0	1	0	1	0	37.7511355318356	0
2.07	37.7196824415446	0	1	0	1	0	37.7196824415446	0
2.08	37.6898211913717	0	1	0	1	0	37.6898211913717	0
2.09	37.6615351311506	0	1	0	1	0	37.6615351311506	0
2.1	37.6348079278608	0	1	0	1	0	37.6348079278608	0
2.11	37.6096235581127	0	1	0	1	0	37.6096235581127	0
2.12	37.5859663008447	0	1	0	1	0	37.5859663008447	0
2.13	37.5638207302265	0	1	0	1	0	37.5638207302265	0
2.14	37.543171708761	0	1	0	1	0	37.543171708761	0
2.15	37.524004380579	0	1	0	1	0	37.524004380579	0
2.16	37.5063041649198	0	1	0	1	0	37.5063041649198	0
2.17	37.4900567497929	0	1	0	1	0	37.4900567497929	0
2.18	37.4752480858127	0	1	0	1	0	37.4752480858127	0
2.19	37.4618643802036	0	1	0	1	0	37.4618643802036	0
2.2	37.4498920909677	0	1	0	1	0	37.4498920909677	0
2.21	37.4393179212112	0	1	0	1	0	37.4393179212112	0
2.22	37.4301288136238	0	1	0	1	0	37.4301288136238	0
2.23	37.4223119451072	0	1	0	1	0	37.4223119451072	0
2.24	37.415854721547	0	1	0	1	0	37.415854721547	0
2.25	37.410744772724	0	1	0	1	0	37.410744772724	0
2.26	37.4069699473611	0	1	0	1	0	37.4069699473611	0
2.27	37.4045183083006	0	1	0	1	0	37.4045183083006	0
2.28	37.4033781278086	0	1	0	1	0	37.4033781278086	0
2.29	37.4035378830023	0	1	0	1	0	37.4035378830023	0
2.3	37.4049862513971	0	1	0	1	0	37.4049862513971	0
2.31	37.4077121065687	0	1	0	1	0	37.4077121065687	0
2.32	37.4117045139275	0	1	0	1	0	37.4117045139275	0
2.33	37.4169527266023	0	1	0	1	0	37.4169527266023	0
2.34	37.4234461814293	0	1	0	1	0	37.4234461814293	0
2.35	37.4311744950428	0	1	0	1	0	37.4311744950428	0
2.36	37.4401274600668	0	1	0	1	0	37.4401274600668	0
2.37	37.4502950414014	0	1	0	1	0	37.4502950414014	0
2.38	37.4616673726039	0	1	0	1	0	37.4616673726039	0
2.39	37.4742347523604	0	1	0	1	0	37.4742347523604	0
2.4	37.4879876410455	0	1	0	1	0	37.4879876410455	0
2.41	37.5029166573679	0	1	0	1	0	37.5029166573679	0
2.42	37.519012575099	0	1	0	1	0	37.519012575099	0
2.43	37.5362663198821	0	1	0	1	0	37.5362663198821	0
2.44	37.5546689661207	0	1	0	1	0	37.5546689661207	0
2.45	37.574211733942	0	1	0	1	0	37.574211733942	0
2.46	37.5948859862356	0	1	0	1	0	37.5948859862356	0
2.47	37.6166832257633	0	1	0	1	0	37.6166832257633	0
2.48	37.6395950923391	0	1	0	1	0	37.6395950923391	0
2.49	37.6636133600772	0	1	0	1	0	37.6636133600772	0
2.5	37.6887299347059	0	1	0	1	0	37.6887299347059	0
2.51	37.714936850946	0	1	0	1	0	37.714936850946	0
2.52	37.7422262699512	0	1	0	1	0	37.7422262699512	0
2.53	37.7705904768095	0	1	0	1	0	37.7705904768095	0
2.54	37.8000218781037	0	1	0	1	0	37.8000218781037	0
2.55	37.830512999529	0	1	0	1	0	37.830512999529	0
2.56	37.8620564835665	0	1	0	1	0	37.8620564835665	0
2.57	37.8946450872113	0	1	0	1	0	37.8946450872113	0
2.58	37.9282716797532	0	1	0	1	0	37.9282716797532	0
2.59	37.9629292406087	0	1	0	1	0	37.9629292406087	0
2.6	37.9986108572033	0	1	0	1	0	37.9986108572033	0
2.61	38.0353097229023	0	1	0	1	0	38.0353097229023	0
2.62	38.0730191349893	0	1	0	1	0	38.0730191349893	0
2.63	38.1117324926901	0	1	0	1	0	38.1117324926901	0
2.64	38.1514432952424	0	1	0	1	0	38.1514432952424	0
2.65	38.1921451400084	0	1	0	1	0	38.1921451400084	0
2.66	38.2338317206308	0	1	0	1	0	38.2338317206308	0
2.67	38.2764968252294	0	1	0	1	0	38.2764968252294	0
2.68	38.3201343346388	0	1	0	1	0	38.3201343346388	0
2.69	38.3647382206848	0	1	0	1	0	38.3647382206848	0
2.7	38.4103025444995	0	1	0	1	0	38.4103025444995	0
2.71	38.4568214548734	0	1	0	1	0	38.4568214548734	0
2.72	38.5042891866445	0	1	0	1	0	38.5042891866445	0
2.73	38.5527000591219	0	1	0	1	0	38.5527000591219	0
2.74	38.6020484745445	0	1	0	1	0	38.6020484745445	0
2.75	38.6523289165731	0	1	0	1	0	38.6523289165731	0
2.76	38.7035359488155	0	1	0	1	0	38.7035359488155	0
2.77	38.7556642133835	0	1	0	1	0	38.7556642133835	0
2.78	38.8087084294806	0	1	0	1	0	38.8087084294806	0
2.79	38.8626633920207	0	1	0	1	0	38.8626633920207	0
2.8	38.9175239702762	0	1	0	1	0	38.9175239702762	0
2.81	38.9732851065546	0	1	0	1	0	38.9732851065546	0
2.82	39.0299418149038	0	1	0	1	0	39.0299418149038	0
2.83	39.0874891798445	0	1	0	1	0	39.0874891798445	0
2.84	39.1459223551296	0	1	0	1	0	39.1459223551296	0
2.85	39.2052365625294	0	1	0	1	0	39.2052365625294	0
2.86	39.2654270906426	0	1	0	1	0	39.2654270906426	0
2.87	39.3264892937319	0	1	0	1	0	39.3264892937319	0
2.88	39.3884185905845	0	1	0	1	0	39.3884185905845	0
2.89	39.451210463395	0	1	0	1	0	39.451210463395	0
2.9	39.5148604566728	0	1	0	1	0	39.5148604566728	0
2.91	39.579364176171	0	1	0	1	0	39.579364176171	0
2.92	39.644717287838	0	1	0	1	0	39.644717287838	0
2.93	39.71091551679	0	1	0	1	0	39.71091551679	0
2.94	39.777954646305	0	1	0	1	0	39.777954646305	0
2.95	39.8458305168369	0	1	0	1	0	39.8458305168369	0
2.96	39.9145390250495	0	1	0	1	0	39.9145390250495	0
2.97	39.9840761228707	0	1	0	1	0	39.9840761228707	0
2.98	40.0544378165646	0	1	0	1	0	40.0544378165646	0
2.99	40.1256201658234	0	1	0	1	0	40.1256201658234	0
3	40.1976192828768	0	1	0	1	0	40.1976192828768	0
3.01	40.270431331619	0	1	0	1	0	40.270431331619	0
3.02	40.3440525267537	0	1	0	1	0	40.3440525267537	0
3.03	40.4184791329555	0	1	0	1	0	40.4184791329555	0
3.04	40.493707464048	0	1	0	1	0	40.493707464048	0
3.05	40.5697338821981	0	1	0	1	0	40.5697338821981	0
3.06	40.6465547971261	0	1	0	1	0	40.6465547971261	0
3.07	40.724166665331	0	1	0	1	0	40.724166665331	0
3.08	40.8025659893316	0	1	0	1	0	40.8025659893316	0
3.09	40.8817493169214	0	1	0	1	0	40.8817493169214	0
3.1	40.9617132404384	0	1	0	1	0	40.9617132404384	0
3.11	41.0424543960492	0	1	0	1	0	41.0424543960492	0
3.12	41.1239694630464	0	1	0	1	0	41.1239694630464	0
3.13	41.2062551631597	0	1	0	1	0	41.2062551631597	0
3.14	41.2893082598803	0	1	0	1	0	41.2893082598803	0
3.15	41.3731255577979	0	1	0	1	0	41.3731255577979	0
3.16	41.4577039019505	0	1	0	1	0	41.4577039019505	0
3.17	41.5430401771862	0	1	0	1	0	41.5430401771862	0
3.18	41.6291313075374	0	1	0	1	0	41.6291313075374	0
3.19	41.7159742556068	0	1	0	1	0	41.7159742556068	0
3.2	41.8035660219644	0	1	0	1	0	41.8035660219644	0
3.21	41.8919036445564	0	1	0	1	0	41.8919036445564	0
3.22	41.9809841981245	0	1	0	1	0	41.9809841981245	0
3.23	42.0708047936369	0	1	0	1	0	42.0708047936369	0
3.24	42.1613625777283	0	1	0	1	0	42.1613625777283	0
3.25	42.2526547321523	0	1	0	1	0	42.2526547321523	0
3.26	42.3446784732419	0	1	0	1	0	42.3446784732419	0
3.27	42.437431051381	0	1	0	1	0	42.437431051381	0
3.28	42.5309097504857	0	1	0	1	0	42.5309097504857	0
3.29	42.6251118874941	0	1	0	1	0	42.6251118874941	0
3.3	42.7200348118664	0	1	0	1	0	42.7200348118664	0
3.31	42.8156759050936	0	1	0	1	0	42.8156759050936	0
3.32	42.9120325802148	0	1	0	1	0	42.9120325802148	0
3.33	43.0091022813439	0	1	0	1	0	43.0091022813439	0
3.34	43.1068824832039	0	1	0	1	0	43.1068824832039	0
3.35	43.2053706906708	0	1	0	1	0	43.2053706906708	0
3.36	43.304564438324	0	1	0	1	0	43.304564438324	0
3.37	43.4044612900065	0	1	0	1	0	43.4044612900065	0
3.38	43.5050588383911	0	1	0	1	0	43.5050588383911	0
3.39	43.6063547045561	0	1	0	1	0	43.6063547045561	0
3.4	43.7083465375668	0	1	0	1	0	43.7083465375668	0
3.41	43.8110320140655	0	1	0	1	0	43.8110320140655	0
3.42	43.9144088378684	0	1	0	1	0	43.9144088378684	0
3.43	44.0184747395692	0	1	0	1	0	44.0184747395692	0
3.44	44.1232274761501	0	1	0	1	0	44.1232274761501	0
3.45	44.2286648305994	0	1	0	1	0	44.2286648305994	0
3.46	44.3347846115354	0	1	0	1	0	44.3347846115354	0
3.47	44.4415846528375	0	1	0	1	0	44.4415846528375	0
3.48	44.5490628132829	0	1	0	1	0	44.5490628132829	0
3.49	44.65721697619	0	1	0	1	0	44.65721697619	0
3.5	44.766045049068	0	1	0	1	0	44.766045049068	0
3.51	44.875544963272	0	1	0	1	0	44.875544963272	0
3.52	44.9857146736645	0	1	0	1	0	44.9857146736645	0
3.53	45.0965521582824	0	1	0	1	0	45.0965521582824	0
3.54	45.2080554180096	0	1	0	1	0	45.2080554180096	0
3.55	45.3202224762552	0	1	0	1	0	45.3202224762552	0
3.56	45.4330513786372	0	1	0	1	0	45.4330513786372	0
3.57	45.5465401926715	0	1	0	1	0	45.5465401926715	0
3.58	45.6606870074661	0	1	0	1	0	45.6606870074661	0
3.59	45.7754899334199	0	1	0	1	0	45.7754899334199	0
3.6	45.8909471019278	0	1	0	1	0	45.8909471019278	0
3.61	46.0070566650892	0	1	0	1	0	46.0070566650892	0
3.62	46.1238167954225	0	1	0	1	0	46.1238167954225	0
3.63	46.2412256855833	0	1	0	1	0	46.2412256855833	0
3.64	46.3592815480885	0	1	0	1	0	46.3592815480885	0
3.65	46.4779826150436	0	1	0	1	0	46.4779826150436	0
3.66	46.5973271378756	0	1	0	1	0	46.5973271378756	0
3.67	46.7173133870691	0	1	0	1	0	46.7173133870691	0
3.68	46.8379396519083	0	1	0	1	0	46.8379396519083	0
3.69	46.9592042402213	0	1	0	1	0	46.9592042402213	0
3.7	47.0811054781302	0	1	0	1	0	47.0811054781302	0
3.71	47.2036417098043	0	1	0	1	0	47.2036417098043	0
3.72	47.3268112972174	0	1	0	1	0	47.3268112972174	0
3.73	47.4506126199094	0	1	0	1	0	47.4506126199094	0
3.74	47.5750440747512	0	1	0	1	0	47.5750440747512	0
3.75	47.7001040757137	0	1	0	1	0	47.7001040757137	0
3.76	47.8257910536408	0	1	0	1	0	47.8257910536408	0
3.77	47.9521034560248	0	1	0	1	0	47.9521034560248	0
3.78	48.079039746787	0	1	0	1	0	48.079039746787	0
3.79	48.2065984060604	0	1	0	1	0	48.2065984060604	0
3.8	48.3347779299767	0	1	0	1	0	48.3347779299767	0
3.81	48.4635768304564	0	1	0	1	0	48.4635768304564	0
3.82	48.5929936350016	0	1	0	1	0	48.5929936350016	0
3.83	48.7230268864932	0	1	0	1	0	48.7230268864932	0
3.84	48.8536751429906	0	1	0	1	0	48.8536751429906	0
3.85	48.984936977534	0	1	0	1	0	48.984936977534	0
3.86	49.116810977951	0	1	0	1	0	49.116810977951	0
3.87	49.2492957466654	0	1	0	1	0	49.2492957466654	0
3.88	49.3823899005087	0	1	0	1	0	49.3823899005087	0
3.89	49.5160920705354	0	1	0	1	0	49.5160920705354	0
3.9	49.6504009018404	0	1	0	1	0	49.6504009018404	0
3.91	49.7853150533797	0	1	0	1	0	49.7853150533797	0
3.92	49.9208331977931	0	1	0	1	0	49.9208331977931	0
3.93	50.0569540212308	0	1	0	1	0	50.0569540212308	0
3.94	50.1936762231812	0	1	0	1	0	50.1936762231812	0
3.95	50.3309985163027	0	1	0	1	0	50.3309985163027	0
3.96	50.4689196262571	0	1	0	1	0	50.4689196262571	0
3.97	50.6074382915458	0	1	0	1	0	50.6074382915458	0
3.98	50.7465532633486	0	1	0	1	0	50.7465532633486	0
3.99	50.8862633053649	0	1	0	1	0	50.8862633053649	0
4	51.0265671936571	0	1	0	1	0	51.0265671936571	0
4.01	51.1674637164962	0	1	0	1	0	51.1674637164962	0
4.02	51.3089516742105	0	1	0	1	0	51.3089516742105	0
4.03	51.4510298790357	0	1	0	1	0	51.4510298790357	0
4.04	51.5936971549673	0	1	0	1	0	51.5936971549673	0
4.05	51.7369523376158	0	1	0	1	0	51.7369523376158	0
4.06	51.8807942740637	0	1	0	1	0	51.8807942740637	0
4.07	52.025221822724	0	1	0	1	0	52.025221822724	0
4.08	52.1702338532021	0	1	0	1	0	52.1702338532021	0
4.09	52.3158292461583	0	1	0	1	0	52.3158292461583	0
4.1	52.4620068931736	0	1	0	1	0	52.4620068931736	0
4.11	52.6087656966162	0	1	0	1	0	52.6087656966162	0
4.12	52.7561045695112	0	1	0	1	0	52.7561045695112	0
4.13	52.9040224354112	0	1	0	1	0	52.9040224354112	0
4.14	53.0525182282691	0	1	0	1	0	53.0525182282691	0
4.15	53.2015908923132	0	1	0	1	0	53.2015908923132	0
4.16	53.3512393819233	0	1	0	1	0	53.3512393819233	0
4.17	53.5014626615092	0	1	0	1	0	53.5014626615092	0
4.18	53.6522597053907	0	1	0	1	0	53.6522597053907	0
4.19	53.8036294976791	0	1	0	1	0	53.8036294976791	0
4.2	53.9555710321611	0	1	0	1	0	53.9555710321611	0
4.21	54.1080833121833	0	1	0	1	0	54.1080833121833	0
4.22	54.2611653505396	0	1	0	1	0	54.2611653505396	0
4.23	54.4148161693589	0	1	0	1	0	54.4148161693589	0
4.24	54.5690347999955	0	1	0	1	0	54.5690347999955	0
4.25	54.7238202829202	0	1	0	1	0	54.7238202829202	0
4.26	54.8791716676135	0	1	0	1	0	54.8791716676135	0
4.27	55.0350880124603	0	1	0	1	0	55.0350880124603	0
4.28	55.1915683846453	0	1	0	1	0	55.1915683846453	0
4.29	55.3486118600509	0	1	0	1	0	55.3486118600509	0
4.3	55.506217523156	0	1	0	1	0	55.506217523156	0
4.31	55.6643844669363	0	1	0	1	0	55.6643844669363	0
4.32	55.8231117927656	0	1	0	1	0	55.8231117927656	0
4.33	55.9823986103192	0	1	0	1	0	55.9823986103192	0
4.34	56.1422440374785	0	1	0	1	0	56.1422440374785	0
4.35	56.3026472002357	0	1	0	1	0	56.3026472002357	0
4.36	56.4636072326021	0	1	0	1	0	56.4636072326021	0
4.37	56.625123276515	0	1	0	1	0	56.625123276515	0
4.38	56.7871944817485	0	1	0	1	0	56.7871944817485	0
4.39	56.9498200058233	0	1	0	1	0	56.9498200058233	0
4.4	57.1129990139189	0	1	0	1	0	57.1129990139189	0
4.41	57.2767306787872	0	1	0	1	0	57.2767306787872	0
4.42	57.4410141806662	0	1	0	1	0	57.4410141806662	0
4.43	57.6058487071961	0	1	0	1	0	57.6058487071961	0
4.44	57.7712334533355	0	1	0	1	0	57.7712334533355	0
4.45	57.9371676212792	0	1	0	1	0	57.9371676212792	0
4.46	58.1036504203774	0	1	0	1	0	58.1036504203774	0
4.47	58.2706810670554	0	1	0	1	0	58.2706810670554	0
4.48	58.4382587847348	0	1	0	1	0	58.4382587847348	0
4.49	58.6063828037553	0	1	0	1	0	58.6063828037553	0
4.5	58.7750523612981	0	1	0	1	0	58.7750523612981	0
4.51	58.9442667013101	0	1	0	1	0	58.9442667013101	0
4.52	59.1140250744288	0	1	0	1	0	59.1140250744288	0
4.53	59.2843267379086	0	1	0	1	0	59.2843267379086	0
4.54	59.455170955548	0	1	0	1	0	59.455170955548	0
4.55	59.6265569976175	0	1	0	1	0	59.6265569976175	0
4.56	59.7984841407887	0	1	0	1	0	59.7984841407887	0
4.57	59.9709516680645	0	1	0	1	0	59.9709516680645	0
4.58	60.1439588687096	0	1	0	1	0	60.1439588687096	0
4.59	60.3175050381826	0	1	0	1	0	60.3175050381826	0
4.6	60.4915894780684	0	1	0	1	0	60.4915894780684	0
4.61	60.666211496012	0	1	0	1	0	60.666211496012	0
4.62	60.8413704056528	0	1	0	1	0	60.8413704056528	0
4.63	61.0170655265599	0	1	0	1	0	61.0170655265599	0
4.64	61.1932961841682	0	1	0	1	0	61.1932961841682	0
4.65	61.3700617097151	0	1	0	1	0	61.3700617097151	0
4.66	61.5473614401788	0	1	0	1	0	61.5473614401788	0
4.67	61.7251947182163	0	1	0	1	0	61.7251947182163	0
4.68	61.9035608921029	0	1	0	1	0	61.9035608921029	0
4.69	62.0824593156722	0	1	0	1	0	62.0824593156722	0
4.7	62.2618893482575	0	1	0	1	0	62.2618893482575	0
4.71	62.4418503546326	0	1	0	1	0	62.4418503546326	0
4.72	62.6223417049547	0	1	0	1	0	62.6223417049547	0
4.73	62.8033627747074	0	1	0	1	0	62.8033627747074	0
4.74	62.9849129446445	0	1	0	1	0	62.9849129446445	0
4.75	63.1669916007344	0	1	0	1	0	63.1669916007344	0
4.76	63.3495981341055	0	1	0	1	0	63.3495981341055	0
4.77	63.5327319409921	0	1	0	1	0	63.5327319409921	0
4.78	63.7163924226808	0	1	0	1	0	63.7163924226808	0
4.79	63.9005789854581	0	1	0	1	0	63.9005789854581	0
4.8	64.0852910405578	0	1	0	1	0	64.0852910405578	0
4.81	64.2705280041102	0	1	0	1	0	64.2705280041102	0
4.82	64.4562892970907	0	1	0	1	0	64.4562892970907	0
4.83	64.6425743452702	0	1	0	1	0	64.6425743452702	0
4.84	64.8293825791652	0	1	0	1	0	64.8293825791652	0
4.85	65.0167134339889	0	1	0	1	0	65.0167134339889	0
4.86	65.2045663496031	0	1	0	1	0	65.2045663496031	0
4.87	65.3929407704701	0	1	0	1	0	65.3929407704701	0
4.88	65.581836145606	0	1	0	1	0	65.581836145606	0
4.89	65.7712519285338	0	1	0	1	0	65.7712519285338	0
4.9	65.9611875772375	0	1	0	1	0	65.9611875772375	0
4.91	66.151642554117	0	1	0	1	0	66.151642554117	0
4.92	66.3426163259425	0	1	0	1	0	66.3426163259425	0
4.93	66.534108363811	0	1	0	1	0	66.534108363811	0
