# GHZ S RI R 50
1	54.8793184647167	0	1	0	1	0	54.8793184647167	0
1.01	54.4248257172532	0	1	0	1	0	54.4248257172532	0
1.02	53.9804223763929	0	1	0	1	0	53.9804223763929	0
1.03	53.545826123937	0	1	0	1	0	53.545826123937	0
1.04	53.120765500079	0	1	0	1	0	53.120765500079	0
1.05	52.7049793863382	0	1	0	1	0	52.7049793863382	0
1.06	52.2982165177616	0	1	0	1	0	52.2982165177616	0
1.07	51.9002350224787	0	1	0	1	0	51.9002350224787	0
1.08	51.5108019868362	0	1	0	1	0	51.5108019868362	0
1.09	51.1296930444708	0	1	0	1	0	51.1296930444708	0
1.1	50.7566919877962	0	1	0	1	0	50.7566919877962	0
1.11	50.3915904004905	0	1	0	1	0	50.3915904004905	0
1.12	50.0341873096718	0	1	0	1	0	50.0341873096718	0
1.13	49.6842888565424	0	1	0	1	0	49.6842888565424	0
1.14	49.3417079843678	0	1	0	1	0	49.3417079843678	0
1.15	49.0062641427347	0	1	0	1	0	49.0062641427347	0
1.16	48.6777830071061	0	1	0	1	0	48.6777830071061	0
1.17	48.3560962127582	0	1	0	1	0	48.3560962127582	0
1.18	48.0410411022461	0	1	0	1	0	48.0410411022461	0
1.19	47.7324604856018	0	1	0	1	0	47.7324604856018	0
1.2	47.4302024125232	0	1	0	1	0	47.4302024125232	0
1.21	47.1341199558585	0	1	0	1	0	47.1341199558585	0
1.22	46.8440710057395	0	1	0	1	0	46.8440710057395	0
1.23	46.5599180737572	0	1	0	1	0	46.5599180737572	0
1.24	46.2815281066127	0	1	0	1	0	46.2815281066127	0
1.25	46.0087723087126	0	1	0	1	0	46.0087723087126	0
1.26	45.7415259732123	0	1	0	1	0	45.7415259732123	0
1.27	45.479668321042	0	1	0	1	0	45.479668321042	0
1.28	45.2230823474779	0	1	0	1	0	45.2230823474779	0
1.29	44.9716546758496	0	1	0	1	0	44.9716546758496	0
1.3	44.7252754179995	0	1	0	1	0	44.7252754179995	0
1.31	44.4838380411337	0	1	0	1	0	44.4838380411337	0
1.32	44.2472392407247	0	1	0	1	0	44.2472392407247	0
1.33	44.0153788191484	0	1	0	1	0	44.0153788191484	0
1.34	43.7881595697541	0	1	0	1	0	43.7881595697541	0
1.35	43.5654871660884	0	1	0	1	0	43.5654871660884	0
1.36	43.3472700560054	0	1	0	1	0	43.3472700560054	0
1.37	43.1334193604144	0	1	0	1	0	43.1334193604144	0
1.38	42.9238487764304	0	1	0	1	0	42.9238487764304	0
1.39	42.7184744847044	0	1	0	1	0	42.7184744847044	0
1.4	42.5172150607263	0	1	0	1	0	42.5172150607263	0
1.41	42.3199913899008	0	1	0	1	0	42.3199913899008	0
1.42	42.1267265862131	0	1	0	1	0	42.1267265862131	0
1.43	41.9373459143058	0	1	0	1	0	41.9373459143058	0
1.44	41.7517767148041	0	1	0	1	0	41.7517767148041	0
1.45	41.5699483327292	0	1	0	1	0	41.5699483327292	0
1.46	41.3917920488557	0	1	0	1	0	41.3917920488557	0
1.47	41.2172410138686	0	1	0	1	0	41.2172410138686	0
1.48	41.0462301851915	0	1	0	1	0	41.0462301851915	0
1.49	40.8786962663573	0	1	0	1	0	40.8786962663573	0
1.5	40.7145776488046	0	1	0	1	0	40.7145776488046	0
1.51	40.5538143559871	0	1	0	1	0	40.5538143559871	0
1.52	40.3963479896885	0	1	0	1	0	40.3963479896885	0
1.53	40.2421216784431	0	1	0	1	0	40.2421216784431	0
1.54	40.0910800279666	0	1	0	1	0	40.0910800279666	0
1.55	39.9431690735041	0	1	0	1	0	39.9431690735041	0
1.56	39.7983362340127	0	1	0	1	0	39.7983362340127	0
1.57	39.6565302680938	0	1	0	1	0	39.6565302680938	0
1.58	39.5177012315993	0	1	0	1	0	39.5177012315993	0
1.59	39.3818004368379	0	1	0	1	0	39.3818004368379	0
1.6	39.2487804133103	0	1	0	1	0	39.2487804133103	0
1.61	39.1185948699086	0	1	0	1	0	39.1185948699086	0
1.62	38.9911986585154	0	1	0	1	0	38.9911986585154	0
1.63	38.8665477389423	0	1	0	1	0	38.8665477389423	0
1.64	38.7445991451519	0	1	0	1	0	38.7445991451519	0
1.65	38.6253109527079	0	1	0	1	0	38.6253109527079	0
1.66	38.508642247401	0	1	0	1	0	38.508642247401	0
1.67	38.3945530950033	0	1	0	1	0	38.3945530950033	0
1.68	38.2830045121018	0	1	0	1	0	38.2830045121018	0
1.69	38.1739584379676	0	1	0	1	0	38.1739584379676	0
1.7	38.0673777074187	0	1	0	1	0	38.0673777074187	0
1.71	37.9632260246338	0	1	0	1	0	37.9632260246338	0
1.72	37.8614679378807	0	1	0	1	0	37.8614679378807	0
1.73	37.7620688151201	0	1	0	1	0	37.7620688151201	0
1.74	37.6649948204519	0	1	0	1	0	37.6649948204519	0
1.75	37.5702128913679	0	1	0	1	0	37.5702128913679	0
1.76	37.4776907167803	0	1	0	1	0	37.4776907167803	0
1.77	37.3873967157957	0	1	0	1	0	37.3873967157957	0
1.78	37.2993000172035	0	1	0	1	0	37.2993000172035	0
1.79	37.2133704396527	0	1	0	1	0	37.2133704396527	0
1.8	37.1295784724887	0	1	0	1	0	37.1295784724887	0
1.81	37.0478952572265	0	1	0	1	0	37.0478952572265	0
1.82	36.9682925696332	0	1	0	1	0	36.9682925696332	0
1.83	36.890742802399	0	1	0	1	0	36.890742802399	0
1.84	36.8152189483732	0	1	0	1	0	36.8152189483732	0
1.85	36.7416945843435	0	1	0	1	0	36.7416945843435	0
1.86	36.6701438553385	0	1	0	1	0	36.6701438553385	0
1.87	36.6005414594345	0	1	0	1	0	36.6005414594345	0
1.88	36.5328626330465	0	1	0	1	0	36.5328626330465	0
1.89	36.4670831366866	0	1	0	1	0	36.4670831366866	0
1.9	36.403179241172	0	1	0	1	0	36.403179241172	0
1.91	36.3411277142659	0	1	0	1	0	36.3411277142659	0
1.92	36.2809058077367	0	1	0	1	0	36.2809058077367	0
1.93	36.2224912448185	0	1	0	1	0	36.2224912448185	0
1.94	36.1658622080603	0	1	0	1	0	36.1658622080603	0
1.95	36.1109973275485	0	1	0	1	0	36.1109973275485	0
1.96	36.0578756694903	0	1	0	1	0	36.0578756694903	0
1.97	36.0064767251443	0	1	0	1	0	36.0064767251443	0
1.98	35.9567804000873	0	1	0	1	0	35.9567804000873	0
1.99	35.9087670038042	0	1	0	1	0	35.9087670038042	0
2	35.8624172395898	0	1	0	1	0	35.8624172395898	0
2.01	35.8177121947534	0	1	0	1	0	35.8177121947534	0
2.02	35.7746333311127	0	1	0	1	0	35.7746333311127	0
2.03	35.7331624757699	0	1	0	1	0	35.7331624757699	0
2.04	35.6932818121586	0	1	0	1	0	35.6932818121586	0
2.05	35.6549738713526	0	1	0	1	0	35.6549738713526	0
2.06	35.6182215236282	0	1	0	1	0	35.6182215236282	0
2.07	35.5830079702708	0	1	0	1	0	35.5830079702708	0
2.08	35.5493167356181	0	1	0	1	0	35.5493167356181	0
2.09	35.5171316593314	0	1	0	1	0	35.5171316593314	0
2.1	35.4864368888881	0	1	0	1	0	35.4864368888881	0
2.11	35.4572168722871	0	1	0	1	0	35.4572168722871	0
2.12	35.4294563509616	0	1	0	1	0	35.4294563509616	0
2.13	35.4031403528904	0	1	0	1	0	35.4031403528904	0
2.14	35.3782541859034	0	1	0	1	0	35.3782541859034	0
2.15	35.3547834311729	0	1	0	1	0	35.3547834311729	0
2.16	35.3327139368868	0	1	0	1	0	35.3327139368868	0
2.17	35.3120318120957	0	1	0	1	0	35.3120318120957	0
2.18	35.2927234207302	0	1	0	1	0	35.2927234207302	0
2.19	35.2747753757814	0	1	0	1	0	35.2747753757814	0
2.2	35.2581745336405	0	1	0	1	0	35.2581745336405	0
2.21	35.2429079885923	0	1	0	1	0	35.2429079885923	0
2.22	35.2289630674567	0	1	0	1	0	35.2289630674567	0
2.23	35.2163273243755	0	1	0	1	0	35.2163273243755	0
2.24	35.2049885357377	0	1	0	1	0	35.2049885357377	0
2.25	35.1949346952413	0	1	0	1	0	35.1949346952413	0
2.26	35.1861540090849	0	1	0	1	0	35.1861540090849	0
2.27	35.1786348912875	0	1	0	1	0	35.1786348912875	0
2.28	35.172365959131	0	1	0	1	0	35.172365959131	0
2.29	35.1673360287218	0	1	0	1	0	35.1673360287218	0
2.3	35.1635341106692	0	1	0	1	0	35.1635341106692	0
2.31	35.1609494058746	0	1	0	1	0	35.1609494058746	0
2.32	35.1595713014311	0	1	0	1	0	35.1595713014311	0
2.33	35.1593893666273	0	1	0	1	0	35.1593893666273	0
2.34	35.1603933490548	0	1	0	1	0	35.1603933490548	0
2.35	35.1625731708141	0	1	0	1	0	35.1625731708141	0
2.36	35.1659189248178	0	1	0	1	0	35.1659189248178	0
2.37	35.1704208711864	0	1	0	1	0	35.1704208711864	0
2.38	35.1760694337362	0	1	0	1	0	35.1760694337362	0
2.39	35.182855196554	0	1	0	1	0	35.182855196554	0
2.4	35.1907689006588	0	1	0	1	0	35.1907689006588	0
2.41	35.1998014407455	0	1	0	1	0	35.1998014407455	0
2.42	35.2099438620099	0	1	0	1	0	35.2099438620099	0
2.43	35.2211873570519	0	1	0	1	0	35.2211873570519	0
2.44	35.2335232628552	0	1	0	1	0	35.2335232628552	0
2.45	35.2469430578404	0	1	0	1	0	35.2469430578404	0
2.46	35.2614383589904	0	1	0	1	0	35.2614383589904	0
2.47	35.2770009190453	0	1	0	1	0	35.2770009190453	0
2.48	35.2936226237658	0	1	0	1	0	35.2936226237658	0
2.49	35.3112954892617	0	1	0	1	0	35.3112954892617	0
2.5	35.3300116593849	0	1	0	1	0	35.3300116593849	0
2.51	35.3497634031851	0	1	0	1	0	35.3497634031851	0
2.52	35.3705431124253	0	1	0	1	0	35.3705431124253	0
2.53	35.3923432991571	0	1	0	1	0	35.3923432991571	0
2.54	35.4151565933523	0	1	0	1	0	35.4151565933523	0
2.55	35.4389757405909	0	1	0	1	0	35.4389757405909	0
2.56	35.4637935998037	0	1	0	1	0	35.4637935998037	0
2.57	35.489603141066	0	1	0	1	0	35.489603141066	0
2.58	35.5163974434444	0	1	0	1	0	35.5163974434444	0
2.59	35.5441696928926	0	1	0	1	0	35.5441696928926	0
2.6	35.5729131801957	0	1	0	1	0	35.5729131801957	0
2.61	35.6026212989619	0	1	0	1	0	35.6026212989619	0
2.62	35.6332875436606	0	1	0	1	0	35.6332875436606	0
2.63	35.6649055077043	0	1	0	1	0	35.6649055077043	0
2.64	35.6974688815753	0	1	0	1	0	35.6974688815753	0
2.65	35.7309714509938	0	1	0	1	0	35.7309714509938	0
2.66	35.7654070951278	0	1	0	1	0	35.7654070951278	0
2.67	35.8007697848432	0	1	0	1	0	35.8007697848432	0
2.68	35.8370535809928	0	1	0	1	0	35.8370535809928	0
2.69	35.8742526327441	0	1	0	1	0	35.8742526327441	0
2.7	35.9123611759435	0	1	0	1	0	35.9123611759435	0
2.71	35.9513735315171	0	1	0	1	0	35.9513735315171	0
2.72	35.991284103907	0	1	0	1	0	35.991284103907	0
2.73	36.0320873795411	0	1	0	1	0	36.0320873795411	0
2.74	36.0737779253379	0	1	0	1	0	36.0737779253379	0
2.75	36.1163503872421	0	1	0	1	0	36.1163503872421	0
2.76	36.1597994887937	0	1	0	1	0	36.1597994887937	0
2.77	36.204120029727	0	1	0	1	0	36.204120029727	0
2.78	36.2493068846001	0	1	0	1	0	36.2493068846001	0
2.79	36.2953550014543	0	1	0	1	0	36.2953550014543	0
2.8	36.3422594005017	0	1	0	1	0	36.3422594005017	0
2.81	36.3900151728412	0	1	0	1	0	36.3900151728412	0
2.82	36.4386174792012	0	1	0	1	0	36.4386174792012	0
2.83	36.4880615487099	0	1	0	1	0	36.4880615487099	0
2.84	36.5383426776909	0	1	0	1	0	36.5383426776909	0
2.85	36.5894562284842	0	1	0	1	0	36.5894562284842	0
2.86	36.6413976282923	0	1	0	1	0	36.6413976282923	0
2.87	36.69416236805	0	1	0	1	0	36.69416236805	0
2.88	36.7477460013179	0	1	0	1	0	36.7477460013179	0
2.89	36.8021441431993	0	1	0	1	0	36.8021441431993	0
2.9	36.8573524692785	0	1	0	1	0	36.8573524692785	0
2.91	36.9133667145821	0	1	0	1	0	36.9133667145821	0
2.92	36.970182672561	0	1	0	1	0	36.970182672561	0
2.93	37.0277961940935	0	1	0	1	0	37.0277961940935	0
2.94	37.0862031865083	0	1	0	1	0	37.0862031865083	0
2.95	37.1453996126281	0	1	0	1	0	37.1453996126281	0
2.96	37.205381489832	0	1	0	1	0	37.205381489832	0
2.97	37.2661448891371	0	1	0	1	0	37.2661448891371	0
2.98	37.3276859342986	0	1	0	1	0	37.3276859342986	0
2.99	37.3900008009277	0	1	0	1	0	37.3900008009277	0
3	37.4530857156274	0	1	0	1	0	37.4530857156274	0
3.01	37.5169369551458	0	1	0	1	0	37.5169369551458	0
3.02	37.5815508455452	0	1	0	1	0	37.5815508455452	0
3.03	37.6469237613891	0	1	0	1	0	37.6469237613891	0
3.04	37.7130521249439	0	1	0	1	0	37.7130521249439	0
3.05	37.7799324053971	0	1	0	1	0	37.7799324053971	0
3.06	37.8475611180907	0	1	0	1	0	37.8475611180907	0
3.07	37.9159348237693	0	1	0	1	0	37.9159348237693	0
3.08	37.9850501278433	0	1	0	1	0	37.9850501278433	0
3.09	38.0549036796658	0	1	0	1	0	38.0549036796658	0
3.1	38.1254921718244	0	1	0	1	0	38.1254921718244	0
3.11	38.1968123394453	0	1	0	1	0	38.1968123394453	0
3.12	38.2688609595124	0	1	0	1	0	38.2688609595124	0
3.13	38.3416348501983	0	1	0	1	0	38.3416348501983	0
3.14	38.4151308702082	0	1	0	1	0	38.4151308702082	0
3.15	38.4893459181369	0	1	0	1	0	38.4893459181369	0
3.16	38.5642769318376	0	1	0	1	0	38.5642769318376	0
3.17	38.6399208878023	0	1	0	1	0	38.6399208878023	0
3.18	38.7162748005549	0	1	0	1	0	38.7162748005549	0
3.19	38.7933357220545	0	1	0	1	0	38.7933357220545	0
3.2	38.8711007411106	0	1	0	1	0	38.8711007411106	0
3.21	38.9495669828096	0	1	0	1	0	38.9495669828096	0
3.22	39.0287316079508	0	1	0	1	0	39.0287316079508	0
3.23	39.1085918124939	0	1	0	1	0	39.1085918124939	0
3.24	39.1891448270166	0	1	0	1	0	39.1891448270166	0
3.25	39.2703879161815	0	1	0	1	0	39.2703879161815	0
3.26	39.3523183782138	0	1	0	1	0	39.3523183782138	0
3.27	39.434933544388	0	1	0	1	0	39.434933544388	0
3.28	39.5182307785239	0	1	0	1	0	39.5182307785239	0
3.29	39.6022074764922	0	1	0	1	0	39.6022074764922	0
3.3	39.6868610657286	0	1	0	1	0	39.6868610657286	0
3.31	39.7721890047575	0	1	0	1	0	39.7721890047575	0
3.32	39.8581887827233	0	1	0	1	0	39.8581887827233	0
3.33	39.9448579189309	0	1	0	1	0	39.9448579189309	0
3.34	40.0321939623941	0	1	0	1	0	40.0321939623941	0
3.35	40.1201944913921	0	1	0	1	0	40.1201944913921	0
3.36	40.2088571130343	0	1	0	1	0	40.2088571130343	0
3.37	40.2981794628323	0	1	0	1	0	40.2981794628323	0
3.38	40.3881592042797	0	1	0	1	0	40.3881592042797	0
3.39	40.4787940284397	0	1	0	1	0	40.4787940284397	0
3.4	40.5700816535392	0	1	0	1	0	40.5700816535392	0
3.41	40.662019824571	0	1	0	1	0	40.662019824571	0
3.42	40.7546063129021	0	1	0	1	0	40.7546063129021	0
3.43	40.8478389158895	0	1	0	1	0	40.8478389158895	0
3.44	40.9417154565023	0	1	0	1	0	40.9417154565023	0
3.45	41.0362337829505	0	1	0	1	0	41.0362337829505	0
3.46	41.1313917683202	0	1	0	1	0	41.1313917683202	0
3.47	41.2271873102155	0	1	0	1	0	41.2271873102155	0
3.48	41.3236183304058	0	1	0	1	0	41.3236183304058	0
3.49	41.4206827744797	0	1	0	1	0	41.4206827744797	0
3.5	41.5183786115049	0	1	0	1	0	41.5183786115049	0
3.51	41.6167038336935	0	1	0	1	0	41.6167038336935	0
3.52	41.7156564560736	0	1	0	1	0	41.7156564560736	0
3.53	41.8152345161657	0	1	0	1	0	41.8152345161657	0
3.54	41.9154360736653	0	1	0	1	0	41.9154360736653	0
3.55	42.0162592101304	0	1	0	1	0	42.0162592101304	0
3.56	42.1177020286746	0	1	0	1	0	42.1177020286746	0
3.57	42.2197626536652	0	1	0	1	0	42.2197626536652	0
3.58	42.3224392304261	0	1	0	1	0	42.3224392304261	0
3.59	42.4257299249462	0	1	0	1	0	42.4257299249462	0
3.6	42.5296329235924	0	1	0	1	0	42.5296329235924	0
3.61	42.6341464328271	0	1	0	1	0	42.6341464328271	0
3.62	42.739268678931	0	1	0	1	0	42.739268678931	0
3.63	42.8449979077297	0	1	0	1	0	42.8449979077297	0
3.64	42.9513323843255	0	1	0	1	0	42.9513323843255	0
3.65	43.0582703928334	0	1	0	1	0	43.0582703928334	0
3.66	43.1658102361211	0	1	0	1	0	43.1658102361211	0
3.67	43.2739502355536	0	1	0	1	0	43.2739502355536	0
3.68	43.3826887307422	0	1	0	1	0	43.3826887307422	0
3.69	43.4920240792968	0	1	0	1	0	43.4920240792968	0
3.7	43.6019546565828	0	1	0	1	0	43.6019546565828	0
3.71	43.7124788554821	0	1	0	1	0	43.7124788554821	0
3.72	43.8235950861573	0	1	0	1	0	43.8235950861573	0
3.73	43.9353017758201	0	1	0	1	0	43.9353017758201	0
3.74	44.0475973685036	0	1	0	1	0	44.0475973685036	0
3.75	44.160480324838	0	1	0	1	0	44.160480324838	0
3.76	44.2739491218294	0	1	0	1	0	44.2739491218294	0
3.77	44.3880022526435	0	1	0	1	0	44.3880022526435	0
3.78	44.5026382263908	0	1	0	1	0	44.5026382263908	0
3.79	44.6178555679171	0	1	0	1	0	44.6178555679171	0
3.8	44.7336528175961	0	1	0	1	0	44.7336528175961	0
3.81	44.8500285311257	0	1	0	1	0	44.8500285311257	0
3.82	44.9669812793272	0	1	0	1	0	44.9669812793272	0
3.83	45.0845096479483	0	1	0	1	0	45.0845096479483	0
3.84	45.2026122374682	0	1	0	1	0	45.2026122374682	0
3.85	45.3212876629068	0	1	0	1	0	45.3212876629068	0
3.86	45.4405345536361	0	1	0	1	0	45.4405345536361	0
3.87	45.5603515531947	0	1	0	1	0	45.5603515531947	0
3.88	45.6807373191054	0	1	0	1	0	45.6807373191054	0
3.89	45.8016905226955	0	1	0	1	0	45.8016905226955	0
3.9	45.9232098489194	0	1	0	1	0	45.9232098489194	0
3.91	46.045293996185	0	1	0	1	0	46.045293996185	0
3.92	46.1679416761816	0	1	0	1	0	46.1679416761816	0
3.93	46.291151613711	0	1	0	1	0	46.291151613711	0
3.94	46.4149225465214	0	1	0	1	0	46.4149225465214	0
3.95	46.539253225143	0	1	0	1	0	46.539253225143	0
3.96	46.6641424127271	0	1	0	1	0	46.6641424127271	0
3.97	46.789588884887	0	1	0	1	0	46.789588884887	0
3.98	46.9155914295412	0	1	0	1	0	46.9155914295412	0
3.99	47.0421488467595	0	1	0	1	0	47.0421488467595	0
4	47.1692599486111	0	1	0	1	0	47.1692599486111	0
4.01	47.2969235590146	0	1	0	1	0	47.2969235590146	0
4.02	47.4251385135913	0	1	0	1	0	47.4251385135913	0
4.03	47.5539036595194	0	1	0	1	0	47.5539036595194	0
4.04	47.683217855391	0	1	0	1	0	47.683217855391	0
4.05	47.8130799710716	0	1	0	1	0	47.8130799710716	0
4.06	47.943488887561	0	1	0	1	0	47.943488887561	0
4.07	48.0744434968565	0	1	0	1	0	48.0744434968565	0
4.08	48.2059427018181	0	1	0	1	0	48.2059427018181	0
4.09	48.337985416036	0	1	0	1	0	48.337985416036	0
4.1	48.4705705636994	0	1	0	1	0	48.4705705636994	0
4.11	48.6036970794675	0	1	0	1	0	48.6036970794675	0
4.12	48.7373639083429	0	1	0	1	0	48.7373639083429	0
4.13	48.8715700055459	0	1	0	1	0	48.8715700055459	0
4.14	49.0063143363914	0	1	0	1	0	49.0063143363914	0
4.15	49.141595876167	0	1	0	1	0	49.141595876167	0
4.16	49.2774136100136	0	1	0	1	0	49.2774136100136	0
4.17	49.4137665328067	0	1	0	1	0	49.4137665328067	0
4.18	49.5506536490403	0	1	0	1	0	49.5506536490403	0
4.19	49.688073972712	0	1	0	1	0	49.688073972712	0
4.2	49.8260265272101	0	1	0	1	0	49.8260265272101	0
4.21	49.9645103452015	0	1	0	1	0	49.9645103452015	0
4.22	50.1035244685225	0	1	0	1	0	50.1035244685225	0
4.23	50.2430679480698	0	1	0	1	0	50.2430679480698	0
4.24	50.3831398436941	0	1	0	1	0	50.3831398436941	0
4.25	50.5237392240943	0	1	0	1	0	50.5237392240943	0
4.26	50.6648651667143	0	1	0	1	0	50.6648651667143	0
4.27	50.8065167576398	0	1	0	1	0	50.8065167576398	0
4.28	50.948693091498	0	1	0	1	0	50.948693091498	0
4.29	51.0913932713577	0	1	0	1	0	51.0913932713577	0
4.3	51.2346164086314	0	1	0	1	0	51.2346164086314	0
4.31	51.3783616229782	0	1	0	1	0	51.3783616229782	0
4.32	51.5226280422085	0	1	0	1	0	51.5226280422085	0
4.33	51.6674148021899	0	1	0	1	0	51.6674148021899	0
4.34	51.8127210467545	0	1	0	1	0	51.8127210467545	0
4.35	51.9585459276069	0	1	0	1	0	51.9585459276069	0
4.36	52.1048886042347	0	1	0	1	0	52.1048886042347	0
4.37	52.2517482438185	0	1	0	1	0	52.2517482438185	0
4.38	52.3991240211447	0	1	0	1	0	52.3991240211447	0
4.39	52.5470151185189	0	1	0	1	0	52.5470151185189	0
4.4	52.6954207256801	0	1	0	1	0	52.6954207256801	0
4.41	52.8443400397167	0	1	0	1	0	52.8443400397167	0
4.42	52.9937722649833	0	1	0	1	0	52.9937722649833	0
4.43	53.1437166130184	0	1	0	1	0	53.1437166130184	0
4.44	53.2941723024642	0	1	0	1	0	53.2941723024642	0
4.45	53.445138558986	0	1	0	1	0	53.445138558986	0
4.46	53.5966146151938	0	1	0	1	0	53.5966146151938	0
4.47	53.7485997105648	0	1	0	1	0	53.7485997105648	0
4.48	53.9010930913665	0	1	0	1	0	53.9010930913665	0
4.49	54.0540940105812	0	1	0	1	0	54.0540940105812	0
4.5	54.2076017278314	0	1	0	1	0	54.2076017278314	0
4.51	54.3616155093059	0	1	0	1	0	54.3616155093059	0
4.52	54.5161346276876	0	1	0	1	0	54.5161346276876	0
4.53	54.6711583620818	0	1	0	1	0	54.6711583620818	0
4.54	54.8266859979449	0	1	0	1	0	54.8266859979449	0
4.55	54.9827168270152	0	1	0	1	0	54.9827168270152	0
4.56	55.139250147244	0	1	0	1	0	55.139250147244	0
4.57	55.296285262727	0	1	0	1	0	55.296285262727	0
4.58	55.4538214836382	0	1	0	1	0	55.4538214836382	0
4.59	55.6118581261627	0	1	0	1	0	55.6118581261627	0
4.6	55.7703945124321	0	1	0	1	0	55.7703945124321	0
4.61	55.9294299704596	0	1	0	1	0	55.9294299704596	0
4.62	56.0889638340765	0	1	0	1	0	56.0889638340765	0
4.63	56.2489954428694	0	1	0	1	0	56.2489954428694	0
4.64	56.4095241421179	0	1	0	1	0	56.4095241421179	0
4.65	56.5705492827338	0	1	0	1	0	56.5705492827338	0
4.66	56.7320702212006	0	1	0	1	0	56.7320702212006	0
4.67	56.8940863195133	0	1	0	1	0	56.8940863195133	0
4.68	57.0565969451203	0	1	0	1	0	57.0565969451203	0
4.69	57.2196014708648	0	1	0	1	0	57.2196014708648	0
4.7	57.3830992749274	0	1	0	1	0	57.3830992749274	0
4.71	57.5470897407697	0	1	0	1	0	57.5470897407697	0
4.72	57.7115722570781	0	1	0	1	0	57.7115722570781	0
4.73	57.8765462177087	0	1	0	1	0	57.8765462177087	0
4.74	58.0420110216328	0	1	0	1	0	58.0420110216328	0
4.75	58.2079660728828	0	1	0	1	0	58.2079660728828	0
4.76	58.3744107804994	0	1	0	1	0	58.3744107804994	0
4.77	58.5413445584789	0	1	0	1	0	58.5413445584789	0
4.78	58.7087668257215	0	1	0	1	0	58.7087668257215	0
4.79	58.8766770059798	0	1	0	1	0	58.8766770059798	0
4.8	59.0450745278086	0	1	0	1	0	59.0450745278086	0
4.81	59.2139588245147	0	1	0	1	0	59.2139588245147	0
4.82	59.383329334108	0	1	0	1	0	59.383329334108	0
4.83	59.5531854992523	0	1	0	1	0	59.5531854992523	0
4.84	59.7235267672176	0	1	0	1	0	59.7235267672176	0
4.85	59.8943525898327	0	1	0	1	0	59.8943525898327	0
4.86	60.0656624234376	0	1	0	1	0	60.0656624234376	0
4.87	60.2374557288382	0	1	0	1	0	60.2374557288382	0
4.88	60.4097319712597	0	1	0	1	0	60.4097319712597	0
4.89	60.5824906203018	0	1	0	1	0	60.5824906203018	0
4.9	60.7557311498941	0	1	0	1	0	60.7557311498941	0
4.91	60.9294530382518	0	1	0	1	0	60.9294530382518	0
4.92	61.1036557678323	0	1	0	1	0	61.1036557678323	0
4.93	61.2783388252922	0	1	0	1	0	61.2783388252922	0
