# GHZ S RI R 50
1	49.4962603992999	0	1	0	1	0	49.4962603992999	0
1.01	49.0844275975639	0	1	0	1	0	49.0844275975639	0
1.02	48.6819170709291	0	1	0	1	0	48.6819170709291	0
1.03	48.2884695246826	0	1	0	1	0	48.2884695246826	0
1.04	47.903835636985	0	1	0	1	0	47.903835636985	0
1.05	47.5277755839716	0	1	0	1	0	47.5277755839716	0
1.06	47.1600585917353	0	1	0	1	0	47.1600585917353	0
1.07	46.8004625134304	0	1	0	1	0	46.8004625134304	0
1.08	46.4487734298726	0	1	0	1	0	46.4487734298726	0
1.09	46.1047852721226	0	1	0	1	0	46.1047852721226	0
1.1	45.7682994646573	0	1	0	1	0	45.7682994646573	0
1.11	45.439124587828	0	1	0	1	0	45.439124587828	0
1.12	45.1170760584024	0	1	0	1	0	45.1170760584024	0
1.13	44.8019758270677	0	1	0	1	0	44.8019758270677	0
1.14	44.4936520918554	0	1	0	1	0	44.4936520918554	0
1.15	44.1919390265178	0	1	0	1	0	44.1919390265178	0
1.16	43.8966765229535	0	1	0	1	0	43.8966765229535	0
1.17	43.6077099468423	0	1	0	1	0	43.6077099468423	0
1.18	43.3248899057057	0	1	0	1	0	43.3248899057057	0
1.19	43.0480720286607	0	1	0	1	0	43.0480720286607	0
1.2	42.7771167571874	0	1	0	1	0	42.7771167571874	0
1.21	42.5118891462705	0	1	0	1	0	42.5118891462705	0
1.22	42.2522586753215	0	1	0	1	0	42.2522586753215	0
1.23	41.9980990683238	0	1	0	1	0	41.9980990683238	0
1.24	41.7492881226807	0	1	0	1	0	41.7492881226807	0
1.25	41.5057075462789	0	1	0	1	0	41.5057075462789	0
1.26	41.2672428023098	0	1	0	1	0	41.2672428023098	0
1.27	41.0337829614236	0	1	0	1	0	41.0337829614236	0
1.28	40.8052205608127	0	1	0	1	0	40.8052205608127	0
1.29	40.5814514698496	0	1	0	1	0	40.5814514698496	0
1.3	40.3623747619259	0	1	0	1	0	40.3623747619259	0
1.31	40.147892592162	0	1	0	1	0	40.147892592162	0
1.32	39.9379100806743	0	1	0	1	0	39.9379100806743	0
1.33	39.7323352011099	0	1	0	1	0	39.7323352011099	0
1.34	39.531078674171	0	1	0	1	0	39.531078674171	0
1.35	39.3340538658723	0	1	0	1	0	39.3340538658723	0
1.36	39.141176690287	0	1	0	1	0	39.141176690287	0
1.37	38.9523655165518	0	1	0	1	0	38.9523655165518	0
1.38	38.7675410799154	0	1	0	1	0	38.7675410799154	0
1.39	38.5866263966265	0	1	0	1	0	38.5866263966265	0
1.4	38.4095466824696	0	1	0	1	0	38.4095466824696	0
1.41	38.2362292747673	0	1	0	1	0	38.2362292747673	0
1.42	38.0666035576779	0	1	0	1	0	38.0666035576779	0
1.43	37.9006008906284	0	1	0	1	0	37.9006008906284	0
1.44	37.738154539728	0	1	0	1	0	37.738154539728	0
1.45	37.5791996120211	0	1	0	1	0	37.5791996120211	0
1.46	37.4236729924412	0	1	0	1	0	37.4236729924412	0
1.47	37.2715132833385	0	1	0	1	0	37.2715132833385	0
1.48	37.1226607464592	0	1	0	1	0	37.1226607464592	0
1.49	36.977057247261	0	1	0	1	0	36.977057247261	0
1.5	36.8346462014562	0	1	0	1	0	36.8346462014562	0
1.51	36.6953725236784	0	1	0	1	0	36.6953725236784	0
1.52	36.5591825781762	0	1	0	1	0	36.5591825781762	0
1.53	36.4260241314401	0	1	0	1	0	36.4260241314401	0
1.54	36.2958463066752	0	1	0	1	0	36.2958463066752	0
1.55	36.1685995400359	0	1	0	1	0	36.1685995400359	0
1.56	36.0442355385447	0	1	0	1	0	36.0442355385447	0
1.57	35.9227072396183	0	1	0	1	0	35.9227072396183	0
1.58	35.8039687721313	0	1	0	1	0	35.8039687721313	0
1.59	35.6879754189486	0	1	0	1	0	35.6879754189486	0
1.6	35.5746835808639	0	1	0	1	0	35.5746835808639	0
1.61	35.4640507418806	0	1	0	1	0	35.4640507418806	0
1.62	35.3560354357801	0	1	0	1	0	35.3560354357801	0
1.63	35.2505972139195	0	1	0	1	0	35.2505972139195	0
1.64	35.1476966142083	0	1	0	1	0	35.1476966142083	0
1.65	35.0472951312127	0	1	0	1	0	35.0472951312127	0
1.66	34.9493551873406	0	1	0	1	0	34.9493551873406	0
1.67	34.8538401050622	0	1	0	1	0	34.8538401050622	0
1.68	34.7607140801219	0	1	0	1	0	34.7607140801219	0
1.69	34.6699421557024	0	1	0	1	0	34.6699421557024	0
1.7	34.5814901974996	0	1	0	1	0	34.5814901974996	0
1.71	34.4953248696726	0	1	0	1	0	34.4953248696726	0
1.72	34.4114136116328	0	1	0	1	0	34.4114136116328	0
1.73	34.3297246156374	0	1	0	1	0	34.3297246156374	0
1.74	34.2502268051562	0	1	0	1	0	34.2502268051562	0
1.75	34.1728898139797	0	1	0	1	0	34.1728898139797	0
1.76	34.0976839660393	0	1	0	1	0	34.0976839660393	0
1.77	34.0245802559123	0	1	0	1	0	34.0245802559123	0
1.78	33.9535503299831	0	1	0	1	0	33.9535503299831	0
1.79	33.8845664682365	0	1	0	1	0	33.8845664682365	0
1.8	33.8176015666576	0	1	0	1	0	33.8176015666576	0
1.81	33.7526291202153	0	1	0	1	0	33.7526291202153	0
1.82	33.6896232064066	0	1	0	1	0	33.6896232064066	0
1.83	33.6285584693407	0	1	0	1	0	33.6285584693407	0
1.84	33.5694101043416	0	1	0	1	0	33.5694101043416	0
1.85	33.5121538430509	0	1	0	1	0	33.5121538430509	0
1.86	33.4567659390102	0	1	0	1	0	33.4567659390102	0
1.87	33.4032231537067	0	1	0	1	0	33.4032231537067	0
1.88	33.3515027430642	0	1	0	1	0	33.3515027430642	0
1.89	33.3015824443624	0	1	0	1	0	33.3015824443624	0
1.9	33.2534404635702	0	1	0	1	0	33.2534404635702	0
1.91	33.2070554630755	0	1	0	1	0	33.2070554630755	0
1.92	33.1624065498003	0	1	0	1	0	33.1624065498003	0
1.93	33.1194732636833	0	1	0	1	0	33.1194732636833	0
1.94	33.0782355665205	0	1	0	1	0	33.0782355665205	0
1.95	33.0386738311479	0	1	0	1	0	33.0386738311479	0
1.96	33.0007688309556	0	1	0	1	0	33.0007688309556	0
1.97	32.964501729722	0	1	0	1	0	32.964501729722	0
1.98	32.9298540717552	0	1	0	1	0	32.9298540717552	0
1.99	32.8968077723318	0	1	0	1	0	32.8968077723318	0
2	32.8653451084232	0	1	0	1	0	32.8653451084232	0
2.01	32.8354487096976	0	1	0	1	0	32.8354487096976	0
2.02	32.8071015497901	0	1	0	1	0	32.8071015497901	0
2.03	32.7802869378311	0	1	0	1	0	32.7802869378311	0
2.04	32.7549885102224	0	1	0	1	0	32.7549885102224	0
2.05	32.731190222656	0	1	0	1	0	32.731190222656	0
2.06	32.7088763423636	0	1	0	1	0	32.7088763423636	0
2.07	32.6880314405919	0	1	0	1	0	32.6880314405919	0
2.08	32.6686403852941	0	1	0	1	0	32.6686403852941	0
2.09	32.6506883340322	0	1	0	1	0	32.6506883340322	0
2.1	32.6341607270814	0	1	0	1	0	32.6341607270814	0
2.11	32.6190432807304	0	1	0	1	0	32.6190432807304	0
2.12	32.605321980772	0	1	0	1	0	32.605321980772	0
2.13	32.5929830761766	0	1	0	1	0	32.5929830761766	0
2.14	32.5820130729432	0	1	0	1	0	32.5820130729432	0
2.15	32.5723987281219	0	1	0	1	0	32.5723987281219	0
2.16	32.5641270440026	0	1	0	1	0	32.5641270440026	0
2.17	32.5571852624646	0	1	0	1	0	32.5571852624646	0
2.18	32.5515608594808	0	1	0	1	0	32.5515608594808	0
2.19	32.5472415397736	0	1	0	1	0	32.5472415397736	0
2.2	32.544215231616	0	1	0	1	0	32.544215231616	0
2.21	32.5424700817736	0	1	0	1	0	32.5424700817736	0
2.22	32.541994450584	0	1	0	1	0	32.541994450584	0
2.23	32.5427769071679	0	1	0	1	0	32.5427769071679	0
2.24	32.5448062247687	0	1	0	1	0	32.5448062247687	0
2.25	32.5480713762167	0	1	0	1	0	32.5480713762167	0
2.26	32.5525615295135	0	1	0	1	0	32.5525615295135	0
2.27	32.5582660435327	0	1	0	1	0	32.5582660435327	0
2.28	32.5651744638344	0	1	0	1	0	32.5651744638344	0
2.29	32.573276518589	0	1	0	1	0	32.573276518589	0
2.3	32.5825621146073	0	1	0	1	0	32.5825621146073	0
2.31	32.5930213334743	0	1	0	1	0	32.5930213334743	0
2.32	32.6046444277817	0	1	0	1	0	32.6046444277817	0
2.33	32.617421817459	0	1	0	1	0	32.617421817459	0
2.34	32.6313440861975	0	1	0	1	0	32.6313440861975	0
2.35	32.646401977966	0	1	0	1	0	32.646401977966	0
2.36	32.6625863936153	0	1	0	1	0	32.6625863936153	0
2.37	32.6798883875682	0	1	0	1	0	32.6798883875682	0
2.38	32.6982991645937	0	1	0	1	0	32.6982991645937	0
2.39	32.7178100766608	0	1	0	1	0	32.7178100766608	0
2.4	32.7384126198726	0	1	0	1	0	32.7384126198726	0
2.41	32.760098431476	0	1	0	1	0	32.760098431476	0
2.42	32.7828592869446	0	1	0	1	0	32.7828592869446	0
2.43	32.8066870971357	0	1	0	1	0	32.8066870971357	0
2.44	32.8315739055153	0	1	0	1	0	32.8315739055153	0
2.45	32.8575118854519	0	1	0	1	0	32.8575118854519	0
2.46	32.8844933375764	0	1	0	1	0	32.8844933375764	0
2.47	32.9125106872059	0	1	0	1	0	32.9125106872059	0
2.48	32.9415564818297	0	1	0	1	0	32.9415564818297	0
2.49	32.9716233886561	0	1	0	1	0	32.9716233886561	0
2.5	33.0027041922182	0	1	0	1	0	33.0027041922182	0
2.51	33.0347917920367	0	1	0	1	0	33.0347917920367	0
2.52	33.067879200338	0	1	0	1	0	33.067879200338	0
2.53	33.1019595398274	0	1	0	1	0	33.1019595398274	0
2.54	33.137026041514	0	1	0	1	0	33.137026041514	0
2.55	33.1730720425871	0	1	0	1	0	33.1730720425871	0
2.56	33.2100909843424	0	1	0	1	0	33.2100909843424	0
2.57	33.2480764101567	0	1	0	1	0	33.2480764101567	0
2.58	33.2870219635095	0	1	0	1	0	33.2870219635095	0
2.59	33.3269213860503	0	1	0	1	0	33.3269213860503	0
2.6	33.367768515711	0	1	0	1	0	33.367768515711	0
2.61	33.4095572848616	0	1	0	1	0	33.4095572848616	0
2.62	33.4522817185072	0	1	0	1	0	33.4522817185072	0
2.63	33.4959359325278	0	1	0	1	0	33.4959359325278	0
2.64	33.5405141319564	0	1	0	1	0	33.5405141319564	0
2.65	33.5860106092973	0	1	0	1	0	33.5860106092973	0
2.66	33.6324197428819	0	1	0	1	0	33.6324197428819	0
2.67	33.6797359952612	0	1	0	1	0	33.6797359952612	0
2.68	33.7279539116349	0	1	0	1	0	33.7279539116349	0
2.69	33.7770681183148	0	1	0	1	0	33.7770681183148	0
2.7	33.8270733212229	0	1	0	1	0	33.8270733212229	0
2.71	33.8779643044226	0	1	0	1	0	33.8779643044226	0
2.72	33.9297359286823	0	1	0	1	0	33.9297359286823	0
2.73	33.9823831300704	0	1	0	1	0	33.9823831300704	0
2.74	34.0359009185815	0	1	0	1	0	34.0359009185815	0
2.75	34.0902843767919	0	1	0	1	0	34.0902843767919	0
2.76	34.1455286585449	0	1	0	1	0	34.1455286585449	0
2.77	34.2016289876646	0	1	0	1	0	34.2016289876646	0
2.78	34.2585806566968	0	1	0	1	0	34.2585806566968	0
2.79	34.316379025678	0	1	0	1	0	34.316379025678	0
2.8	34.3750195209295	0	1	0	1	0	34.3750195209295	0
2.81	34.4344976338788	0	1	0	1	0	34.4344976338788	0
2.82	34.4948089199043	0	1	0	1	0	34.4948089199043	0
2.83	34.5559489972063	0	1	0	1	0	34.5559489972063	0
2.84	34.6179135457003	0	1	0	1	0	34.6179135457003	0
2.85	34.6806983059349	0	1	0	1	0	34.6806983059349	0
2.86	34.744299078031	0	1	0	1	0	34.744299078031	0
2.87	34.8087117206449	0	1	0	1	0	34.8087117206449	0
2.88	34.8739321499511	0	1	0	1	0	34.8739321499511	0
2.89	34.939956338648	0	1	0	1	0	34.939956338648	0
2.9	35.0067803149827	0	1	0	1	0	35.0067803149827	0
2.91	35.0744001617971	0	1	0	1	0	35.0744001617971	0
2.92	35.1428120155925	0	1	0	1	0	35.1428120155925	0
2.93	35.2120120656146	0	1	0	1	0	35.2120120656146	0
2.94	35.2819965529558	0	1	0	1	0	35.2819965529558	0
2.95	35.3527617696767	0	1	0	1	0	35.3527617696767	0
2.96	35.4243040579455	0	1	0	1	0	35.4243040579455	0
2.97	35.4966198091938	0	1	0	1	0	35.4966198091938	0
2.98	35.5697054632905	0	1	0	1	0	35.5697054632905	0
2.99	35.6435575077318	0	1	0	1	0	35.6435575077318	0
3	35.718172476847	0	1	0	1	0	35.718172476847	0
3.01	35.7935469510211	0	1	0	1	0	35.7935469510211	0
3.02	35.8696775559318	0	1	0	1	0	35.8696775559318	0
3.03	35.9465609618024	0	1	0	1	0	35.9465609618024	0
3.04	36.0241938826692	0	1	0	1	0	36.0241938826692	0
3.05	36.1025730756627	0	1	0	1	0	36.1025730756627	0
3.06	36.1816953403044	0	1	0	1	0	36.1816953403044	0
3.07	36.2615575178153	0	1	0	1	0	36.2615575178153	0
3.08	36.3421564904399	0	1	0	1	0	36.3421564904399	0
3.09	36.4234891807818	0	1	0	1	0	36.4234891807818	0
3.1	36.5055525511531	0	1	0	1	0	36.5055525511531	0
3.11	36.5883436029355	0	1	0	1	0	36.5883436029355	0
3.12	36.671859375955	0	1	0	1	0	36.671859375955	0
3.13	36.756096947867	0	1	0	1	0	36.756096947867	0
3.14	36.8410534335542	0	1	0	1	0	36.8410534335542	0
3.15	36.9267259845358	0	1	0	1	0	36.9267259845358	0
3.16	37.0131117883877	0	1	0	1	0	37.0131117883877	0
3.17	37.1002080681739	0	1	0	1	0	37.1002080681739	0
3.18	37.1880120818883	0	1	0	1	0	37.1880120818883	0
3.19	37.2765211219073	0	1	0	1	0	37.2765211219073	0
3.2	37.3657325144526	0	1	0	1	0	37.3657325144526	0
3.21	37.4556436190641	0	1	0	1	0	37.4556436190641	0
3.22	37.5462518280824	0	1	0	1	0	37.5462518280824	0
3.23	37.6375545661411	0	1	0	1	0	37.6375545661411	0
3.24	37.7295492896683	0	1	0	1	0	37.7295492896683	0
3.25	37.822233486398	0	1	0	1	0	37.822233486398	0
3.26	37.915604674889	0	1	0	1	0	37.915604674889	0
3.27	38.0096604040547	0	1	0	1	0	38.0096604040547	0
3.28	38.1043982526992	0	1	0	1	0	38.1043982526992	0
3.29	38.1998158290642	0	1	0	1	0	38.1998158290642	0
3.3	38.2959107703819	0	1	0	1	0	38.2959107703819	0
3.31	38.3926807424381	0	1	0	1	0	38.3926807424381	0
3.32	38.4901234391412	0	1	0	1	0	38.4901234391412	0
3.33	38.5882365821007	0	1	0	1	0	38.5882365821007	0
3.34	38.6870179202121	0	1	0	1	0	38.6870179202121	0
3.35	38.7864652292497	0	1	0	1	0	38.7864652292497	0
3.36	38.8865763114668	0	1	0	1	0	38.8865763114668	0
3.37	38.9873489952027	0	1	0	1	0	38.9873489952027	0
3.38	39.0887811344967	0	1	0	1	0	39.0887811344967	0
3.39	39.1908706087093	0	1	0	1	0	39.1908706087093	0
3.4	39.2936153221497	0	1	0	1	0	39.2936153221497	0
3.41	39.3970132037099	0	1	0	1	0	39.3970132037099	0
3.42	39.5010622065054	0	1	0	1	0	39.5010622065054	0
3.43	39.6057603075222	0	1	0	1	0	39.6057603075222	0
3.44	39.7111055072695	0	1	0	1	0	39.7111055072695	0
3.45	39.8170958294392	0	1	0	1	0	39.8170958294392	0
3.46	39.9237293205705	0	1	0	1	0	39.9237293205705	0
3.47	40.0310040497212	0	1	0	1	0	40.0310040497212	0
3.48	40.1389181081434	0	1	0	1	0	40.1389181081434	0
3.49	40.2474696089664	0	1	0	1	0	40.2474696089664	0
3.5	40.3566566868834	0	1	0	1	0	40.3566566868834	0
3.51	40.4664774978449	0	1	0	1	0	40.4664774978449	0
3.52	40.5769302187563	0	1	0	1	0	40.5769302187563	0
3.53	40.6880130471815	0	1	0	1	0	40.6880130471815	0
3.54	40.7997242010507	0	1	0	1	0	40.7997242010507	0
3.55	40.9120619183739	0	1	0	1	0	40.9120619183739	0
3.56	41.0250244569587	0	1	0	1	0	41.0250244569587	0
3.57	41.1386100941331	0	1	0	1	0	41.1386100941331	0
3.58	41.2528171264728	0	1	0	1	0	41.2528171264728	0
3.59	41.3676438695331	0	1	0	1	0	41.3676438695331	0
3.6	41.4830886575855	0	1	0	1	0	41.4830886575855	0
3.61	41.5991498433582	0	1	0	1	0	41.5991498433582	0
3.62	41.7158257977813	0	1	0	1	0	41.7158257977813	0
3.63	41.8331149097361	0	1	0	1	0	41.8331149097361	0
3.64	41.9510155858087	0	1	0	1	0	41.9510155858087	0
3.65	42.0695262500468	0	1	0	1	0	42.0695262500468	0
3.66	42.1886453437222	0	1	0	1	0	42.1886453437222	0
3.67	42.3083713250951	0	1	0	1	0	42.3083713250951	0
3.68	42.4287026691839	0	1	0	1	0	42.4287026691839	0
3.69	42.5496378675381	0	1	0	1	0	42.5496378675381	0
3.7	42.6711754280146	0	1	0	1	0	42.6711754280146	0
3.71	42.7933138745582	0	1	0	1	0	42.7933138745582	0
3.72	42.9160517469851	0	1	0	1	0	42.9160517469851	0
3.73	43.0393876007705	0	1	0	1	0	43.0393876007705	0
3.74	43.1633200068389	0	1	0	1	0	43.1633200068389	0
3.75	43.2878475513585	0	1	0	1	0	43.2878475513585	0
3.76	43.412968835538	0	1	0	1	0	43.412968835538	0
3.77	43.5386824754276	0	1	0	1	0	43.5386824754276	0
3.78	43.6649871017223	0	1	0	1	0	43.6649871017223	0
3.79	43.791881359569	0	1	0	1	0	43.791881359569	0
3.8	43.9193639083761	0	1	0	1	0	43.9193639083761	0
3.81	44.0474334216266	0	1	0	1	0	44.0474334216266	0
3.82	44.1760885866935	0	1	0	1	0	44.1760885866935	0
3.83	44.3053281046589	0	1	0	1	0	44.3053281046589	0
3.84	44.4351506901353	0	1	0	1	0	44.4351506901353	0
3.85	44.5655550710898	0	1	0	1	0	44.5655550710898	0
3.86	44.6965399886711	0	1	0	1	0	44.6965399886711	0
3.87	44.8281041970394	0	1	0	1	0	44.8281041970394	0
3.88	44.9602464631987	0	1	0	1	0	44.9602464631987	0
3.89	45.0929655668314	0	1	0	1	0	45.0929655668314	0
3.9	45.2262603001362	0	1	0	1	0	45.2262603001362	0
3.91	45.3601294676676	0	1	0	1	0	45.3601294676676	0
3.92	45.4945718861786	0	1	0	1	0	45.4945718861786	0
3.93	45.6295863844656	0	1	0	1	0	45.6295863844656	0
3.94	45.7651718032152	0	1	0	1	0	45.7651718032152	0
3.95	45.9013269948539	0	1	0	1	0	45.9013269948539	0
3.96	46.0380508233999	0	1	0	1	0	46.0380508233999	0
3.97	46.1753421643171	0	1	0	1	0	46.1753421643171	0
3.98	46.3131999043711	0	1	0	1	0	46.3131999043711	0
3.99	46.451622941488	0	1	0	1	0	46.451622941488	0
4	46.5906101846145	0	1	0	1	0	46.5906101846145	0
4.01	46.7301605535805	0	1	0	1	0	46.7301605535805	0
4.02	46.8702729789641	0	1	0	1	0	46.8702729789641	0
4.03	47.0109464019579	0	1	0	1	0	47.0109464019579	0
4.04	47.1521797742376	0	1	0	1	0	47.1521797742376	0
4.05	47.293972057833	0	1	0	1	0	47.293972057833	0
4.06	47.4363222250001	0	1	0	1	0	47.4363222250001	0
4.07	47.5792292580954	0	1	0	1	0	47.5792292580954	0
4.08	47.7226921494525	0	1	0	1	0	47.7226921494525	0
4.09	47.86670990126	0	1	0	1	0	47.86670990126	0
4.1	48.0112815254409	0	1	0	1	0	48.0112815254409	0
4.11	48.1564060435348	0	1	0	1	0	48.1564060435348	0
4.12	48.302082486581	0	1	0	1	0	48.302082486581	0
4.13	48.4483098950031	0	1	0	1	0	48.4483098950031	0
4.14	48.5950873184962	0	1	0	1	0	48.5950873184962	0
4.15	48.7424138159149	0	1	0	1	0	48.7424138159149	0
4.16	48.8902884551632	0	1	0	1	0	48.8902884551632	0
4.17	49.0387103130862	0	1	0	1	0	49.0387103130862	0
4.18	49.1876784753629	0	1	0	1	0	49.1876784753629	0
4.19	49.3371920364011	0	1	0	1	0	49.3371920364011	0
4.2	49.487250099233	0	1	0	1	0	49.487250099233	0
4.21	49.6378517754132	0	1	0	1	0	49.6378517754132	0
4.22	49.7889961849177	0	1	0	1	0	49.7889961849177	0
4.23	49.940682456044	0	1	0	1	0	49.940682456044	0
4.24	50.0929097253134	0	1	0	1	0	50.0929097253134	0
4.25	50.2456771373741	0	1	0	1	0	50.2456771373741	0
4.26	50.3989838449055	0	1	0	1	0	50.3989838449055	0
4.27	50.5528290085247	0	1	0	1	0	50.5528290085247	0
4.28	50.7072117966933	0	1	0	1	0	50.7072117966933	0
4.29	50.8621313856264	0	1	0	1	0	50.8621313856264	0
4.3	51.017586959202	0	1	0	1	0	51.017586959202	0
4.31	51.1735777088723	0	1	0	1	0	51.1735777088723	0
4.32	51.3301028335764	0	1	0	1	0	51.3301028335764	0
4.33	51.4871615396531	0	1	0	1	0	51.4871615396531	0
4.34	51.6447530407562	0	1	0	1	0	51.6447530407562	0
4.35	51.8028765577704	0	1	0	1	0	51.8028765577704	0
4.36	51.9615313187279	0	1	0	1	0	51.9615313187279	0
4.37	52.1207165587275	0	1	0	1	0	52.1207165587275	0
4.38	52.2804315198528	0	1	0	1	0	52.2804315198528	0
4.39	52.4406754510936	0	1	0	1	0	52.4406754510936	0
4.4	52.6014476082671	0	1	0	1	0	52.6014476082671	0
4.41	52.7627472539403	0	1	0	1	0	52.7627472539403	0
4.42	52.9245736573539	0	1	0	1	0	52.9245736573539	0
4.43	53.0869260943468	0	1	0	1	0	53.0869260943468	0
4.44	53.2498038472818	0	1	0	1	0	53.2498038472818	0
4.45	53.4132062049727	0	1	0	1	0	53.4132062049727	0
4.46	53.5771324626113	0	1	0	1	0	53.5771324626113	0
4.47	53.7415819216965	0	1	0	1	0	53.7415819216965	0
4.48	53.906553889964	0	1	0	1	0	53.906553889964	0
4.49	54.0720476813164	0	1	0	1	0	54.0720476813164	0
4.5	54.2380626157551	0	1	0	1	0	54.2380626157551	0
4.51	54.4045980193125	0	1	0	1	0	54.4045980193125	0
4.52	54.5716532239853	0	1	0	1	0	54.5716532239853	0
4.53	54.7392275676687	0	1	0	1	0	54.7392275676687	0
4.54	54.9073203940915	0	1	0	1	0	54.9073203940915	0
4.55	55.0759310527517	0	1	0	1	0	55.0759310527517	0
4.56	55.2450588988537	0	1	0	1	0	55.2450588988537	0
4.57	55.4147032932455	0	1	0	1	0	55.4147032932455	0
4.58	55.5848636023571	0	1	0	1	0	55.5848636023571	0
4.59	55.7555391981402	0	1	0	1	0	55.7555391981402	0
4.6	55.9267294580073	0	1	0	1	0	55.9267294580073	0
4.61	56.0984337647732	0	1	0	1	0	56.0984337647732	0
4.62	56.2706515065965	0	1	0	1	0	56.2706515065965	0
4.63	56.4433820769212	0	1	0	1	0	56.4433820769212	0
4.64	56.6166248744207	0	1	0	1	0	56.6166248744207	0
4.65	56.7903793029407	0	1	0	1	0	56.7903793029407	0
4.66	56.9646447714446	0	1	0	1	0	56.9646447714446	0
4.67	57.1394206939576	0	1	0	1	0	57.1394206939576	0
4.68	57.3147064895138	0	1	0	1	0	57.3147064895138	0
4.69	57.4905015821019	0	1	0	1	0	57.4905015821019	0
4.7	57.6668054006129	0	1	0	1	0	57.6668054006129	0
4.71	57.8436173787879	0	1	0	1	0	57.8436173787879	0
4.72	58.0209369551671	0	1	0	1	0	58.0209369551671	0
4.73	58.1987635730384	0	1	0	1	0	58.1987635730384	0
4.74	58.377096680388	0	1	0	1	0	58.377096680388	0
4.75	58.5559357298503	0	1	0	1	0	58.5559357298503	0
4.76	58.7352801786598	0	1	0	1	0	58.7352801786598	0
4.77	58.9151294886022	0	1	0	1	0	58.9151294886022	0
4.78	59.0954831259673	0	1	0	1	0	59.0954831259673	0
4.79	59.2763405615015	0	1	0	1	0	59.2763405615015	0
4.8	59.4577012703619	0	1	0	1	0	59.4577012703619	0
4.81	59.6395647320701	0	1	0	1	0	59.6395647320701	0
4.82	59.821930430467	0	1	0	1	0	59.821930430467	0
4.83	60.0047978536682	0	1	0	1	0	60.0047978536682	0
4.84	60.1881664940196	0	1	0	1	0	60.1881664940196	0
4.85	60.372035848054	0	1	0	1	0	60.372035848054	0
4.86	60.5564054164481	0	1	0	1	0	60.5564054164481	0
4.87	60.7412747039797	0	1	0	1	0	60.7412747039797	0
4.88	60.9266432194857	0	1	0	1	0	60.9266432194857	0
4.89	61.1125104758209	0	1	0	1	0	61.1125104758209	0
4.9	61.2988759898166	0	1	0	1	0	61.2988759898166	0
4.91	61.4857392822404	0	1	0	1	0	61.4857392822404	0
4.92	61.6730998777562	0	1	0	1	0	61.6730998777562	0
4.93	61.8609573048843	0	1	0	1	0	61.8609573048843	0
