# GHZ S RI R 50
1	59.8350864755726	0	1	0	1	0	59.8350864755726	0
1.01	59.3433990997308	0	1	0	1	0	59.3433990997308	0
1.02	58.8625564003056	0	1	0	1	0	58.8625564003056	0
1.03	58.3922543155156	0	1	0	1	0	58.3922543155156	0
1.04	57.9322004782635	0	1	0	1	0	57.9322004782635	0
1.05	57.4821136592459	0	1	0	1	0	57.4821136592459	0
1.06	57.0417232415861	0	1	0	1	0	57.0417232415861	0
1.07	56.6107687249262	0	1	0	1	0	56.6107687249262	0
1.08	56.1889992570695	0	1	0	1	0	56.1889992570695	0
1.09	55.7761731914048	0	1	0	1	0	55.7761731914048	0
1.1	55.3720576684701	0	1	0	1	0	55.3720576684701	0
1.11	54.9764282201356	0	1	0	1	0	54.9764282201356	0
1.12	54.5890683949902	0	1	0	1	0	54.5890683949902	0
1.13	54.2097694036198	0	1	0	1	0	54.2097694036198	0
1.14	53.8383297825546	0	1	0	1	0	53.8383297825546	0
1.15	53.47455507575	0	1	0	1	0	53.47455507575	0
1.16	53.118257532542	0	1	0	1	0	53.118257532542	0
1.17	52.7692558210928	0	1	0	1	0	52.7692558210928	0
1.18	52.4273747564067	0	1	0	1	0	52.4273747564067	0
1.19	52.092445042059	0	1	0	1	0	52.092445042059	0
1.2	51.7643030248395	0	1	0	1	0	51.7643030248395	0
1.21	51.4427904615612	0	1	0	1	0	51.4427904615612	0
1.22	51.1277542973384	0	1	0	1	0	51.1277542973384	0
1.23	50.8190464546802	0	1	0	1	0	50.8190464546802	0
1.24	50.5165236327887	0	1	0	1	0	50.5165236327887	0
1.25	50.2200471164917	0	1	0	1	0	50.2200471164917	0
1.26	49.9294825942733	0	1	0	1	0	49.9294825942733	0
1.27	49.6446999849014	0	1	0	1	0	49.6446999849014	0
1.28	49.3655732721825	0	1	0	1	0	49.3655732721825	0
1.29	49.091980347402	0	1	0	1	0	49.091980347402	0
1.3	48.8238028590365	0	1	0	1	0	48.8238028590365	0
1.31	48.5609260693495	0	1	0	1	0	48.5609260693495	0
1.32	48.3032387175056	0	1	0	1	0	48.3032387175056	0
1.33	48.0506328888601	0	1	0	1	0	48.0506328888601	0
1.34	47.8030038901009	0	1	0	1	0	47.8030038901009	0
1.35	47.5602501299398	0	1	0	1	0	47.5602501299398	0
1.36	47.3222730050679	0	1	0	1	0	47.3222730050679	0
1.37	47.0889767911049	0	1	0	1	0	47.0889767911049	0
1.38	46.8602685382903	0	1	0	1	0	46.8602685382903	0
1.39	46.6360579716767	0	1	0	1	0	46.6360579716767	0
1.4	46.4162573956011	0	1	0	1	0	46.4162573956011	0
1.41	46.2007816022206	0	1	0	1	0	46.2007816022206	0
1.42	45.9895477839133	0	1	0	1	0	45.9895477839133	0
1.43	45.7824754493543	0	1	0	1	0	45.7824754493543	0
1.44	45.579486343089	0	1	0	1	0	45.579486343089	0
1.45	45.3805043684338	0	1	0	1	0	45.3805043684338	0
1.46	45.1854555135458	0	1	0	1	0	45.1854555135458	0
1.47	44.99426778051	0	1	0	1	0	44.99426778051	0
1.48	44.8068711173007	0	1	0	1	0	44.8068711173007	0
1.49	44.6231973524836	0	1	0	1	0	44.6231973524836	0
1.5	44.4431801325293	0	1	0	1	0	44.4431801325293	0
1.51	44.2667548616179	0	1	0	1	0	44.2667548616179	0
1.52	44.0938586438193	0	1	0	1	0	44.0938586438193	0
1.53	43.9244302275417	0	1	0	1	0	43.9244302275417	0
1.54	43.7584099521434	0	1	0	1	0	43.7584099521434	0
1.55	43.5957396966125	0	1	0	1	0	43.5957396966125	0
1.56	43.4363628302193	0	1	0	1	0	43.4363628302193	0
1.57	43.2802241650553	0	1	0	1	0	43.2802241650553	0
1.58	43.127269910374	0	1	0	1	0	43.127269910374	0
1.59	42.9774476286555	0	1	0	1	0	42.9774476286555	0
1.6	42.8307061933179	0	1	0	1	0	42.8307061933179	0
1.61	42.6869957480047	0	1	0	1	0	42.6869957480047	0
1.62	42.5462676673808	0	1	0	1	0	42.5462676673808	0
1.63	42.4084745193708	0	1	0	1	0	42.4084745193708	0
1.64	42.273570028779	0	1	0	1	0	42.273570028779	0
1.65	42.1415090422329	0	1	0	1	0	42.1415090422329	0
1.66	42.0122474943929	0	1	0	1	0	42.0122474943929	0
1.67	41.8857423753767	0	1	0	1	0	41.8857423753767	0
1.68	41.7619516993467	0	1	0	1	0	41.7619516993467	0
1.69	41.6408344742131	0	1	0	1	0	41.6408344742131	0
1.7	41.5223506724057	0	1	0	1	0	41.5223506724057	0
1.71	41.406461202672	0	1	0	1	0	41.406461202672	0
1.72	41.2931278828581	0	1	0	1	0	41.2931278828581	0
1.73	41.1823134136346	0	1	0	1	0	41.1823134136346	0
1.74	41.0739813531279	0	1	0	1	0	41.0739813531279	0
1.75	40.9680960924216	0	1	0	1	0	40.9680960924216	0
1.76	40.8646228318928	0	1	0	1	0	40.8646228318928	0
1.77	40.7635275583507	0	1	0	1	0	40.7635275583507	0
1.78	40.6647770229459	0	1	0	1	0	40.6647770229459	0
1.79	40.5683387198202	0	1	0	1	0	40.5683387198202	0
1.8	40.4741808654676	0	1	0	1	0	40.4741808654676	0
1.81	40.38227237878	0	1	0	1	0	40.38227237878	0
1.82	40.2925828617508	0	1	0	1	0	40.2925828617508	0
1.83	40.2050825808105	0	1	0	1	0	40.2050825808105	0
1.84	40.1197424487717	0	1	0	1	0	40.1197424487717	0
1.85	40.036534007359	0	1	0	1	0	40.036534007359	0
1.86	39.955429410303	0	1	0	1	0	39.955429410303	0
1.87	39.8764014069765	0	1	0	1	0	39.8764014069765	0
1.88	39.7994233265527	0	1	0	1	0	39.7994233265527	0
1.89	39.724469062667	0	1	0	1	0	39.724469062667	0
1.9	39.6515130585622	0	1	0	1	0	39.6515130585622	0
1.91	39.5805302927014	0	1	0	1	0	39.5805302927014	0
1.92	39.5114962648294	0	1	0	1	0	39.5114962648294	0
1.93	39.4443869824687	0	1	0	1	0	39.4443869824687	0
1.94	39.3791789478317	0	1	0	1	0	39.3791789478317	0
1.95	39.315849145137	0	1	0	1	0	39.315849145137	0
1.96	39.2543750283128	0	1	0	1	0	39.2543750283128	0
1.97	39.1947345090756	0	1	0	1	0	39.1947345090756	0
1.98	39.13690594537	0	1	0	1	0	39.13690594537	0
1.99	39.0808681301566	0	1	0	1	0	39.0808681301566	0
2	39.0266002805369	0	1	0	1	0	39.0266002805369	0
2.01	38.9740820272024	0	1	0	1	0	38.9740820272024	0
2.02	38.9232934041973	0	1	0	1	0	38.9232934041973	0
2.03	38.8742148389834	0	1	0	1	0	38.8742148389834	0
2.04	38.826827142798	0	1	0	1	0	38.826827142798	0
2.05	38.7811115012933	0	1	0	1	0	38.7811115012933	0
2.06	38.7370494654486	0	1	0	1	0	38.7370494654486	0
2.07	38.6946229427458	0	1	0	1	0	38.6946229427458	0
2.08	38.6538141886002	0	1	0	1	0	38.6538141886002	0
2.09	38.6146057980361	0	1	0	1	0	38.6146057980361	0
2.1	38.5769806976013	0	1	0	1	0	38.5769806976013	0
2.11	38.5409221375108	0	1	0	1	0	38.5409221375108	0
2.12	38.5064136840134	0	1	0	1	0	38.5064136840134	0
2.13	38.4734392119729	0	1	0	1	0	38.4734392119729	0
2.14	38.4419828976575	0	1	0	1	0	38.4419828976575	0
2.15	38.4120292117306	0	1	0	1	0	38.4120292117306	0
2.16	38.3835629124355	0	1	0	1	0	38.3835629124355	0
2.17	38.35656903897	0	1	0	1	0	38.35656903897	0
2.18	38.3310329050416	0	1	0	1	0	38.3310329050416	0
2.19	38.306940092601	0	1	0	1	0	38.306940092601	0
2.2	38.2842764457449	0	1	0	1	0	38.2842764457449	0
2.21	38.2630280647856	0	1	0	1	0	38.2630280647856	0
2.22	38.2431813004803	0	1	0	1	0	38.2431813004803	0
2.23	38.2247227484156	0	1	0	1	0	38.2247227484156	0
2.24	38.2076392435425	0	1	0	1	0	38.2076392435425	0
2.25	38.1919178548576	0	1	0	1	0	38.1919178548576	0
2.26	38.1775458802244	0	1	0	1	0	38.1775458802244	0
2.27	38.164510841333	0	1	0	1	0	38.164510841333	0
2.28	38.152800478791	0	1	0	1	0	38.152800478791	0
2.29	38.142402747344	0	1	0	1	0	38.142402747344	0
2.3	38.1333058112201	0	1	0	1	0	38.1333058112201	0
2.31	38.1254980395959	0	1	0	1	0	38.1254980395959	0
2.32	38.1189680021796	0	1	0	1	0	38.1189680021796	0
2.33	38.1137044649073	0	1	0	1	0	38.1137044649073	0
2.34	38.1096963857506	0	1	0	1	0	38.1096963857506	0
2.35	38.1069329106305	0	1	0	1	0	38.1069329106305	0
2.36	38.1054033694354	0	1	0	1	0	38.1054033694354	0
2.37	38.1050972721398	0	1	0	1	0	38.1050972721398	0
2.38	38.1060043050215	0	1	0	1	0	38.1060043050215	0
2.39	38.1081143269726	0	1	0	1	0	38.1081143269726	0
2.4	38.1114173659039	0	1	0	1	0	38.1114173659039	0
2.41	38.1159036152377	0	1	0	1	0	38.1159036152377	0
2.42	38.121563430489	0	1	0	1	0	38.121563430489	0
2.43	38.1283873259293	0	1	0	1	0	38.1283873259293	0
2.44	38.136365971334	0	1	0	1	0	38.136365971334	0
2.45	38.1454901888089	0	1	0	1	0	38.1454901888089	0
2.46	38.1557509496935	0	1	0	1	0	38.1557509496935	0
2.47	38.1671393715406	0	1	0	1	0	38.1671393715406	0
2.48	38.1796467151684	0	1	0	1	0	38.1796467151684	0
2.49	38.1932643817834	0	1	0	1	0	38.1932643817834	0
2.5	38.2079839101728	0	1	0	1	0	38.2079839101728	0
2.51	38.2237969739639	0	1	0	1	0	38.2237969739639	0
2.52	38.2406953789487	0	1	0	1	0	38.2406953789487	0
2.53	38.2586710604716	0	1	0	1	0	38.2586710604716	0
2.54	38.2777160808799	0	1	0	1	0	38.2777160808799	0
2.55	38.2978226270327	0	1	0	1	0	38.2978226270327	0
2.56	38.3189830078698	0	1	0	1	0	38.3189830078698	0
2.57	38.3411896520358	0	1	0	1	0	38.3411896520358	0
2.58	38.364435105561	0	1	0	1	0	38.364435105561	0
2.59	38.3887120295948	0	1	0	1	0	38.3887120295948	0
2.6	38.4140131981919	0	1	0	1	0	38.4140131981919	0
2.61	38.4403314961496	0	1	0	1	0	38.4403314961496	0
2.62	38.4676599168941	0	1	0	1	0	38.4676599168941	0
2.63	38.4959915604157	0	1	0	1	0	38.4959915604157	0
2.64	38.5253196312501	0	1	0	1	0	38.5253196312501	0
2.65	38.5556374365061	0	1	0	1	0	38.5556374365061	0
2.66	38.5869383839375	0	1	0	1	0	38.5869383839375	0
2.67	38.6192159800582	0	1	0	1	0	38.6192159800582	0
2.68	38.6524638283001	0	1	0	1	0	38.6524638283001	0
2.69	38.6866756272111	0	1	0	1	0	38.6866756272111	0
2.7	38.721845168694	0	1	0	1	0	38.721845168694	0
2.71	38.757966336284	0	1	0	1	0	38.757966336284	0
2.72	38.7950331034645	0	1	0	1	0	38.7950331034645	0
2.73	38.8330395320194	0	1	0	1	0	38.8330395320194	0
2.74	38.8719797704217	0	1	0	1	0	38.8719797704217	0
2.75	38.9118480522579	0	1	0	1	0	38.9118480522579	0
2.76	38.9526386946853	0	1	0	1	0	38.9526386946853	0
2.77	38.9943460969242	0	1	0	1	0	38.9943460969242	0
2.78	39.0369647387815	0	1	0	1	0	39.0369647387815	0
2.79	39.0804891792068	0	1	0	1	0	39.0804891792068	0
2.8	39.1249140548788	0	1	0	1	0	39.1249140548788	0
2.81	39.1702340788227	0	1	0	1	0	39.1702340788227	0
2.82	39.2164440390559	0	1	0	1	0	39.2164440390559	0
2.83	39.2635387972636	0	1	0	1	0	39.2635387972636	0
2.84	39.3115132875017	0	1	0	1	0	39.3115132875017	0
2.85	39.3603625149268	0	1	0	1	0	39.3603625149268	0
2.86	39.4100815545538	0	1	0	1	0	39.4100815545538	0
2.87	39.4606655500382	0	1	0	1	0	39.4606655500382	0
2.88	39.5121097124848	0	1	0	1	0	39.5121097124848	0
2.89	39.564409319281	0	1	0	1	0	39.564409319281	0
2.9	39.6175597129532	0	1	0	1	0	39.6175597129532	0
2.91	39.6715563000483	0	1	0	1	0	39.6715563000483	0
2.92	39.7263945500372	0	1	0	1	0	39.7263945500372	0
2.93	39.7820699942412	0	1	0	1	0	39.7820699942412	0
2.94	39.8385782247795	0	1	0	1	0	39.8385782247795	0
2.95	39.8959148935397	0	1	0	1	0	39.8959148935397	0
2.96	39.9540757111672	0	1	0	1	0	39.9540757111672	0
2.97	40.0130564460769	0	1	0	1	0	40.0130564460769	0
2.98	40.0728529234832	0	1	0	1	0	40.0728529234832	0
2.99	40.1334610244506	0	1	0	1	0	40.1334610244506	0
3	40.1948766849627	0	1	0	1	0	40.1948766849627	0
3.01	40.2570958950101	0	1	0	1	0	40.2570958950101	0
3.02	40.3201146976958	0	1	0	1	0	40.3201146976958	0
3.03	40.3839291883594	0	1	0	1	0	40.3839291883594	0
3.04	40.4485355137175	0	1	0	1	0	40.4485355137175	0
3.05	40.5139298710214	0	1	0	1	0	40.5139298710214	0
3.06	40.5801085072318	0	1	0	1	0	40.5801085072318	0
3.07	40.6470677182087	0	1	0	1	0	40.6470677182087	0
3.08	40.7148038479179	0	1	0	1	0	40.7148038479179	0
3.09	40.7833132876527	0	1	0	1	0	40.7833132876527	0
3.1	40.8525924752699	0	1	0	1	0	40.8525924752699	0
3.11	40.9226378944421	0	1	0	1	0	40.9226378944421	0
3.12	40.9934460739229	0	1	0	1	0	40.9934460739229	0
3.13	41.0650135868267	0	1	0	1	0	41.0650135868267	0
3.14	41.1373370499226	0	1	0	1	0	41.1373370499226	0
3.15	41.2104131229414	0	1	0	1	0	41.2104131229414	0
3.16	41.2842385078958	0	1	0	1	0	41.2842385078958	0
3.17	41.3588099484134	0	1	0	1	0	41.3588099484134	0
3.18	41.4341242290826	0	1	0	1	0	41.4341242290826	0
3.19	41.5101781748102	0	1	0	1	0	41.5101781748102	0
3.2	41.586968650192	0	1	0	1	0	41.586968650192	0
3.21	41.6644925588938	0	1	0	1	0	41.6644925588938	0
3.22	41.7427468430457	0	1	0	1	0	41.7427468430457	0
3.23	41.8217284826458	0	1	0	1	0	41.8217284826458	0
3.24	41.9014344949763	0	1	0	1	0	41.9014344949763	0
3.25	41.9818619340297	0	1	0	1	0	41.9818619340297	0
3.26	42.0630078899459	0	1	0	1	0	42.0630078899459	0
3.27	42.1448694884594	0	1	0	1	0	42.1448694884594	0
3.28	42.2274438903568	0	1	0	1	0	42.2274438903568	0
3.29	42.3107282909438	0	1	0	1	0	42.3107282909438	0
3.3	42.3947199195227	0	1	0	1	0	42.3947199195227	0
3.31	42.4794160388782	0	1	0	1	0	42.4794160388782	0
3.32	42.5648139447737	0	1	0	1	0	42.5648139447737	0
3.33	42.650910965456	0	1	0	1	0	42.650910965456	0
3.34	42.7377044611689	0	1	0	1	0	42.7377044611689	0
3.35	42.8251918236754	0	1	0	1	0	42.8251918236754	0
3.36	42.9133704757893	0	1	0	1	0	42.9133704757893	0
3.37	43.0022378709139	0	1	0	1	0	43.0022378709139	0
3.38	43.09179149259	0	1	0	1	0	43.09179149259	0
3.39	43.1820288540509	0	1	0	1	0	43.1820288540509	0
3.4	43.272947497786	0	1	0	1	0	43.272947497786	0
3.41	43.364544995112	0	1	0	1	0	43.364544995112	0
3.42	43.456818945751	0	1	0	1	0	43.456818945751	0
3.43	43.5497669774169	0	1	0	1	0	43.5497669774169	0
3.44	43.643386745408	0	1	0	1	0	43.643386745408	0
3.45	43.7376759322081	0	1	0	1	0	43.7376759322081	0
3.46	43.8326322470924	0	1	0	1	0	43.8326322470924	0
3.47	43.9282534257428	0	1	0	1	0	43.9282534257428	0
3.48	44.0245372298674	0	1	0	1	0	44.0245372298674	0
3.49	44.1214814468283	0	1	0	1	0	44.1214814468283	0
3.5	44.2190838892747	0	1	0	1	0	44.2190838892747	0
3.51	44.3173423947831	0	1	0	1	0	44.3173423947831	0
3.52	44.4162548255029	0	1	0	1	0	44.4162548255029	0
3.53	44.5158190678084	0	1	0	1	0	44.5158190678084	0
3.54	44.6160330319566	0	1	0	1	0	44.6160330319566	0
3.55	44.7168946517511	0	1	0	1	0	44.7168946517511	0
3.56	44.8184018842111	0	1	0	1	0	44.8184018842111	0
3.57	44.9205527092463	0	1	0	1	0	44.9205527092463	0
3.58	45.0233451293373	0	1	0	1	0	45.0233451293373	0
3.59	45.1267771692211	0	1	0	1	0	45.1267771692211	0
3.6	45.2308468755822	0	1	0	1	0	45.2308468755822	0
3.61	45.3355523167483	0	1	0	1	0	45.3355523167483	0
3.62	45.4408915823918	0	1	0	1	0	45.4408915823918	0
3.63	45.5468627832352	0	1	0	1	0	45.5468627832352	0
3.64	45.6534640507627	0	1	0	1	0	45.6534640507627	0
3.65	45.760693536935	0	1	0	1	0	45.760693536935	0
3.66	45.8685494139102	0	1	0	1	0	45.8685494139102	0
3.67	45.9770298737683	0	1	0	1	0	45.9770298737683	0
3.68	46.0861331282406	0	1	0	1	0	46.0861331282406	0
3.69	46.1958574084435	0	1	0	1	0	46.1958574084435	0
3.7	46.3062009646162	0	1	0	1	0	46.3062009646162	0
3.71	46.4171620658637	0	1	0	1	0	46.4171620658637	0
3.72	46.5287389999024	0	1	0	1	0	46.5287389999024	0
3.73	46.6409300728111	0	1	0	1	0	46.6409300728111	0
3.74	46.7537336087854	0	1	0	1	0	46.7537336087854	0
3.75	46.8671479498962	0	1	0	1	0	46.8671479498962	0
3.76	46.9811714558519	0	1	0	1	0	46.9811714558519	0
3.77	47.0958025037646	0	1	0	1	0	47.0958025037646	0
3.78	47.2110394879197	0	1	0	1	0	47.2110394879197	0
3.79	47.3268808195494	0	1	0	1	0	47.3268808195494	0
3.8	47.44332492661	0	1	0	1	0	47.44332492661	0
3.81	47.560370253562	0	1	0	1	0	47.560370253562	0
3.82	47.6780152611544	0	1	0	1	0	47.6780152611544	0
3.83	47.7962584262119	0	1	0	1	0	47.7962584262119	0
3.84	47.9150982414255	0	1	0	1	0	47.9150982414255	0
3.85	48.0345332151467	0	1	0	1	0	48.0345332151467	0
3.86	48.1545618711843	0	1	0	1	0	48.1545618711843	0
3.87	48.2751827486052	0	1	0	1	0	48.2751827486052	0
3.88	48.3963944015372	0	1	0	1	0	48.3963944015372	0
3.89	48.5181953989757	0	1	0	1	0	48.5181953989757	0
3.9	48.6405843245933	0	1	0	1	0	48.6405843245933	0
3.91	48.7635597765516	0	1	0	1	0	48.7635597765516	0
3.92	48.8871203673168	0	1	0	1	0	48.8871203673168	0
3.93	49.0112647234776	0	1	0	1	0	49.0112647234776	0
3.94	49.135991485566	0	1	0	1	0	49.135991485566	0
3.95	49.2612993078806	0	1	0	1	0	49.2612993078806	0
3.96	49.3871868583132	0	1	0	1	0	49.3871868583132	0
3.97	49.513652818177	0	1	0	1	0	49.513652818177	0
3.98	49.6406958820386	0	1	0	1	0	49.6406958820386	0
3.99	49.7683147575515	0	1	0	1	0	49.7683147575515	0
4	49.8965081652929	0	1	0	1	0	49.8965081652929	0
4.01	50.0252748386021	0	1	0	1	0	50.0252748386021	0
4.02	50.1546135234221	0	1	0	1	0	50.1546135234221	0
4.03	50.2845229781429	0	1	0	1	0	50.2845229781429	0
4.04	50.415001973448	0	1	0	1	0	50.415001973448	0
4.05	50.5460492921621	0	1	0	1	0	50.5460492921621	0
4.06	50.6776637291018	0	1	0	1	0	50.6776637291018	0
4.07	50.8098440909282	0	1	0	1	0	50.8098440909282	0
4.08	50.942589196002	0	1	0	1	0	50.942589196002	0
4.09	51.07589787424	0	1	0	1	0	51.07589787424	0
4.1	51.2097689669746	0	1	0	1	0	51.2097689669746	0
4.11	51.3442013268149	0	1	0	1	0	51.3442013268149	0
4.12	51.4791938175094	0	1	0	1	0	51.4791938175094	0
4.13	51.6147453138117	0	1	0	1	0	51.6147453138117	0
4.14	51.7508547013473	0	1	0	1	0	51.7508547013473	0
4.15	51.8875208764827	0	1	0	1	0	51.8875208764827	0
4.16	52.024742746196	0	1	0	1	0	52.024742746196	0
4.17	52.1625192279502	0	1	0	1	0	52.1625192279502	0
4.18	52.3008492495675	0	1	0	1	0	52.3008492495675	0
4.19	52.4397317491056	0	1	0	1	0	52.4397317491056	0
4.2	52.5791656747359	0	1	0	1	0	52.5791656747359	0
4.21	52.7191499846234	0	1	0	1	0	52.7191499846234	0
4.22	52.8596836468085	0	1	0	1	0	52.8596836468085	0
4.23	53.00076563909	0	1	0	1	0	53.00076563909	0
4.24	53.1423949489099	0	1	0	1	0	53.1423949489099	0
4.25	53.2845705732404	0	1	0	1	0	53.2845705732404	0
4.26	53.4272915184719	0	1	0	1	0	53.4272915184719	0
4.27	53.5705568003022	0	1	0	1	0	53.5705568003022	0
4.28	53.7143654436286	0	1	0	1	0	53.7143654436286	0
4.29	53.85871648244	0	1	0	1	0	53.85871648244	0
4.3	54.0036089597116	0	1	0	1	0	54.0036089597116	0
4.31	54.1490419273005	0	1	0	1	0	54.1490419273005	0
4.32	54.2950144458427	0	1	0	1	0	54.2950144458427	0
4.33	54.4415255846523	0	1	0	1	0	54.4415255846523	0
4.34	54.5885744216208	0	1	0	1	0	54.5885744216208	0
4.35	54.7361600431189	0	1	0	1	0	54.7361600431189	0
4.36	54.8842815438995	0	1	0	1	0	54.8842815438995	0
4.37	55.0329380270013	0	1	0	1	0	55.0329380270013	0
4.38	55.1821286036544	0	1	0	1	0	55.1821286036544	0
4.39	55.331852393187	0	1	0	1	0	55.331852393187	0
4.4	55.4821085229336	0	1	0	1	0	55.4821085229336	0
4.41	55.6328961281439	0	1	0	1	0	55.6328961281439	0
4.42	55.7842143518934	0	1	0	1	0	55.7842143518934	0
4.43	55.9360623449951	0	1	0	1	0	55.9360623449951	0
4.44	56.0884392659123	0	1	0	1	0	56.0884392659123	0
4.45	56.2413442806728	0	1	0	1	0	56.2413442806728	0
4.46	56.3947765627837	0	1	0	1	0	56.3947765627837	0
4.47	56.5487352931483	0	1	0	1	0	56.5487352931483	0
4.48	56.703219659983	0	1	0	1	0	56.703219659983	0
4.49	56.8582288587365	0	1	0	1	0	56.8582288587365	0
4.5	57.0137620920086	0	1	0	1	0	57.0137620920086	0
4.51	57.1698185694717	0	1	0	1	0	57.1698185694717	0
4.52	57.3263975077922	0	1	0	1	0	57.3263975077922	0
4.53	57.4834981305533	0	1	0	1	0	57.4834981305533	0
4.54	57.6411196681788	0	1	0	1	0	57.6411196681788	0
4.55	57.7992613578583	0	1	0	1	0	57.7992613578583	0
4.56	57.9579224434723	0	1	0	1	0	57.9579224434723	0
4.57	58.1171021755198	0	1	0	1	0	58.1171021755198	0
4.58	58.2767998110454	0	1	0	1	0	58.2767998110454	0
4.59	58.4370146135684	0	1	0	1	0	58.4370146135684	0
4.6	58.5977458530123	0	1	0	1	0	58.5977458530123	0
4.61	58.758992805635	0	1	0	1	0	58.758992805635	0
4.62	58.9207547539611	0	1	0	1	0	58.9207547539611	0
4.63	59.0830309867133	0	1	0	1	0	59.0830309867133	0
4.64	59.2458207987461	0	1	0	1	0	59.2458207987461	0
4.65	59.4091234909797	0	1	0	1	0	59.4091234909797	0
4.66	59.5729383703352	0	1	0	1	0	59.5729383703352	0
4.67	59.7372647496699	0	1	0	1	0	59.7372647496699	0
4.68	59.9021019477142	0	1	0	1	0	59.9021019477142	0
4.69	60.067449289009	0	1	0	1	0	60.067449289009	0
4.7	60.2333061038437	0	1	0	1	0	60.2333061038437	0
4.71	60.3996717281952	0	1	0	1	0	60.3996717281952	0
4.72	60.5665455036678	0	1	0	1	0	60.5665455036678	0
4.73	60.7339267774337	0	1	0	1	0	60.7339267774337	0
4.74	60.9018149021739	0	1	0	1	0	60.9018149021739	0
4.75	61.0702092360209	0	1	0	1	0	61.0702092360209	0
4.76	61.2391091425008	0	1	0	1	0	61.2391091425008	0
4.77	61.408513990477	0	1	0	1	0	61.408513990477	0
4.78	61.5784231540945	0	1	0	1	0	61.5784231540945	0
4.79	61.7488360127245	0	1	0	1	0	61.7488360127245	0
4.8	61.9197519509104	0	1	0	1	0	61.9197519509104	0
4.81	62.0911703583133	0	1	0	1	0	62.0911703583133	0
4.82	62.2630906296598	0	1	0	1	0	62.2630906296598	0
4.83	62.4355121646887	0	1	0	1	0	62.4355121646887	0
4.84	62.6084343681	0	1	0	1	0	62.6084343681	0
4.85	62.7818566495032	0	1	0	1	0	62.7818566495032	0
4.86	62.9557784233669	0	1	0	1	0	62.9557784233669	0
4.87	63.1301991089693	0	1	0	1	0	63.1301991089693	0
4.88	63.3051181303482	0	1	0	1	0	63.3051181303482	0
4.89	63.4805349162531	0	1	0	1	0	63.4805349162531	0
4.9	63.6564489000967	0	1	0	1	0	63.6564489000967	0
4.91	63.8328595199073	0	1	0	1	0	63.8328595199073	0
4.92	64.0097662182822	0	1	0	1	0	64.0097662182822	0
4.93	64.1871684423413	0	1	0	1	0	64.1871684423413	0
4.94	64.3650656436811	0	1	0	1	0	64.3650656436811	0
