# GHZ S RI R 50
1	58.6932885927028	0	1	0	1	0	58.6932885927028	0
1.01	58.2070912469707	0	1	0	1	0	58.2070912469707	0
1.02	57.7316490204675	0	1	0	1	0	57.7316490204675	0
1.03	57.266660637248	0	1	0	1	0	57.266660637248	0
1.04	56.8118364089036	0	1	0	1	0	56.8118364089036	0
1.05	56.3668976827745	0	1	0	1	0	56.3668976827745	0
1.06	55.9315763213955	0	1	0	1	0	55.9315763213955	0
1.07	55.505614211132	0	1	0	1	0	55.505614211132	0
1.08	55.0887627981137	0	1	0	1	0	55.0887627981137	0
1.09	54.6807826497131	0	1	0	1	0	54.6807826497131	0
1.1	54.2814430399438	0	1	0	1	0	54.2814430399438	0
1.11	53.8905215572692	0	1	0	1	0	53.8905215572692	0
1.12	53.5078037334222	0	1	0	1	0	53.5078037334222	0
1.13	53.1330826919324	0	1	0	1	0	53.1330826919324	0
1.14	52.7661588151532	0	1	0	1	0	52.7661588151532	0
1.15	52.4068394286602	0	1	0	1	0	52.4068394286602	0
1.16	52.054938501975	0	1	0	1	0	52.054938501975	0
1.17	51.7102763646354	0	1	0	1	0	51.7102763646354	0
1.18	51.3726794367031	0	1	0	1	0	51.3726794367031	0
1.19	51.0419799728601	0	1	0	1	0	51.0419799728601	0
1.2	50.7180158192986	0	1	0	1	0	50.7180158192986	0
1.21	50.4006301826673	0	1	0	1	0	50.4006301826673	0
1.22	50.0896714103806	0	1	0	1	0	50.0896714103806	0
1.23	49.7849927816444	0	1	0	1	0	49.7849927816444	0
1.24	49.4864523085932	0	1	0	1	0	49.4864523085932	0
1.25	49.1939125469734	0	1	0	1	0	49.1939125469734	0
1.26	48.9072404158409	0	1	0	1	0	48.9072404158409	0
1.27	48.6263070257776	0	1	0	1	0	48.6263070257776	0
1.28	48.3509875151594	0	1	0	1	0	48.3509875151594	0
1.29	48.0811608940407	0	1	0	1	0	48.0811608940407	0
1.3	47.8167098952434	0	1	0	1	0	47.8167098952434	0
1.31	47.5575208322666	0	1	0	1	0	47.5575208322666	0
1.32	47.3034834636549	0	1	0	1	0	47.3034834636549	0
1.33	47.0544908634853	0	1	0	1	0	47.0544908634853	0
1.34	46.8104392976536	0	1	0	1	0	46.8104392976536	0
1.35	46.5712281056584	0	1	0	1	0	46.5712281056584	0
1.36	46.3367595876015	0	1	0	1	0	46.3367595876015	0
1.37	46.1069388961364	0	1	0	1	0	46.1069388961364	0
1.38	45.881673933115	0	1	0	1	0	45.881673933115	0
1.39	45.6608752506958	0	1	0	1	0	45.6608752506958	0
1.4	45.4444559566897	0	1	0	1	0	45.4444559566897	0
1.41	45.2323316239344	0	1	0	1	0	45.2323316239344	0
1.42	45.0244202034974	0	1	0	1	0	45.0244202034974	0
1.43	44.8206419415213	0	1	0	1	0	44.8206419415213	0
1.44	44.6209192995336	0	1	0	1	0	44.6209192995336	0
1.45	44.4251768780542	0	1	0	1	0	44.4251768780542	0
1.46	44.2333413433421	0	1	0	1	0	44.2333413433421	0
1.47	44.0453413571323	0	1	0	1	0	44.0453413571323	0
1.48	43.8611075092211	0	1	0	1	0	43.8611075092211	0
1.49	43.6805722527657	0	1	0	1	0	43.6805722527657	0
1.5	43.5036698421728	0	1	0	1	0	43.5036698421728	0
1.51	43.3303362734539	0	1	0	1	0	43.3303362734539	0
1.52	43.1605092269362	0	1	0	1	0	43.1605092269362	0
1.53	42.9941280122194	0	1	0	1	0	42.9941280122194	0
1.54	42.831133515277	0	1	0	1	0	42.831133515277	0
1.55	42.6714681476059	0	1	0	1	0	42.6714681476059	0
1.56	42.5150757973315	0	1	0	1	0	42.5150757973315	0
1.57	42.3619017821807	0	1	0	1	0	42.3619017821807	0
1.58	42.2118928042421	0	1	0	1	0	42.2118928042421	0
1.59	42.064996906432	0	1	0	1	0	42.064996906432	0
1.6	41.9211634305939	0	1	0	1	0	41.9211634305939	0
1.61	41.7803429771591	0	1	0	1	0	41.7803429771591	0
1.62	41.6424873663012	0	1	0	1	0	41.6424873663012	0
1.63	41.507549600521	0	1	0	1	0	41.507549600521	0
1.64	41.3754838285996	0	1	0	1	0	41.3754838285996	0
1.65	41.246245310863	0	1	0	1	0	41.246245310863	0
1.66	41.1197903857013	0	1	0	1	0	41.1197903857013	0
1.67	40.996076437292	0	1	0	1	0	40.996076437292	0
1.68	40.8750618644748	0	1	0	1	0	40.8750618644748	0
1.69	40.7567060507325	0	1	0	1	0	40.7567060507325	0
1.7	40.6409693352305	0	1	0	1	0	40.6409693352305	0
1.71	40.5278129848729	0	1	0	1	0	40.5278129848729	0
1.72	40.4171991673338	0	1	0	1	0	40.4171991673338	0
1.73	40.3090909250228	0	1	0	1	0	40.3090909250228	0
1.74	40.2034521499495	0	1	0	1	0	40.2034521499495	0
1.75	40.100247559449	0	1	0	1	0	40.100247559449	0
1.76	39.999442672735	0	1	0	1	0	39.999442672735	0
1.77	39.9010037882482	0	1	0	1	0	39.9010037882482	0
1.78	39.8048979617675	0	1	0	1	0	39.8048979617675	0
1.79	39.7110929852557	0	1	0	1	0	39.7110929852557	0
1.8	39.6195573664096	0	1	0	1	0	39.6195573664096	0
1.81	39.5302603088887	0	1	0	1	0	39.5302603088887	0
1.82	39.4431716931949	0	1	0	1	0	39.4431716931949	0
1.83	39.35826205818	0	1	0	1	0	39.35826205818	0
1.84	39.2755025831555	0	1	0	1	0	39.2755025831555	0
1.85	39.1948650705827	0	1	0	1	0	39.1948650705827	0
1.86	39.116321929322	0	1	0	1	0	39.116321929322	0
1.87	39.0398461584182	0	1	0	1	0	39.0398461584182	0
1.88	38.9654113314047	0	1	0	1	0	38.9654113314047	0
1.89	38.8929915811053	0	1	0	1	0	38.8929915811053	0
1.9	38.8225615849156	0	1	0	1	0	38.8225615849156	0
1.91	38.7540965505479	0	1	0	1	0	38.7540965505479	0
1.92	38.6875722022202	0	1	0	1	0	38.6875722022202	0
1.93	38.6229647672758	0	1	0	1	0	38.6229647672758	0
1.94	38.5602509632155	0	1	0	1	0	38.5602509632155	0
1.95	38.4994079851302	0	1	0	1	0	38.4994079851302	0
1.96	38.4404134935168	0	1	0	1	0	38.4404134935168	0
1.97	38.3832456024665	0	1	0	1	0	38.3832456024665	0
1.98	38.3278828682097	0	1	0	1	0	38.3278828682097	0
1.99	38.2743042780076	0	1	0	1	0	38.2743042780076	0
2	38.2224892393761	0	1	0	1	0	38.2224892393761	0
2.01	38.1724175696318	0	1	0	1	0	38.1724175696318	0
2.02	38.1240694857484	0	1	0	1	0	38.1240694857484	0
2.03	38.0774255945129	0	1	0	1	0	38.0774255945129	0
2.04	38.0324668829713	0	1	0	1	0	38.0324668829713	0
2.05	37.9891747091543	0	1	0	1	0	37.9891747091543	0
2.06	37.9475307930724	0	1	0	1	0	37.9475307930724	0
2.07	37.9075172079725	0	1	0	1	0	37.9075172079725	0
2.08	37.8691163718471	0	1	0	1	0	37.8691163718471	0
2.09	37.8323110391862	0	1	0	1	0	37.8323110391862	0
2.1	37.7970842929657	0	1	0	1	0	37.7970842929657	0
2.11	37.7634195368635	0	1	0	1	0	37.7634195368635	0
2.12	37.7313004876956	0	1	0	1	0	37.7313004876956	0
2.13	37.7007111680654	0	1	0	1	0	37.7007111680654	0
2.14	37.6716358992194	0	1	0	1	0	37.6716358992194	0
2.15	37.6440592941017	0	1	0	1	0	37.6440592941017	0
2.16	37.617966250602	0	1	0	1	0	37.617966250602	0
2.17	37.5933419449898	0	1	0	1	0	37.5933419449898	0
2.18	37.5701718255297	0	1	0	1	0	37.5701718255297	0
2.19	37.5484416062714	0	1	0	1	0	37.5484416062714	0
2.2	37.5281372610092	0	1	0	1	0	37.5281372610092	0
2.21	37.5092450174054	0	1	0	1	0	37.5092450174054	0
2.22	37.4917513512723	0	1	0	1	0	37.4917513512723	0
2.23	37.4756429810089	0	1	0	1	0	37.4756429810089	0
2.24	37.4609068621854	0	1	0	1	0	37.4609068621854	0
2.25	37.447530182273	0	1	0	1	0	37.447530182273	0
2.26	37.4355003555133	0	1	0	1	0	37.4355003555133	0
2.27	37.4248050179235	0	1	0	1	0	37.4248050179235	0
2.28	37.4154320224326	0	1	0	1	0	37.4154320224326	0
2.29	37.4073694341458	0	1	0	1	0	37.4073694341458	0
2.3	37.4006055257314	0	1	0	1	0	37.4006055257314	0
2.31	37.3951287729284	0	1	0	1	0	37.3951287729284	0
2.32	37.3909278501701	0	1	0	1	0	37.3909278501701	0
2.33	37.3879916263202	0	1	0	1	0	37.3879916263202	0
2.34	37.3863091605179	0	1	0	1	0	37.3863091605179	0
2.35	37.3858696981301	0	1	0	1	0	37.3858696981301	0
2.36	37.3866626668056	0	1	0	1	0	37.3866626668056	0
2.37	37.3886776726293	0	1	0	1	0	37.3886776726293	0
2.38	37.3919044963741	0	1	0	1	0	37.3919044963741	0
2.39	37.3963330898455	0	1	0	1	0	37.3963330898455	0
2.4	37.4019535723195	0	1	0	1	0	37.4019535723195	0
2.41	37.408756227067	0	1	0	1	0	37.408756227067	0
2.42	37.4167314979662	0	1	0	1	0	37.4167314979662	0
2.43	37.4258699861979	0	1	0	1	0	37.4258699861979	0
2.44	37.4361624470215	0	1	0	1	0	37.4361624470215	0
2.45	37.4475997866313	0	1	0	1	0	37.4475997866313	0
2.46	37.4601730590882	0	1	0	1	0	37.4601730590882	0
2.47	37.4738734633266	0	1	0	1	0	37.4738734633266	0
2.48	37.4886923402336	0	1	0	1	0	37.4886923402336	0
2.49	37.5046211697986	0	1	0	1	0	37.5046211697986	0
2.5	37.5216515683309	0	1	0	1	0	37.5216515683309	0
2.51	37.5397752857448	0	1	0	1	0	37.5397752857448	0
2.52	37.5589842029081	0	1	0	1	0	37.5589842029081	0
2.53	37.5792703290544	0	1	0	1	0	37.5792703290544	0
2.54	37.6006257992561	0	1	0	1	0	37.6006257992561	0
2.55	37.623042871957	0	1	0	1	0	37.623042871957	0
2.56	37.6465139265628	0	1	0	1	0	37.6465139265628	0
2.57	37.6710314610876	0	1	0	1	0	37.6710314610876	0
2.58	37.6965880898554	0	1	0	1	0	37.6965880898554	0
2.59	37.7231765412548	0	1	0	1	0	37.7231765412548	0
2.6	37.750789655545	0	1	0	1	0	37.750789655545	0
2.61	37.7794203827134	0	1	0	1	0	37.7794203827134	0
2.62	37.8090617803811	0	1	0	1	0	37.8090617803811	0
2.63	37.8397070117564	0	1	0	1	0	37.8397070117564	0
2.64	37.8713493436358	0	1	0	1	0	37.8713493436358	0
2.65	37.9039821444488	0	1	0	1	0	37.9039821444488	0
2.66	37.9375988823479	0	1	0	1	0	37.9375988823479	0
2.67	37.9721931233408	0	1	0	1	0	37.9721931233408	0
2.68	38.007758529465	0	1	0	1	0	38.007758529465	0
2.69	38.0442888570031	0	1	0	1	0	38.0442888570031	0
2.7	38.0817779547367	0	1	0	1	0	38.0817779547367	0
2.71	38.1202197622407	0	1	0	1	0	38.1202197622407	0
2.72	38.1596083082137	0	1	0	1	0	38.1596083082137	0
2.73	38.1999377088459	0	1	0	1	0	38.1999377088459	0
2.74	38.2412021662228	0	1	0	1	0	38.2412021662228	0
2.75	38.2833959667627	0	1	0	1	0	38.2833959667627	0
2.76	38.3265134796899	0	1	0	1	0	38.3265134796899	0
2.77	38.3705491555394	0	1	0	1	0	38.3705491555394	0
2.78	38.4154975246944	0	1	0	1	0	38.4154975246944	0
2.79	38.4613531959558	0	1	0	1	0	38.4613531959558	0
2.8	38.5081108551416	0	1	0	1	0	38.5081108551416	0
2.81	38.5557652637164	0	1	0	1	0	38.5557652637164	0
2.82	38.6043112574504	0	1	0	1	0	38.6043112574504	0
2.83	38.6537437451063	0	1	0	1	0	38.6537437451063	0
2.84	38.7040577071545	0	1	0	1	0	38.7040577071545	0
2.85	38.7552481945149	0	1	0	1	0	38.7552481945149	0
2.86	38.8073103273253	0	1	0	1	0	38.8073103273253	0
2.87	38.8602392937355	0	1	0	1	0	38.8602392937355	0
2.88	38.9140303487265	0	1	0	1	0	38.9140303487265	0
2.89	38.9686788129545	0	1	0	1	0	38.9686788129545	0
2.9	39.0241800716181	0	1	0	1	0	39.0241800716181	0
2.91	39.0805295733498	0	1	0	1	0	39.0805295733498	0
2.92	39.1377228291295	0	1	0	1	0	39.1377228291295	0
2.93	39.1957554112207	0	1	0	1	0	39.1957554112207	0
2.94	39.2546229521283	0	1	0	1	0	39.2546229521283	0
2.95	39.3143211435772	0	1	0	1	0	39.3143211435772	0
2.96	39.3748457355125	0	1	0	1	0	39.3748457355125	0
2.97	39.436192535119	0	1	0	1	0	39.436192535119	0
2.98	39.4983574058609	0	1	0	1	0	39.4983574058609	0
2.99	39.5613362665407	0	1	0	1	0	39.5613362665407	0
3	39.6251250903767	0	1	0	1	0	39.6251250903767	0
3.01	39.6897199040996	0	1	0	1	0	39.6897199040996	0
3.02	39.7551167870658	0	1	0	1	0	39.7551167870658	0
3.03	39.8213118703896	0	1	0	1	0	39.8213118703896	0
3.04	39.8883013360916	0	1	0	1	0	39.8883013360916	0
3.05	39.9560814162644	0	1	0	1	0	39.9560814162644	0
3.06	40.0246483922541	0	1	0	1	0	40.0246483922541	0
3.07	40.0939985938584	0	1	0	1	0	40.0939985938584	0
3.08	40.16412839854	0	1	0	1	0	40.16412839854	0
3.09	40.2350342306552	0	1	0	1	0	40.2350342306552	0
3.1	40.3067125606977	0	1	0	1	0	40.3067125606977	0
3.11	40.3791599045569	0	1	0	1	0	40.3791599045569	0
3.12	40.45237282279	0	1	0	1	0	40.45237282279	0
3.13	40.5263479199089	0	1	0	1	0	40.5263479199089	0
3.14	40.6010818436803	0	1	0	1	0	40.6010818436803	0
3.15	40.6765712844386	0	1	0	1	0	40.6765712844386	0
3.16	40.7528129744129	0	1	0	1	0	40.7528129744129	0
3.17	40.8298036870659	0	1	0	1	0	40.8298036870659	0
3.18	40.9075402364459	0	1	0	1	0	40.9075402364459	0
3.19	40.9860194765502	0	1	0	1	0	40.9860194765502	0
3.2	41.0652383007012	0	1	0	1	0	41.0652383007012	0
3.21	41.1451936409338	0	1	0	1	0	41.1451936409338	0
3.22	41.2258824673943	0	1	0	1	0	41.2258824673943	0
3.23	41.3073017877503	0	1	0	1	0	41.3073017877503	0
3.24	41.389448646612	0	1	0	1	0	41.389448646612	0
3.25	41.4723201249635	0	1	0	1	0	41.4723201249635	0
3.26	41.5559133396048	0	1	0	1	0	41.5559133396048	0
3.27	41.6402254426049	0	1	0	1	0	41.6402254426049	0
3.28	41.7252536207633	0	1	0	1	0	41.7252536207633	0
3.29	41.8109950950826	0	1	0	1	0	41.8109950950826	0
3.3	41.8974471202502	0	1	0	1	0	41.8974471202502	0
3.31	41.9846069841298	0	1	0	1	0	41.9846069841298	0
3.32	42.0724720072609	0	1	0	1	0	42.0724720072609	0
3.33	42.1610395423692	0	1	0	1	0	42.1610395423692	0
3.34	42.250306973884	0	1	0	1	0	42.250306973884	0
3.35	42.3402717174653	0	1	0	1	0	42.3402717174653	0
3.36	42.4309312195393	0	1	0	1	0	42.4309312195393	0
3.37	42.5222829568414	0	1	0	1	0	42.5222829568414	0
3.38	42.6143244359683	0	1	0	1	0	42.6143244359683	0
3.39	42.7070531929372	0	1	0	1	0	42.7070531929372	0
3.4	42.8004667927536	0	1	0	1	0	42.8004667927536	0
3.41	42.8945628289857	0	1	0	1	0	42.8945628289857	0
3.42	42.9893389233474	0	1	0	1	0	42.9893389233474	0
3.43	43.0847927252873	0	1	0	1	0	43.0847927252873	0
3.44	43.1809219115865	0	1	0	1	0	43.1809219115865	0
3.45	43.2777241859616	0	1	0	1	0	43.2777241859616	0
3.46	43.3751972786759	0	1	0	1	0	43.3751972786759	0
3.47	43.473338946157	0	1	0	1	0	43.473338946157	0
3.48	43.5721469706204	0	1	0	1	0	43.5721469706204	0
3.49	43.6716191597006	0	1	0	1	0	43.6716191597006	0
3.5	43.7717533460875	0	1	0	1	0	43.7717533460875	0
3.51	43.8725473871698	0	1	0	1	0	43.8725473871698	0
3.52	43.9739991646841	0	1	0	1	0	43.9739991646841	0
3.53	44.0761065843698	0	1	0	1	0	44.0761065843698	0
3.54	44.1788675756304	0	1	0	1	0	44.1788675756304	0
3.55	44.2822800912001	0	1	0	1	0	44.2822800912001	0
3.56	44.386342106816	0	1	0	1	0	44.386342106816	0
3.57	44.491051620896	0	1	0	1	0	44.491051620896	0
3.58	44.5964066542222	0	1	0	1	0	44.5964066542222	0
3.59	44.7024052496291	0	1	0	1	0	44.7024052496291	0
3.6	44.8090454716975	0	1	0	1	0	44.8090454716975	0
3.61	44.9163254064534	0	1	0	1	0	44.9163254064534	0
3.62	45.0242431610716	0	1	0	1	0	45.0242431610716	0
3.63	45.1327968635845	0	1	0	1	0	45.1327968635845	0
3.64	45.2419846625955	0	1	0	1	0	45.2419846625955	0
3.65	45.3518047269974	0	1	0	1	0	45.3518047269974	0
3.66	45.462255245695	0	1	0	1	0	45.462255245695	0
3.67	45.5733344273327	0	1	0	1	0	45.5733344273327	0
3.68	45.6850405000259	0	1	0	1	0	45.6850405000259	0
3.69	45.7973717110977	0	1	0	1	0	45.7973717110977	0
3.7	45.9103263268189	0	1	0	1	0	45.9103263268189	0
3.71	46.0239026321528	0	1	0	1	0	46.0239026321528	0
3.72	46.1380989305041	0	1	0	1	0	46.1380989305041	0
3.73	46.2529135434713	0	1	0	1	0	46.2529135434713	0
3.74	46.368344810604	0	1	0	1	0	46.368344810604	0
3.75	46.484391089163	0	1	0	1	0	46.484391089163	0
3.76	46.6010507538852	0	1	0	1	0	46.6010507538852	0
3.77	46.7183221967517	0	1	0	1	0	46.7183221967517	0
3.78	46.8362038267596	0	1	0	1	0	46.8362038267596	0
3.79	46.9546940696977	0	1	0	1	0	46.9546940696977	0
3.8	47.0737913679252	0	1	0	1	0	47.0737913679252	0
3.81	47.1934941801547	0	1	0	1	0	47.1934941801547	0
3.82	47.3138009812379	0	1	0	1	0	47.3138009812379	0
3.83	47.4347102619549	0	1	0	1	0	47.4347102619549	0
3.84	47.5562205288069	0	1	0	1	0	47.5562205288069	0
3.85	47.6783303038118	0	1	0	1	0	47.6783303038118	0
3.86	47.8010381243036	0	1	0	1	0	47.8010381243036	0
3.87	47.9243425427342	0	1	0	1	0	47.9243425427342	0
3.88	48.0482421264786	0	1	0	1	0	48.0482421264786	0
3.89	48.1727354576434	0	1	0	1	0	48.1727354576434	0
3.9	48.2978211328774	0	1	0	1	0	48.2978211328774	0
3.91	48.423497763186	0	1	0	1	0	48.423497763186	0
3.92	48.5497639737483	0	1	0	1	0	48.5497639737483	0
3.93	48.6766184037361	0	1	0	1	0	48.6766184037361	0
3.94	48.8040597061369	0	1	0	1	0	48.8040597061369	0
3.95	48.9320865475789	0	1	0	1	0	48.9320865475789	0
3.96	49.0606976081585	0	1	0	1	0	49.0606976081585	0
3.97	49.1898915812711	0	1	0	1	0	49.1898915812711	0
3.98	49.3196671734436	0	1	0	1	0	49.3196671734436	0
3.99	49.4500231041703	0	1	0	1	0	49.4500231041703	0
4	49.5809581057503	0	1	0	1	0	49.5809581057503	0
4.01	49.7124709231282	0	1	0	1	0	49.7124709231282	0
4.02	49.8445603137368	0	1	0	1	0	49.8445603137368	0
4.03	49.9772250473418	0	1	0	1	0	49.9772250473418	0
4.04	50.1104639058899	0	1	0	1	0	50.1104639058899	0
4.05	50.2442756833574	0	1	0	1	0	50.2442756833574	0
4.06	50.3786591856031	0	1	0	1	0	50.3786591856031	0
4.07	50.5136132302216	0	1	0	1	0	50.5136132302216	0
4.08	50.6491366463995	0	1	0	1	0	50.6491366463995	0
4.09	50.7852282747745	0	1	0	1	0	50.7852282747745	0
4.1	50.9218869672944	0	1	0	1	0	50.9218869672944	0
4.11	51.059111587081	0	1	0	1	0	51.059111587081	0
4.12	51.1969010082931	0	1	0	1	0	51.1969010082931	0
4.13	51.3352541159939	0	1	0	1	0	51.3352541159939	0
4.14	51.474169806019	0	1	0	1	0	51.474169806019	0
4.15	51.6136469848462	0	1	0	1	0	51.6136469848462	0
4.16	51.7536845694683	0	1	0	1	0	51.7536845694683	0
4.17	51.8942814872664	0	1	0	1	0	51.8942814872664	0
4.18	52.0354366758861	0	1	0	1	0	52.0354366758861	0
4.19	52.1771490831145	0	1	0	1	0	52.1771490831145	0
4.2	52.3194176667602	0	1	0	1	0	52.3194176667602	0
4.21	52.4622413945336	0	1	0	1	0	52.4622413945336	0
4.22	52.6056192439298	0	1	0	1	0	52.6056192439298	0
4.23	52.749550202113	0	1	0	1	0	52.749550202113	0
4.24	52.8940332658026	0	1	0	1	0	52.8940332658026	0
4.25	53.0390674411606	0	1	0	1	0	53.0390674411606	0
4.26	53.1846517436806	0	1	0	1	0	53.1846517436806	0
4.27	53.330785198079	0	1	0	1	0	53.330785198079	0
4.28	53.4774668381868	0	1	0	1	0	53.4774668381868	0
4.29	53.6246957068438	0	1	0	1	0	53.6246957068438	0
4.3	53.7724708557934	0	1	0	1	0	53.7724708557934	0
4.31	53.9207913455797	0	1	0	1	0	53.9207913455797	0
4.32	54.0696562454452	0	1	0	1	0	54.0696562454452	0
4.33	54.2190646332309	0	1	0	1	0	54.2190646332309	0
4.34	54.3690155952769	0	1	0	1	0	54.3690155952769	0
4.35	54.5195082263247	0	1	0	1	0	54.5195082263247	0
4.36	54.6705416294209	0	1	0	1	0	54.6705416294209	0
4.37	54.8221149158223	0	1	0	1	0	54.8221149158223	0
4.38	54.974227204902	0	1	0	1	0	54.974227204902	0
4.39	55.1268776240571	0	1	0	1	0	55.1268776240571	0
4.4	55.2800653086174	0	1	0	1	0	55.2800653086174	0
4.41	55.4337894017555	0	1	0	1	0	55.4337894017555	0
4.42	55.5880490543981	0	1	0	1	0	55.5880490543981	0
4.43	55.7428434251386	0	1	0	1	0	55.7428434251386	0
4.44	55.8981716801504	0	1	0	1	0	55.8981716801504	0
4.45	56.0540329931023	0	1	0	1	0	56.0540329931023	0
4.46	56.2104265450738	0	1	0	1	0	56.2104265450738	0
4.47	56.3673515244727	0	1	0	1	0	56.3673515244727	0
4.48	56.5248071269533	0	1	0	1	0	56.5248071269533	0
4.49	56.6827925553353	0	1	0	1	0	56.6827925553353	0
4.5	56.8413070195245	0	1	0	1	0	56.8413070195245	0
4.51	57.0003497364345	0	1	0	1	0	57.0003497364345	0
4.52	57.1599199299084	0	1	0	1	0	57.1599199299084	0
4.53	57.320016830643	0	1	0	1	0	57.320016830643	0
4.54	57.4806396761133	0	1	0	1	0	57.4806396761133	0
4.55	57.6417877104975	0	1	0	1	0	57.6417877104975	0
4.56	57.803460184604	0	1	0	1	0	57.803460184604	0
4.57	57.9656563557985	0	1	0	1	0	57.9656563557985	0
4.58	58.1283754879328	0	1	0	1	0	58.1283754879328	0
4.59	58.2916168512739	0	1	0	1	0	58.2916168512739	0
4.6	58.4553797224341	0	1	0	1	0	58.4553797224341	0
4.61	58.6196633843026	0	1	0	1	0	58.6196633843026	0
4.62	58.7844671259773	0	1	0	1	0	58.7844671259773	0
4.63	58.9497902426977	0	1	0	1	0	58.9497902426977	0
4.64	59.115632035779	0	1	0	1	0	59.115632035779	0
4.65	59.2819918125465	0	1	0	1	0	59.2819918125465	0
4.66	59.4488688862711	0	1	0	1	0	59.4488688862711	0
4.67	59.616262576106	0	1	0	1	0	59.616262576106	0
4.68	59.7841722070233	0	1	0	1	0	59.7841722070233	0
4.69	59.9525971097525	0	1	0	1	0	59.9525971097525	0
4.7	60.1215366207189	0	1	0	1	0	60.1215366207189	0
4.71	60.2909900819833	0	1	0	1	0	60.2909900819833	0
4.72	60.4609568411823	0	1	0	1	0	60.4609568411823	0
4.73	60.6314362514692	0	1	0	1	0	60.6314362514692	0
4.74	60.8024276714561	0	1	0	1	0	60.8024276714561	0
4.75	60.973930465156	0	1	0	1	0	60.973930465156	0
4.76	61.1459440019265	0	1	0	1	0	61.1459440019265	0
4.77	61.3184676564137	0	1	0	1	0	61.3184676564137	0
4.78	61.4915008084966	0	1	0	1	0	61.4915008084966	0
4.79	61.6650428432327	0	1	0	1	0	61.6650428432327	0
4.8	61.839093150804	0	1	0	1	0	61.839093150804	0
4.81	62.013651126464	0	1	0	1	0	62.013651126464	0
4.82	62.1887161704845	0	1	0	1	0	62.1887161704845	0
4.83	62.3642876881041	0	1	0	1	0	62.3642876881041	0
4.84	62.540365089477	0	1	0	1	0	62.540365089477	0
4.85	62.7169477896218	0	1	0	1	0	62.7169477896218	0
4.86	62.8940352083719	0	1	0	1	0	62.8940352083719	0
4.87	63.071626770326	0	1	0	1	0	63.071626770326	0
4.88	63.2497219047991	0	1	0	1	0	63.2497219047991	0
4.89	63.4283200457743	0	1	0	1	0	63.4283200457743	0
4.9	63.6074206318555	0	1	0	1	0	63.6074206318555	0
4.91	63.7870231062198	0	1	0	1	0	63.7870231062198	0
4.92	63.9671269165716	0	1	0	1	0	63.9671269165716	0
4.93	64.1477315150962	0	1	0	1	0	64.1477315150962	0
