# GHZ S RI R 50
1	55.9447531232582	0	1	0	1	0	55.9447531232582	0
1.01	55.4732220277987	0	1	0	1	0	55.4732220277987	0
1.02	55.011987693146	0	1	0	1	0	55.011987693146	0
1.03	54.5607605190776	0	1	0	1	0	54.5607605190776	0
1.04	54.1192620438414	0	1	0	1	0	54.1192620438414	0
1.05	53.6872244137517	0	1	0	1	0	53.6872244137517	0
1.06	53.2643898828094	0	1	0	1	0	53.2643898828094	0
1.07	52.8505103403797	0	1	0	1	0	52.8505103403797	0
1.08	52.4453468651105	0	1	0	1	0	52.4453468651105	0
1.09	52.0486693034059	0	1	0	1	0	52.0486693034059	0
1.1	51.6602558708914	0	1	0	1	0	51.6602558708914	0
1.11	51.2798927754226	0	1	0	1	0	51.2798927754226	0
1.12	50.9073738602885	0	1	0	1	0	50.9073738602885	0
1.13	50.5425002663609	0	1	0	1	0	50.5425002663609	0
1.14	50.1850801120249	0	1	0	1	0	50.1850801120249	0
1.15	49.8349281898088	0	1	0	1	0	49.8349281898088	0
1.16	49.4918656787052	0	1	0	1	0	49.4918656787052	0
1.17	49.1557198712456	0	1	0	1	0	49.1557198712456	0
1.18	48.826323914452	0	1	0	1	0	48.826323914452	0
1.19	48.5035165638497	0	1	0	1	0	48.5035165638497	0
1.2	48.1871419497799	0	1	0	1	0	48.1871419497799	0
1.21	47.8770493552999	0	1	0	1	0	47.8770493552999	0
1.22	47.5730930050059	0	1	0	1	0	47.5730930050059	0
1.23	47.2751318641578	0	1	0	1	0	47.2751318641578	0
1.24	46.9830294475231	0	1	0	1	0	46.9830294475231	0
1.25	46.6966536373969	0	1	0	1	0	46.6966536373969	0
1.26	46.4158765102871	0	1	0	1	0	46.4158765102871	0
1.27	46.1405741717879	0	1	0	1	0	46.1405741717879	0
1.28	45.8706265991938	0	1	0	1	0	45.8706265991938	0
1.29	45.6059174914334	0	1	0	1	0	45.6059174914334	0
1.3	45.34633412593	0	1	0	1	0	45.34633412593	0
1.31	45.0917672220174	0	1	0	1	0	45.0917672220174	0
1.32	44.8421108105651	0	1	0	1	0	44.8421108105651	0
1.33	44.5972621094838	0	1	0	1	0	44.5972621094838	0
1.34	44.3571214048063	0	1	0	1	0	44.3571214048063	0
1.35	44.1215919370536	0	1	0	1	0	44.1215919370536	0
1.36	43.8905797926133	0	1	0	1	0	43.8905797926133	0
1.37	43.6639937998767	0	1	0	1	0	43.6639937998767	0
1.38	43.4417454298901	0	1	0	1	0	43.4417454298901	0
1.39	43.2237487012957	0	1	0	1	0	43.2237487012957	0
1.4	43.0099200893461	0	1	0	1	0	43.0099200893461	0
1.41	42.8001784387899	0	1	0	1	0	42.8001784387899	0
1.42	42.5944448804396	0	1	0	1	0	42.5944448804396	0
1.43	42.3926427512383	0	1	0	1	0	42.3926427512383	0
1.44	42.1946975176589	0	1	0	1	0	42.1946975176589	0
1.45	42.0005367022714	0	1	0	1	0	42.0005367022714	0
1.46	41.8100898133287	0	1	0	1	0	41.8100898133287	0
1.47	41.6232882772268	0	1	0	1	0	41.6232882772268	0
1.48	41.440065373702	0	1	0	1	0	41.440065373702	0
1.49	41.2603561736389	0	1	0	1	0	41.2603561736389	0
1.5	41.0840974793649	0	1	0	1	0	41.0840974793649	0
1.51	40.9112277673183	0	1	0	1	0	40.9112277673183	0
1.52	40.7416871329781	0	1	0	1	0	40.7416871329781	0
1.53	40.5754172379548	0	1	0	1	0	40.5754172379548	0
1.54	40.4123612591418	0	1	0	1	0	40.4123612591418	0
1.55	40.2524638398351	0	1	0	1	0	40.2524638398351	0
1.56	40.0956710427333	0	1	0	1	0	40.0956710427333	0
1.57	39.941930304734	0	1	0	1	0	39.941930304734	0
1.58	39.7911903934461	0	1	0	1	0	39.7911903934461	0
1.59	39.6434013653437	0	1	0	1	0	39.6434013653437	0
1.6	39.498514525489	0	1	0	1	0	39.498514525489	0
1.61	39.3564823887565	0	1	0	1	0	39.3564823887565	0
1.62	39.2172586424928	0	1	0	1	0	39.2172586424928	0
1.63	39.0807981105513	0	1	0	1	0	39.0807981105513	0
1.64	38.9470567186427	0	1	0	1	0	38.9470567186427	0
1.65	38.8159914609453	0	1	0	1	0	38.8159914609453	0
1.66	38.6875603679223	0	1	0	1	0	38.6875603679223	0
1.67	38.5617224752951	0	1	0	1	0	38.5617224752951	0
1.68	38.4384377941253	0	1	0	1	0	38.4384377941253	0
1.69	38.3176672819582	0	1	0	1	0	38.3176672819582	0
1.7	38.199372814985	0	1	0	1	0	38.199372814985	0
1.71	38.0835171611818	0	1	0	1	0	38.0835171611818	0
1.72	37.970063954386	0	1	0	1	0	37.970063954386	0
1.73	37.858977669271	0	1	0	1	0	37.858977669271	0
1.74	37.7502235971842	0	1	0	1	0	37.7502235971842	0
1.75	37.643767822814	0	1	0	1	0	37.643767822814	0
1.76	37.539577201651	0	1	0	1	0	37.539577201651	0
1.77	37.4376193382145	0	1	0	1	0	37.4376193382145	0
1.78	37.3378625650119	0	1	0	1	0	37.3378625650119	0
1.79	37.2402759222043	0	1	0	1	0	37.2402759222043	0
1.8	37.144829137949	0	1	0	1	0	37.144829137949	0
1.81	37.0514926093945	0	1	0	1	0	37.0514926093945	0
1.82	36.9602373843012	0	1	0	1	0	36.9602373843012	0
1.83	36.8710351432656	0	1	0	1	0	36.8710351432656	0
1.84	36.7838581825232	0	1	0	1	0	36.7838581825232	0
1.85	36.69867939731	0	1	0	1	0	36.69867939731	0
1.86	36.6154722657599	0	1	0	1	0	36.6154722657599	0
1.87	36.5342108333196	0	1	0	1	0	36.5342108333196	0
1.88	36.4548696976603	0	1	0	1	0	36.4548696976603	0
1.89	36.3774239940688	0	1	0	1	0	36.3774239940688	0
1.9	36.3018493812992	0	1	0	1	0	36.3018493812992	0
1.91	36.2281220278702	0	1	0	1	0	36.2281220278702	0
1.92	36.1562185987896	0	1	0	1	0	36.1562185987896	0
1.93	36.0861162426919	0	1	0	1	0	36.0861162426919	0
1.94	36.017792579374	0	1	0	1	0	36.017792579374	0
1.95	35.9512256877135	0	1	0	1	0	35.9512256877135	0
1.96	35.8863940939583	0	1	0	1	0	35.8863940939583	0
1.97	35.8232767603713	0	1	0	1	0	35.8232767603713	0
1.98	35.7618530742203	0	1	0	1	0	35.7618530742203	0
1.99	35.7021028370991	0	1	0	1	0	35.7021028370991	0
2	35.6440062545701	0	1	0	1	0	35.6440062545701	0
2.01	35.5875439261145	0	1	0	1	0	35.5875439261145	0
2.02	35.5326968353823	0	1	0	1	0	35.5326968353823	0
2.03	35.4794463407298	0	1	0	1	0	35.4794463407298	0
2.04	35.427774166036	0	1	0	1	0	35.427774166036	0
2.05	35.3776623917869	0	1	0	1	0	35.3776623917869	0
2.06	35.3290934464202	0	1	0	1	0	35.3290934464202	0
2.07	35.2820500979209	0	1	0	1	0	35.2820500979209	0
2.08	35.2365154456586	0	1	0	1	0	35.2365154456586	0
2.09	35.1924729124604	0	1	0	1	0	35.1924729124604	0
2.1	35.1499062369086	0	1	0	1	0	35.1499062369086	0
2.11	35.1087994658592	0	1	0	1	0	35.1087994658592	0
2.12	35.0691369471705	0	1	0	1	0	35.0691369471705	0
2.13	35.0309033226382	0	1	0	1	0	35.0309033226382	0
2.14	34.9940835211269	0	1	0	1	0	34.9940835211269	0
2.15	34.9586627518946	0	1	0	1	0	34.9586627518946	0
2.16	34.9246264981018	0	1	0	1	0	34.9246264981018	0
2.17	34.8919605105006	0	1	0	1	0	34.8919605105006	0
2.18	34.8606508012972	0	1	0	1	0	34.8606508012972	0
2.19	34.8306836381825	0	1	0	1	0	34.8306836381825	0
2.2	34.8020455385259	0	1	0	1	0	34.8020455385259	0
2.21	34.7747232637263	0	1	0	1	0	34.7747232637263	0
2.22	34.7487038137157	0	1	0	1	0	34.7487038137157	0
2.23	34.7239744216115	0	1	0	1	0	34.7239744216115	0
2.24	34.700522548511	0	1	0	1	0	34.700522548511	0
2.25	34.6783358784254	0	1	0	1	0	34.6783358784254	0
2.26	34.6574023133479	0	1	0	1	0	34.6574023133479	0
2.27	34.6377099684524	0	1	0	1	0	34.6377099684524	0
2.28	34.6192471674187	0	1	0	1	0	34.6192471674187	0
2.29	34.6020024378797	0	1	0	1	0	34.6020024378797	0
2.3	34.5859645069877	0	1	0	1	0	34.5859645069877	0
2.31	34.5711222970959	0	1	0	1	0	34.5711222970959	0
2.32	34.5574649215512	0	1	0	1	0	34.5574649215512	0
2.33	34.5449816805962	0	1	0	1	0	34.5449816805962	0
2.34	34.533662057375	0	1	0	1	0	34.533662057375	0
2.35	34.5234957140422	0	1	0	1	0	34.5234957140422	0
2.36	34.51447248797	0	1	0	1	0	34.51447248797	0
2.37	34.5065823880518	0	1	0	1	0	34.5065823880518	0
2.38	34.4998155910988	0	1	0	1	0	34.4998155910988	0
2.39	34.494162438327	0	1	0	1	0	34.494162438327	0
2.4	34.4896134319321	0	1	0	1	0	34.4896134319321	0
2.41	34.4861592317498	0	1	0	1	0	34.4861592317498	0
2.42	34.4837906519986	0	1	0	1	0	34.4837906519986	0
2.43	34.4824986581032	0	1	0	1	0	34.4824986581032	0
2.44	34.4822743635962	0	1	0	1	0	34.4822743635962	0
2.45	34.4831090270955	0	1	0	1	0	34.4831090270955	0
2.46	34.4849940493551	0	1	0	1	0	34.4849940493551	0
2.47	34.487920970388	0	1	0	1	0	34.487920970388	0
2.48	34.4918814666589	0	1	0	1	0	34.4918814666589	0
2.49	34.4968673483436	0	1	0	1	0	34.4968673483436	0
2.5	34.5028705566552	0	1	0	1	0	34.5028705566552	0
2.51	34.5098831612337	0	1	0	1	0	34.5098831612337	0
2.52	34.5178973575979	0	1	0	1	0	34.5178973575979	0
2.53	34.5269054646574	0	1	0	1	0	34.5269054646574	0
2.54	34.5368999222841	0	1	0	1	0	34.5368999222841	0
2.55	34.5478732889399	0	1	0	1	0	34.5478732889399	0
2.56	34.559818239361	0	1	0	1	0	34.559818239361	0
2.57	34.5727275622953	0	1	0	1	0	34.5727275622953	0
2.58	34.5865941582931	0	1	0	1	0	34.5865941582931	0
2.59	34.6014110375487	0	1	0	1	0	34.6014110375487	0
2.6	34.6171713177919	0	1	0	1	0	34.6171713177919	0
2.61	34.6338682222279	0	1	0	1	0	34.6338682222279	0
2.62	34.6514950775244	0	1	0	1	0	34.6514950775244	0
2.63	34.6700453118446	0	1	0	1	0	34.6700453118446	0
2.64	34.6895124529252	0	1	0	1	0	34.6895124529252	0
2.65	34.7098901261971	0	1	0	1	0	34.7098901261971	0
2.66	34.7311720529497	0	1	0	1	0	34.7311720529497	0
2.67	34.7533520485353	0	1	0	1	0	34.7533520485353	0
2.68	34.7764240206144	0	1	0	1	0	34.7764240206144	0
2.69	34.8003819674399	0	1	0	1	0	34.8003819674399	0
2.7	34.8252199761796	0	1	0	1	0	34.8252199761796	0
2.71	34.8509322212755	0	1	0	1	0	34.8509322212755	0
2.72	34.8775129628394	0	1	0	1	0	34.8775129628394	0
2.73	34.9049565450842	0	1	0	1	0	34.9049565450842	0
2.74	34.9332573947891	0	1	0	1	0	34.9332573947891	0
2.75	34.9624100197983	0	1	0	1	0	34.9624100197983	0
2.76	34.9924090075522	0	1	0	1	0	34.9924090075522	0
2.77	35.0232490236512	0	1	0	1	0	35.0232490236512	0
2.78	35.0549248104495	0	1	0	1	0	35.0549248104495	0
2.79	35.0874311856799	0	1	0	1	0	35.0874311856799	0
2.8	35.1207630411075	0	1	0	1	0	35.1207630411075	0
2.81	35.1549153412123	0	1	0	1	0	35.1549153412123	0
2.82	35.1898831219004	0	1	0	1	0	35.1898831219004	0
2.83	35.2256614892417	0	1	0	1	0	35.2256614892417	0
2.84	35.2622456182345	0	1	0	1	0	35.2622456182345	0
2.85	35.2996307515966	0	1	0	1	0	35.2996307515966	0
2.86	35.3378121985813	0	1	0	1	0	35.3378121985813	0
2.87	35.376785333818	0	1	0	1	0	35.376785333818	0
2.88	35.4165455961773	0	1	0	1	0	35.4165455961773	0
2.89	35.4570884876598	0	1	0	1	0	35.4570884876598	0
2.9	35.4984095723074	0	1	0	1	0	35.4984095723074	0
2.91	35.5405044751374	0	1	0	1	0	35.5405044751374	0
2.92	35.5833688810983	0	1	0	1	0	35.5833688810983	0
2.93	35.6269985340471	0	1	0	1	0	35.6269985340471	0
2.94	35.6713892357477	0	1	0	1	0	35.6713892357477	0
2.95	35.716536844889	0	1	0	1	0	35.716536844889	0
2.96	35.7624372761239	0	1	0	1	0	35.7624372761239	0
2.97	35.8090864991264	0	1	0	1	0	35.8090864991264	0
2.98	35.8564805376691	0	1	0	1	0	35.8564805376691	0
2.99	35.9046154687183	0	1	0	1	0	35.9046154687183	0
3	35.9534874215472	0	1	0	1	0	35.9534874215472	0
3.01	36.0030925768675	0	1	0	1	0	36.0030925768675	0
3.02	36.0534271659772	0	1	0	1	0	36.0534271659772	0
3.03	36.1044874699264	0	1	0	1	0	36.1044874699264	0
3.04	36.1562698186986	0	1	0	1	0	36.1562698186986	0
3.05	36.2087705904088	0	1	0	1	0	36.2087705904088	0
3.06	36.2619862105167	0	1	0	1	0	36.2619862105167	0
3.07	36.3159131510561	0	1	0	1	0	36.3159131510561	0
3.08	36.3705479298782	0	1	0	1	0	36.3705479298782	0
3.09	36.4258871099108	0	1	0	1	0	36.4258871099108	0
3.1	36.481927298431	0	1	0	1	0	36.481927298431	0
3.11	36.5386651463521	0	1	0	1	0	36.5386651463521	0
3.12	36.5960973475245	0	1	0	1	0	36.5960973475245	0
3.13	36.6542206380497	0	1	0	1	0	36.6542206380497	0
3.14	36.7130317956075	0	1	0	1	0	36.7130317956075	0
3.15	36.7725276387961	0	1	0	1	0	36.7725276387961	0
3.16	36.8327050264844	0	1	0	1	0	36.8327050264844	0
3.17	36.8935608571774	0	1	0	1	0	36.8935608571774	0
3.18	36.9550920683923	0	1	0	1	0	36.9550920683923	0
3.19	37.0172956360475	0	1	0	1	0	37.0172956360475	0
3.2	37.0801685738624	0	1	0	1	0	37.0801685738624	0
3.21	37.1437079327684	0	1	0	1	0	37.1437079327684	0
3.22	37.2079108003317	0	1	0	1	0	37.2079108003317	0
3.23	37.2727743001854	0	1	0	1	0	37.2727743001854	0
3.24	37.3382955914736	0	1	0	1	0	37.3382955914736	0
3.25	37.4044718683046	0	1	0	1	0	37.4044718683046	0
3.26	37.4713003592149	0	1	0	1	0	37.4713003592149	0
3.27	37.5387783266426	0	1	0	1	0	37.5387783266426	0
3.28	37.6069030664108	0	1	0	1	0	37.6069030664108	0
3.29	37.6756719072201	0	1	0	1	0	37.6756719072201	0
3.3	37.7450822101506	0	1	0	1	0	37.7450822101506	0
3.31	37.8151313681724	0	1	0	1	0	37.8151313681724	0
3.32	37.8858168056658	0	1	0	1	0	37.8858168056658	0
3.33	37.9571359779494	0	1	0	1	0	37.9571359779494	0
3.34	38.0290863708171	0	1	0	1	0	38.0290863708171	0
3.35	38.1016655000832	0	1	0	1	0	38.1016655000832	0
3.36	38.1748709111354	0	1	0	1	0	38.1748709111354	0
3.37	38.2487001784965	0	1	0	1	0	38.2487001784965	0
3.38	38.3231509053932	0	1	0	1	0	38.3231509053932	0
3.39	38.3982207233325	0	1	0	1	0	38.3982207233325	0
3.4	38.4739072916862	0	1	0	1	0	38.4739072916862	0
3.41	38.550208297282	0	1	0	1	0	38.550208297282	0
3.42	38.6271214540024	0	1	0	1	0	38.6271214540024	0
3.43	38.7046445023902	0	1	0	1	0	38.7046445023902	0
3.44	38.7827752092606	0	1	0	1	0	38.7827752092606	0
3.45	38.8615113673213	0	1	0	1	0	38.8615113673213	0
3.46	38.9408507947974	0	1	0	1	0	38.9408507947974	0
3.47	39.0207913350644	0	1	0	1	0	39.0207913350644	0
3.48	39.1013308562865	0	1	0	1	0	39.1013308562865	0
3.49	39.1824672510617	0	1	0	1	0	39.1824672510617	0
3.5	39.2641984360722	0	1	0	1	0	39.2641984360722	0
3.51	39.3465223517421	0	1	0	1	0	39.3465223517421	0
3.52	39.4294369618997	0	1	0	1	0	39.4294369618997	0
3.53	39.5129402534459	0	1	0	1	0	39.5129402534459	0
3.54	39.5970302360286	0	1	0	1	0	39.5970302360286	0
3.55	39.6817049417223	0	1	0	1	0	39.6817049417223	0
3.56	39.7669624247128	0	1	0	1	0	39.7669624247128	0
3.57	39.8528007609878	0	1	0	1	0	39.8528007609878	0
3.58	39.9392180480326	0	1	0	1	0	39.9392180480326	0
3.59	40.0262124045301	0	1	0	1	0	40.0262124045301	0
3.6	40.1137819700668	0	1	0	1	0	40.1137819700668	0
3.61	40.2019249048434	0	1	0	1	0	40.2019249048434	0
3.62	40.2906393893897	0	1	0	1	0	40.2906393893897	0
3.63	40.3799236242847	0	1	0	1	0	40.3799236242847	0
3.64	40.4697758298814	0	1	0	1	0	40.4697758298814	0
3.65	40.5601942460358	0	1	0	1	0	40.5601942460358	0
3.66	40.6511771318402	0	1	0	1	0	40.6511771318402	0
3.67	40.7427227653617	0	1	0	1	0	40.7427227653617	0
3.68	40.8348294433838	0	1	0	1	0	40.8348294433838	0
3.69	40.9274954811532	0	1	0	1	0	40.9274954811532	0
3.7	41.0207192121302	0	1	0	1	0	41.0207192121302	0
3.71	41.114498987743	0	1	0	1	0	41.114498987743	0
3.72	41.2088331771464	0	1	0	1	0	41.2088331771464	0
3.73	41.3037201669843	0	1	0	1	0	41.3037201669843	0
3.74	41.3991583611557	0	1	0	1	0	41.3991583611557	0
3.75	41.4951461805847	0	1	0	1	0	41.4951461805847	0
3.76	41.5916820629938	0	1	0	1	0	41.5916820629938	0
3.77	41.6887644626819	0	1	0	1	0	41.6887644626819	0
3.78	41.786391850304	0	1	0	1	0	41.786391850304	0
3.79	41.8845627126563	0	1	0	1	0	41.8845627126563	0
3.8	41.9832755524634	0	1	0	1	0	41.9832755524634	0
3.81	42.0825288881691	0	1	0	1	0	42.0825288881691	0
3.82	42.1823212537313	0	1	0	1	0	42.1823212537313	0
3.83	42.2826511984186	0	1	0	1	0	42.2826511984186	0
3.84	42.3835172866116	0	1	0	1	0	42.3835172866116	0
3.85	42.4849180976065	0	1	0	1	0	42.4849180976065	0
3.86	42.5868522254216	0	1	0	1	0	42.5868522254216	0
3.87	42.6893182786076	0	1	0	1	0	42.6893182786076	0
3.88	42.7923148800597	0	1	0	1	0	42.7923148800597	0
3.89	42.8958406668339	0	1	0	1	0	42.8958406668339	0
3.9	42.9998942899648	0	1	0	1	0	42.9998942899648	0
3.91	43.1044744142874	0	1	0	1	0	43.1044744142874	0
3.92	43.2095797182607	0	1	0	1	0	43.2095797182607	0
3.93	43.3152088937946	0	1	0	1	0	43.3152088937946	0
3.94	43.421360646079	0	1	0	1	0	43.421360646079	0
3.95	43.5280336934158	0	1	0	1	0	43.5280336934158	0
3.96	43.6352267670534	0	1	0	1	0	43.6352267670534	0
3.97	43.7429386110237	0	1	0	1	0	43.7429386110237	0
3.98	43.8511679819811	0	1	0	1	0	43.8511679819811	0
3.99	43.9599136490449	0	1	0	1	0	43.9599136490449	0
4	44.069174393643	0	1	0	1	0	44.069174393643	0
4.01	44.1789490093589	0	1	0	1	0	44.1789490093589	0
4.02	44.2892363017799	0	1	0	1	0	44.2892363017799	0
4.03	44.4000350883488	0	1	0	1	0	44.4000350883488	0
4.04	44.5113441982167	0	1	0	1	0	44.5113441982167	0
4.05	44.6231624720988	0	1	0	1	0	44.6231624720988	0
4.06	44.7354887621316	0	1	0	1	0	44.7354887621316	0
4.07	44.8483219317331	0	1	0	1	0	44.8483219317331	0
4.08	44.961660855464	0	1	0	1	0	44.961660855464	0
4.09	45.075504418892	0	1	0	1	0	45.075504418892	0
4.1	45.1898515184571	0	1	0	1	0	45.1898515184571	0
4.11	45.3047010613395	0	1	0	1	0	45.3047010613395	0
4.12	45.4200519653295	0	1	0	1	0	45.4200519653295	0
4.13	45.5359031586988	0	1	0	1	0	45.5359031586988	0
4.14	45.6522535800739	0	1	0	1	0	45.6522535800739	0
4.15	45.7691021783114	0	1	0	1	0	45.7691021783114	0
4.16	45.8864479123751	0	1	0	1	0	45.8864479123751	0
4.17	46.0042897512147	0	1	0	1	0	46.0042897512147	0
4.18	46.1226266736464	0	1	0	1	0	46.1226266736464	0
4.19	46.2414576682354	0	1	0	1	0	46.2414576682354	0
4.2	46.3607817331793	0	1	0	1	0	46.3607817331793	0
4.21	46.4805978761941	0	1	0	1	0	46.4805978761941	0
4.22	46.6009051144015	0	1	0	1	0	46.6009051144015	0
4.23	46.7217024742173	0	1	0	1	0	46.7217024742173	0
4.24	46.8429889912424	0	1	0	1	0	46.8429889912424	0
4.25	46.9647637101539	0	1	0	1	0	46.9647637101539	0
4.26	47.0870256845996	0	1	0	1	0	47.0870256845996	0
4.27	47.2097739770921	0	1	0	1	0	47.2097739770921	0
4.28	47.3330076589056	0	1	0	1	0	47.3330076589056	0
4.29	47.4567258099739	0	1	0	1	0	47.4567258099739	0
4.3	47.5809275187893	0	1	0	1	0	47.5809275187893	0
4.31	47.7056118823039	0	1	0	1	0	47.7056118823039	0
4.32	47.830778005831	0	1	0	1	0	47.830778005831	0
4.33	47.9564250029492	0	1	0	1	0	47.9564250029492	0
4.34	48.0825519954067	0	1	0	1	0	48.0825519954067	0
4.35	48.2091581130277	0	1	0	1	0	48.2091581130277	0
4.36	48.3362424936195	0	1	0	1	0	48.3362424936195	0
4.37	48.4638042828816	0	1	0	1	0	48.4638042828816	0
4.38	48.591842634315	0	1	0	1	0	48.591842634315	0
4.39	48.7203567091339	0	1	0	1	0	48.7203567091339	0
4.4	48.8493456761777	0	1	0	1	0	48.8493456761777	0
4.41	48.9788087118248	0	1	0	1	0	48.9788087118248	0
4.42	49.1087449999071	0	1	0	1	0	49.1087449999071	0
4.43	49.2391537316259	0	1	0	1	0	49.2391537316259	0
4.44	49.3700341054692	0	1	0	1	0	49.3700341054692	0
4.45	49.5013853271294	0	1	0	1	0	49.5013853271294	0
4.46	49.6332066094228	0	1	0	1	0	49.6332066094228	0
4.47	49.7654971722099	0	1	0	1	0	49.7654971722099	0
4.48	49.8982562423165	0	1	0	1	0	49.8982562423165	0
4.49	50.0314830534567	0	1	0	1	0	50.0314830534567	0
4.5	50.1651768461558	0	1	0	1	0	50.1651768461558	0
4.51	50.2993368676752	0	1	0	1	0	50.2993368676752	0
4.52	50.4339623719374	0	1	0	1	0	50.4339623719374	0
4.53	50.5690526194532	0	1	0	1	0	50.5690526194532	0
4.54	50.7046068772483	0	1	0	1	0	50.7046068772483	0
4.55	50.8406244187925	0	1	0	1	0	50.8406244187925	0
4.56	50.9771045239283	0	1	0	1	0	50.9771045239283	0
4.57	51.1140464788019	0	1	0	1	0	51.1140464788019	0
4.58	51.2514495757938	0	1	0	1	0	51.2514495757938	0
4.59	51.3893131134513	0	1	0	1	0	51.3893131134513	0
4.6	51.5276363964211	0	1	0	1	0	51.5276363964211	0
4.61	51.6664187353835	0	1	0	1	0	51.6664187353835	0
4.62	51.8056594469867	0	1	0	1	0	51.8056594469867	0
4.63	51.9453578537829	0	1	0	1	0	51.9453578537829	0
4.64	52.0855132841641	0	1	0	1	0	52.0855132841641	0
4.65	52.2261250722998	0	1	0	1	0	52.2261250722998	0
4.66	52.3671925580746	0	1	0	1	0	52.3671925580746	0
4.67	52.5087150870272	0	1	0	1	0	52.5087150870272	0
4.68	52.6506920102902	0	1	0	1	0	52.6506920102902	0
4.69	52.7931226845299	0	1	0	1	0	52.7931226845299	0
4.7	52.9360064718882	0	1	0	1	0	52.9360064718882	0
4.71	53.0793427399236	0	1	0	1	0	53.0793427399236	0
4.72	53.2231308615547	0	1	0	1	0	53.2231308615547	0
4.73	53.3673702150028	0	1	0	1	0	53.3673702150028	0
4.74	53.5120601837365	0	1	0	1	0	53.5120601837365	0
4.75	53.657200156416	0	1	0	1	0	53.657200156416	0
4.76	53.8027895268391	0	1	0	1	0	53.8027895268391	0
4.77	53.9488276938868	0	1	0	1	0	53.9488276938868	0
4.78	54.0953140614705	0	1	0	1	0	54.0953140614705	0
4.79	54.2422480384794	0	1	0	1	0	54.2422480384794	0
4.8	54.3896290387287	0	1	0	1	0	54.3896290387287	0
4.81	54.5374564809079	0	1	0	1	0	54.5374564809079	0
4.82	54.6857297885313	0	1	0	1	0	54.6857297885313	0
4.83	54.8344483898868	0	1	0	1	0	54.8344483898868	0
4.84	54.9836117179877	0	1	0	1	0	54.9836117179877	0
4.85	55.133219210523	0	1	0	1	0	55.133219210523	0
4.86	55.2832703098102	0	1	0	1	0	55.2832703098102	0
4.87	55.4337644627471	0	1	0	1	0	55.4337644627471	0
4.88	55.5847011207652	0	1	0	1	0	55.5847011207652	0
4.89	55.7360797397833	0	1	0	1	0	55.7360797397833	0
4.9	55.8878997801616	0	1	0	1	0	55.8878997801616	0
4.91	56.0401607066565	0	1	0	1	0	56.0401607066565	0
4.92	56.1928619883763	0	1	0	1	0	56.1928619883763	0
4.93	56.3460030987362	0	1	0	1	0	56.3460030987362	0
