# GHZ S RI R 50
1	47.2531380807344	0	1	0	1	0	47.2531380807344	0
1.01	46.8665181830071	0	1	0	1	0	46.8665181830071	0
1.02	46.4886438179048	0	1	0	1	0	46.4886438179048	0
1.03	46.1192716813945	0	1	0	1	0	46.1192716813945	0
1.04	45.758167827291	0	1	0	1	0	45.758167827291	0
1.05	45.4051072216446	0	1	0	1	0	45.4051072216446	0
1.06	45.0598733223526	0	1	0	1	0	45.0598733223526	0
1.07	44.7222576823443	0	1	0	1	0	44.7222576823443	0
1.08	44.3920595748109	0	1	0	1	0	44.3920595748109	0
1.09	44.0690856390651	0	1	0	1	0	44.0690856390651	0
1.1	43.7531495457171	0	1	0	1	0	43.7531495457171	0
1.11	43.4440716799498	0	1	0	1	0	43.4440716799498	0
1.12	43.1416788417611	0	1	0	1	0	43.1416788417611	0
1.13	42.8458039621224	0	1	0	1	0	42.8458039621224	0
1.14	42.5562858340761	0	1	0	1	0	42.5562858340761	0
1.15	42.2729688578633	0	1	0	1	0	42.2729688578633	0
1.16	41.9957027992339	0	1	0	1	0	41.9957027992339	0
1.17	41.7243425601517	0	1	0	1	0	41.7243425601517	0
1.18	41.4587479611578	0	1	0	1	0	41.4587479611578	0
1.19	41.1987835347079	0	1	0	1	0	41.1987835347079	0
1.2	40.9443183288426	0	1	0	1	0	40.9443183288426	0
1.21	40.6952257205928	0	1	0	1	0	40.6952257205928	0
1.22	40.4513832385622	0	1	0	1	0	40.4513832385622	0
1.23	40.2126723941642	0	1	0	1	0	40.2126723941642	0
1.24	39.9789785210245	0	1	0	1	0	39.9789785210245	0
1.25	39.7501906220929	0	1	0	1	0	39.7501906220929	0
1.26	39.5262012240352	0	1	0	1	0	39.5262012240352	0
1.27	39.3069062385038	0	1	0	1	0	39.3069062385038	0
1.28	39.0922048299123	0	1	0	1	0	39.0922048299123	0
1.29	38.8819992893588	0	1	0	1	0	38.8819992893588	0
1.3	38.6761949143695	0	1	0	1	0	38.6761949143695	0
1.31	38.4746998941489	0	1	0	1	0	38.4746998941489	0
1.32	38.2774252000469	0	1	0	1	0	38.2774252000469	0
1.33	38.084284480967	0	1	0	1	0	38.084284480967	0
1.34	37.895193963457	0	1	0	1	0	37.895193963457	0
1.35	37.7100723562414	0	1	0	1	0	37.7100723562414	0
1.36	37.5288407589644	0	1	0	1	0	37.5288407589644	0
1.37	37.3514225749302	0	1	0	1	0	37.3514225749302	0
1.38	37.1777434276372	0	1	0	1	0	37.1777434276372	0
1.39	37.0077310809146	0	1	0	1	0	37.0077310809146	0
1.4	36.8413153624824	0	1	0	1	0	36.8413153624824	0
1.41	36.6784280907634	0	1	0	1	0	36.6784280907634	0
1.42	36.5190030047885	0	1	0	1	0	36.5190030047885	0
1.43	36.3629756970418	0	1	0	1	0	36.3629756970418	0
1.44	36.2102835491055	0	1	0	1	0	36.2102835491055	0
1.45	36.0608656699662	0	1	0	1	0	36.0608656699662	0
1.46	35.9146628368575	0	1	0	1	0	35.9146628368575	0
1.47	35.771617438517	0	1	0	1	0	35.771617438517	0
1.48	35.6316734207431	0	1	0	1	0	35.6316734207431	0
1.49	35.4947762341453	0	1	0	1	0	35.4947762341453	0
1.5	35.3608727839834	0	1	0	1	0	35.3608727839834	0
1.51	35.2299113820003	0	1	0	1	0	35.2299113820003	0
1.52	35.1018417001564	0	1	0	1	0	35.1018417001564	0
1.53	34.9766147261776	0	1	0	1	0	34.9766147261776	0
1.54	34.8541827208361	0	1	0	1	0	34.8541827208361	0
1.55	34.734499176884	0	1	0	1	0	34.734499176884	0
1.56	34.6175187795669	0	1	0	1	0	34.6175187795669	0
1.57	34.5031973686468	0	1	0	1	0	34.5031973686468	0
1.58	34.3914919018659	0	1	0	1	0	34.3914919018659	0
1.59	34.2823604197908	0	1	0	1	0	34.2823604197908	0
1.6	34.175762011974	0	1	0	1	0	34.175762011974	0
1.61	34.0716567843764	0	1	0	1	0	34.0716567843764	0
1.62	33.9700058279971	0	1	0	1	0	33.9700058279971	0
1.63	33.8707711886571	0	1	0	1	0	33.8707711886571	0
1.64	33.7739158378893	0	1	0	1	0	33.7739158378893	0
1.65	33.6794036448863	0	1	0	1	0	33.6794036448863	0
1.66	33.5871993494625	0	1	0	1	0	33.5871993494625	0
1.67	33.4972685359879	0	1	0	1	0	33.4972685359879	0
1.68	33.4095776082519	0	1	0	1	0	33.4095776082519	0
1.69	33.3240937652207	0	1	0	1	0	33.3240937652207	0
1.7	33.2407849776496	0	1	0	1	0	33.2407849776496	0
1.71	33.1596199655158	0	1	0	1	0	33.1596199655158	0
1.72	33.080568176239	0	1	0	1	0	33.080568176239	0
1.73	33.003599763657	0	1	0	1	0	33.003599763657	0
1.74	32.9286855677261	0	1	0	1	0	32.9286855677261	0
1.75	32.8557970949181	0	1	0	1	0	32.8557970949181	0
1.76	32.7849064992847	0	1	0	1	0	32.7849064992847	0
1.77	32.7159865641649	0	1	0	1	0	32.7159865641649	0
1.78	32.6490106845078	0	1	0	1	0	32.6490106845078	0
1.79	32.5839528497889	0	1	0	1	0	32.5839528497889	0
1.8	32.5207876274953	0	1	0	1	0	32.5207876274953	0
1.81	32.4594901471587	0	1	0	1	0	32.4594901471587	0
1.82	32.4000360849144	0	1	0	1	0	32.4000360849144	0
1.83	32.3424016485668	0	1	0	1	0	32.3424016485668	0
1.84	32.2865635631421	0	1	0	1	0	32.2865635631421	0
1.85	32.232499056909	0	1	0	1	0	32.232499056909	0
1.86	32.1801858478511	0	1	0	1	0	32.1801858478511	0
1.87	32.1296021305725	0	1	0	1	0	32.1296021305725	0
1.88	32.0807265636219	0	1	0	1	0	32.0807265636219	0
1.89	32.0335382572189	0	1	0	1	0	32.0335382572189	0
1.9	31.988016761368	0	1	0	1	0	31.988016761368	0
1.91	31.944142054346	0	1	0	1	0	31.944142054346	0
1.92	31.9018945315486	0	1	0	1	0	31.9018945315486	0
1.93	31.8612549946849	0	1	0	1	0	31.8612549946849	0
1.94	31.8222046413048	0	1	0	1	0	31.8222046413048	0
1.95	31.7847250546496	0	1	0	1	0	31.7847250546496	0
1.96	31.7487981938127	0	1	0	1	0	31.7487981938127	0
1.97	31.7144063842005	0	1	0	1	0	31.7144063842005	0
1.98	31.6815323082817	0	1	0	1	0	31.6815323082817	0
1.99	31.6501589966164	0	1	0	1	0	31.6501589966164	0
2	31.6202698191531	0	1	0	1	0	31.6202698191531	0
2.01	31.5918484767868	0	1	0	1	0	31.5918484767868	0
2.02	31.5648789931671	0	1	0	1	0	31.5648789931671	0
2.03	31.5393457067485	0	1	0	1	0	31.5393457067485	0
2.04	31.5152332630745	0	1	0	1	0	31.5152332630745	0
2.05	31.4925266072879	0	1	0	1	0	31.4925266072879	0
2.06	31.4712109768588	0	1	0	1	0	31.4712109768588	0
2.07	31.4512718945236	0	1	0	1	0	31.4512718945236	0
2.08	31.4326951614274	0	1	0	1	0	31.4326951614274	0
2.09	31.415466850464	0	1	0	1	0	31.415466850464	0
2.1	31.3995732998053	0	1	0	1	0	31.3995732998053	0
2.11	31.3850011066153	0	1	0	1	0	31.3850011066153	0
2.12	31.3717371209414	0	1	0	1	0	31.3717371209414	0
2.13	31.3597684397788	0	1	0	1	0	31.3597684397788	0
2.14	31.3490824013002	0	1	0	1	0	31.3490824013002	0
2.15	31.3396665792472	0	1	0	1	0	31.3396665792472	0
2.16	31.3315087774773	0	1	0	1	0	31.3315087774773	0
2.17	31.3245970246617	0	1	0	1	0	31.3245970246617	0
2.18	31.3189195691291	0	1	0	1	0	31.3189195691291	0
2.19	31.3144648738503	0	1	0	1	0	31.3144648738503	0
2.2	31.3112216115606	0	1	0	1	0	31.3112216115606	0
2.21	31.3091786600135	0	1	0	1	0	31.3091786600135	0
2.22	31.3083250973634	0	1	0	1	0	31.3083250973634	0
2.23	31.3086501976722	0	1	0	1	0	31.3086501976722	0
2.24	31.3101434265364	0	1	0	1	0	31.3101434265364	0
2.25	31.3127944368308	0	1	0	1	0	31.3127944368308	0
2.26	31.3165930645651	0	1	0	1	0	31.3165930645651	0
2.27	31.3215293248504	0	1	0	1	0	31.3215293248504	0
2.28	31.327593407971	0	1	0	1	0	31.327593407971	0
2.29	31.3347756755601	0	1	0	1	0	31.3347756755601	0
2.3	31.3430666568745	0	1	0	1	0	31.3430666568745	0
2.31	31.3524570451668	0	1	0	1	0	31.3524570451668	0
2.32	31.3629376941507	0	1	0	1	0	31.3629376941507	0
2.33	31.3744996145574	0	1	0	1	0	31.3744996145574	0
2.34	31.3871339707812	0	1	0	1	0	31.3871339707812	0
2.35	31.4008320776095	0	1	0	1	0	31.4008320776095	0
2.36	31.4155853970368	0	1	0	1	0	31.4155853970368	0
2.37	31.4313855351587	0	1	0	1	0	31.4313855351587	0
2.38	31.4482242391452	0	1	0	1	0	31.4482242391452	0
2.39	31.4660933942887	0	1	0	1	0	31.4660933942887	0
2.4	31.4849850211268	0	1	0	1	0	31.4849850211268	0
2.41	31.5048912726364	0	1	0	1	0	31.5048912726364	0
2.42	31.5258044314971	0	1	0	1	0	31.5258044314971	0
2.43	31.5477169074227	0	1	0	1	0	31.5477169074227	0
2.44	31.5706212345578	0	1	0	1	0	31.5706212345578	0
2.45	31.5945100689387	0	1	0	1	0	31.5945100689387	0
2.46	31.6193761860157	0	1	0	1	0	31.6193761860157	0
2.47	31.6452124782356	0	1	0	1	0	31.6452124782356	0
2.48	31.6720119526836	0	1	0	1	0	31.6720119526836	0
2.49	31.6997677287805	0	1	0	1	0	31.6997677287805	0
2.5	31.7284730360365	0	1	0	1	0	31.7284730360365	0
2.51	31.758121211858	0	1	0	1	0	31.758121211858	0
2.52	31.7887056994071	0	1	0	1	0	31.7887056994071	0
2.53	31.820220045511	0	1	0	1	0	31.820220045511	0
2.54	31.8526578986218	0	1	0	1	0	31.8526578986218	0
2.55	31.8860130068238	0	1	0	1	0	31.8860130068238	0
2.56	31.9202792158873	0	1	0	1	0	31.9202792158873	0
2.57	31.9554504673684	0	1	0	1	0	31.9554504673684	0
2.58	31.9915207967527	0	1	0	1	0	31.9915207967527	0
2.59	32.0284843316415	0	1	0	1	0	32.0284843316415	0
2.6	32.066335289981	0	1	0	1	0	32.066335289981	0
2.61	32.1050679783311	0	1	0	1	0	32.1050679783311	0
2.62	32.1446767901746	0	1	0	1	0	32.1446767901746	0
2.63	32.1851562042643	0	1	0	1	0	32.1851562042643	0
2.64	32.2265007830083	0	1	0	1	0	32.2265007830083	0
2.65	32.2687051708919	0	1	0	1	0	32.2687051708919	0
2.66	32.311764092934	0	1	0	1	0	32.311764092934	0
2.67	32.3556723531797	0	1	0	1	0	32.3556723531797	0
2.68	32.4004248332255	0	1	0	1	0	32.4004248332255	0
2.69	32.4460164907782	0	1	0	1	0	32.4460164907782	0
2.7	32.4924423582451	0	1	0	1	0	32.4924423582451	0
2.71	32.5396975413558	0	1	0	1	0	32.5396975413558	0
2.72	32.5877772178148	0	1	0	1	0	32.5877772178148	0
2.73	32.6366766359826	0	1	0	1	0	32.6366766359826	0
2.74	32.6863911135868	0	1	0	1	0	32.6863911135868	0
2.75	32.7369160364609	0	1	0	1	0	32.7369160364609	0
2.76	32.7882468573103	0	1	0	1	0	32.7882468573103	0
2.77	32.8403790945052	0	1	0	1	0	32.8403790945052	0
2.78	32.8933083308998	0	1	0	1	0	32.8933083308998	0
2.79	32.9470302126766	0	1	0	1	0	32.9470302126766	0
2.8	33.0015404482154	0	1	0	1	0	33.0015404482154	0
2.81	33.0568348069868	0	1	0	1	0	33.0568348069868	0
2.82	33.1129091184686	0	1	0	1	0	33.1129091184686	0
2.83	33.1697592710862	0	1	0	1	0	33.1697592710862	0
2.84	33.2273812111745	0	1	0	1	0	33.2273812111745	0
2.85	33.2857709419619	0	1	0	1	0	33.2857709419619	0
2.86	33.3449245225756	0	1	0	1	0	33.3449245225756	0
2.87	33.4048380670678	0	1	0	1	0	33.4048380670678	0
2.88	33.4655077434626	0	1	0	1	0	33.4655077434626	0
2.89	33.5269297728214	0	1	0	1	0	33.5269297728214	0
2.9	33.5891004283291	0	1	0	1	0	33.5891004283291	0
2.91	33.6520160343981	0	1	0	1	0	33.6520160343981	0
2.92	33.7156729657917	0	1	0	1	0	33.7156729657917	0
2.93	33.7800676467641	0	1	0	1	0	33.7800676467641	0
2.94	33.8451965502192	0	1	0	1	0	33.8451965502192	0
2.95	33.9110561968862	0	1	0	1	0	33.9110561968862	0
2.96	33.977643154511	0	1	0	1	0	33.977643154511	0
2.97	34.0449540370656	0	1	0	1	0	34.0449540370656	0
2.98	34.1129855039717	0	1	0	1	0	34.1129855039717	0
2.99	34.1817342593412	0	1	0	1	0	34.1817342593412	0
3	34.2511970512312	0	1	0	1	0	34.2511970512312	0
3.01	34.3213706709138	0	1	0	1	0	34.3213706709138	0
3.02	34.392251952161	0	1	0	1	0	34.392251952161	0
3.03	34.4638377705431	0	1	0	1	0	34.4638377705431	0
3.04	34.5361250427412	0	1	0	1	0	34.5361250427412	0
3.05	34.6091107258737	0	1	0	1	0	34.6091107258737	0
3.06	34.6827918168349	0	1	0	1	0	34.6827918168349	0
3.07	34.7571653516477	0	1	0	1	0	34.7571653516477	0
3.08	34.8322284048281	0	1	0	1	0	34.8322284048281	0
3.09	34.9079780887625	0	1	0	1	0	34.9079780887625	0
3.1	34.9844115530968	0	1	0	1	0	34.9844115530968	0
3.11	35.0615259841375	0	1	0	1	0	35.0615259841375	0
3.12	35.139318604264	0	1	0	1	0	35.139318604264	0
3.13	35.2177866713524	0	1	0	1	0	35.2177866713524	0
3.14	35.2969274782105	0	1	0	1	0	35.2969274782105	0
3.15	35.3767383520229	0	1	0	1	0	35.3767383520229	0
3.16	35.4572166538075	0	1	0	1	0	35.4572166538075	0
3.17	35.5383597778815	0	1	0	1	0	35.5383597778815	0
3.18	35.6201651513382	0	1	0	1	0	35.6201651513382	0
3.19	35.7026302335329	0	1	0	1	0	35.7026302335329	0
3.2	35.785752515579	0	1	0	1	0	35.785752515579	0
3.21	35.8695295198532	0	1	0	1	0	35.8695295198532	0
3.22	35.9539587995103	0	1	0	1	0	35.9539587995103	0
3.23	36.0390379380063	0	1	0	1	0	36.0390379380063	0
3.24	36.1247645486315	0	1	0	1	0	36.1247645486315	0
3.25	36.2111362740507	0	1	0	1	0	36.2111362740507	0
3.26	36.2981507858533	0	1	0	1	0	36.2981507858533	0
3.27	36.3858057841107	0	1	0	1	0	36.3858057841107	0
3.28	36.4740989969421	0	1	0	1	0	36.4740989969421	0
3.29	36.5630281800885	0	1	0	1	0	36.5630281800885	0
3.3	36.6525911164941	0	1	0	1	0	36.6525911164941	0
3.31	36.7427856158951	0	1	0	1	0	36.7427856158951	0
3.32	36.8336095144166	0	1	0	1	0	36.8336095144166	0
3.33	36.9250606741762	0	1	0	1	0	36.9250606741762	0
3.34	37.0171369828946	0	1	0	1	0	37.0171369828946	0
3.35	37.1098363535141	0	1	0	1	0	37.1098363535141	0
3.36	37.2031567238228	0	1	0	1	0	37.2031567238228	0
3.37	37.2970960560859	0	1	0	1	0	37.2970960560859	0
3.38	37.3916523366842	0	1	0	1	0	37.3916523366842	0
3.39	37.4868235757577	0	1	0	1	0	37.4868235757577	0
3.4	37.5826078068565	0	1	0	1	0	37.5826078068565	0
3.41	37.6790030865979	0	1	0	1	0	37.6790030865979	0
3.42	37.7760074943284	0	1	0	1	0	37.7760074943284	0
3.43	37.8736191317931	0	1	0	1	0	37.8736191317931	0
3.44	37.9718361228097	0	1	0	1	0	37.9718361228097	0
3.45	38.0706566129487	0	1	0	1	0	38.0706566129487	0
3.46	38.1700787692192	0	1	0	1	0	38.1700787692192	0
3.47	38.2701007797598	0	1	0	1	0	38.2701007797598	0
3.48	38.3707208535351	0	1	0	1	0	38.3707208535351	0
3.49	38.4719372200375	0	1	0	1	0	38.4719372200375	0
3.5	38.5737481289934	0	1	0	1	0	38.5737481289934	0
3.51	38.6761518500757	0	1	0	1	0	38.6761518500757	0
3.52	38.7791466726198	0	1	0	1	0	38.7791466726198	0
3.53	38.8827309053458	0	1	0	1	0	38.8827309053458	0
3.54	38.9869028760839	0	1	0	1	0	38.9869028760839	0
3.55	39.0916609315059	0	1	0	1	0	39.0916609315059	0
3.56	39.1970034368603	0	1	0	1	0	39.1970034368603	0
3.57	39.3029287757119	0	1	0	1	0	39.3029287757119	0
3.58	39.4094353496866	0	1	0	1	0	39.4094353496866	0
3.59	39.5165215782192	0	1	0	1	0	39.5165215782192	0
3.6	39.6241858983064	0	1	0	1	0	39.6241858983064	0
3.61	39.7324267642637	0	1	0	1	0	39.7324267642637	0
3.62	39.8412426474856	0	1	0	1	0	39.8412426474856	0
3.63	39.9506320362112	0	1	0	1	0	39.9506320362112	0
3.64	40.0605934352918	0	1	0	1	0	40.0605934352918	0
3.65	40.1711253659645	0	1	0	1	0	40.1711253659645	0
3.66	40.2822263656273	0	1	0	1	0	40.2822263656273	0
3.67	40.3938949876195	0	1	0	1	0	40.3938949876195	0
3.68	40.506129801005	0	1	0	1	0	40.506129801005	0
3.69	40.6189293903593	0	1	0	1	0	40.6189293903593	0
3.7	40.7322923555595	0	1	0	1	0	40.7322923555595	0
3.71	40.8462173115787	0	1	0	1	0	40.8462173115787	0
3.72	40.9607028882824	0	1	0	1	0	40.9607028882824	0
3.73	41.0757477302297	0	1	0	1	0	41.0757477302297	0
3.74	41.1913504964759	0	1	0	1	0	41.1913504964759	0
3.75	41.30750986038	0	1	0	1	0	41.30750986038	0
3.76	41.4242245094141	0	1	0	1	0	41.4242245094141	0
3.77	41.5414931449765	0	1	0	1	0	41.5414931449765	0
3.78	41.6593144822071	0	1	0	1	0	41.6593144822071	0
3.79	41.7776872498064	0	1	0	1	0	41.7776872498064	0
3.8	41.8966101898571	0	1	0	1	0	41.8966101898571	0
3.81	42.0160820576481	0	1	0	1	0	42.0160820576481	0
3.82	42.1361016215023	0	1	0	1	0	42.1361016215023	0
3.83	42.2566676626057	0	1	0	1	0	42.2566676626057	0
3.84	42.3777789748407	0	1	0	1	0	42.3777789748407	0
3.85	42.4994343646204	0	1	0	1	0	42.4994343646204	0
3.86	42.6216326507268	0	1	0	1	0	42.6216326507268	0
3.87	42.744372664151	0	1	0	1	0	42.744372664151	0
3.88	42.8676532479356	0	1	0	1	0	42.8676532479356	0
3.89	42.9914732570199	0	1	0	1	0	42.9914732570199	0
3.9	43.1158315580877	0	1	0	1	0	43.1158315580877	0
3.91	43.2407270294164	0	1	0	1	0	43.2407270294164	0
3.92	43.3661585607298	0	1	0	1	0	43.3661585607298	0
3.93	43.4921250530523	0	1	0	1	0	43.4921250530523	0
3.94	43.6186254185652	0	1	0	1	0	43.6186254185652	0
3.95	43.7456585804658	0	1	0	1	0	43.7456585804658	0
3.96	43.8732234728282	0	1	0	1	0	43.8732234728282	0
3.97	44.0013190404662	0	1	0	1	0	44.0013190404662	0
3.98	44.1299442387987	0	1	0	1	0	44.1299442387987	0
3.99	44.2590980337164	0	1	0	1	0	44.2590980337164	0
4	44.3887794014511	0	1	0	1	0	44.3887794014511	0
4.01	44.5189873284469	0	1	0	1	0	44.5189873284469	0
4.02	44.6497208112329	0	1	0	1	0	44.6497208112329	0
4.03	44.7809788562983	0	1	0	1	0	44.7809788562983	0
4.04	44.9127604799689	0	1	0	1	0	44.9127604799689	0
4.05	45.045064708286	0	1	0	1	0	45.045064708286	0
4.06	45.1778905768863	0	1	0	1	0	45.1778905768863	0
4.07	45.3112371308845	0	1	0	1	0	45.3112371308845	0
4.08	45.4451034247569	0	1	0	1	0	45.4451034247569	0
4.09	45.5794885222268	0	1	0	1	0	45.5794885222268	0
4.1	45.714391496152	0	1	0	1	0	45.714391496152	0
4.11	45.8498114284137	0	1	0	1	0	45.8498114284137	0
4.12	45.9857474098068	0	1	0	1	0	45.9857474098068	0
4.13	46.1221985399319	0	1	0	1	0	46.1221985399319	0
4.14	46.2591639270894	0	1	0	1	0	46.2591639270894	0
4.15	46.396642688174	0	1	0	1	0	46.396642688174	0
4.16	46.5346339485723	0	1	0	1	0	46.5346339485723	0
4.17	46.6731368420601	0	1	0	1	0	46.6731368420601	0
4.18	46.8121505107026	0	1	0	1	0	46.8121505107026	0
4.19	46.9516741047551	0	1	0	1	0	46.9516741047551	0
4.2	47.091706782566	0	1	0	1	0	47.091706782566	0
4.21	47.2322477104803	0	1	0	1	0	47.2322477104803	0
4.22	47.3732960627447	0	1	0	1	0	47.3732960627447	0
4.23	47.5148510214147	0	1	0	1	0	47.5148510214147	0
4.24	47.6569117762623	0	1	0	1	0	47.6569117762623	0
4.25	47.7994775246849	0	1	0	1	0	47.7994775246849	0
4.26	47.9425474716164	0	1	0	1	0	47.9425474716164	0
4.27	48.0861208294384	0	1	0	1	0	48.0861208294384	0
4.28	48.2301968178934	0	1	0	1	0	48.2301968178934	0
4.29	48.3747746639992	0	1	0	1	0	48.3747746639992	0
4.3	48.5198536019641	0	1	0	1	0	48.5198536019641	0
4.31	48.6654328731033	0	1	0	1	0	48.6654328731033	0
4.32	48.8115117257572	0	1	0	1	0	48.8115117257572	0
4.33	48.9580894152096	0	1	0	1	0	48.9580894152096	0
4.34	49.1051652036083	0	1	0	1	0	49.1051652036083	0
4.35	49.2527383598858	0	1	0	1	0	49.2527383598858	0
4.36	49.4008081596818	0	1	0	1	0	49.4008081596818	0
4.37	49.549373885266	0	1	0	1	0	49.549373885266	0
4.38	49.698434825463	0	1	0	1	0	49.698434825463	0
4.39	49.8479902755774	0	1	0	1	0	49.8479902755774	0
4.4	49.9980395373197	0	1	0	1	0	49.9980395373197	0
4.41	50.1485819187346	0	1	0	1	0	50.1485819187346	0
4.42	50.2996167341286	0	1	0	1	0	50.2996167341286	0
4.43	50.4511433039995	0	1	0	1	0	50.4511433039995	0
4.44	50.6031609549668	0	1	0	1	0	50.6031609549668	0
4.45	50.755669019703	0	1	0	1	0	50.755669019703	0
4.46	50.9086668368653	0	1	0	1	0	50.9086668368653	0
4.47	51.0621537510294	0	1	0	1	0	51.0621537510294	0
4.48	51.2161291126225	0	1	0	1	0	51.2161291126225	0
4.49	51.3705922778589	0	1	0	1	0	51.3705922778589	0
4.5	51.5255426086755	0	1	0	1	0	51.5255426086755	0
4.51	51.6809794726683	0	1	0	1	0	51.6809794726683	0
4.52	51.8369022430295	0	1	0	1	0	51.8369022430295	0
4.53	51.9933102984864	0	1	0	1	0	51.9933102984864	0
4.54	52.1502030232398	0	1	0	1	0	52.1502030232398	0
4.55	52.3075798069043	0	1	0	1	0	52.3075798069043	0
4.56	52.4654400444486	0	1	0	1	0	52.4654400444486	0
4.57	52.6237831361372	0	1	0	1	0	52.6237831361372	0
4.58	52.7826084874725	0	1	0	1	0	52.7826084874725	0
4.59	52.9419155091375	0	1	0	1	0	52.9419155091375	0
4.6	53.10170361694	0	1	0	1	0	53.10170361694	0
4.61	53.2619722317564	0	1	0	1	0	53.2619722317564	0
4.62	53.4227207794773	0	1	0	1	0	53.4227207794773	0
4.63	53.5839486909532	0	1	0	1	0	53.5839486909532	0
4.64	53.7456554019412	0	1	0	1	0	53.7456554019412	0
4.65	53.9078403530518	0	1	0	1	0	53.9078403530518	0
4.66	54.0705029896974	0	1	0	1	0	54.0705029896974	0
4.67	54.2336427620405	0	1	0	1	0	54.2336427620405	0
4.68	54.3972591249431	0	1	0	1	0	54.3972591249431	0
4.69	54.5613515379164	0	1	0	1	0	54.5613515379164	0
4.7	54.7259194650719	0	1	0	1	0	54.7259194650719	0
4.71	54.8909623750716	0	1	0	1	0	54.8909623750716	0
4.72	55.056479741081	0	1	0	1	0	55.056479741081	0
4.73	55.2224710407203	0	1	0	1	0	55.2224710407203	0
4.74	55.3889357560183	0	1	0	1	0	55.3889357560183	0
4.75	55.5558733733656	0	1	0	1	0	55.5558733733656	0
4.76	55.7232833834688	0	1	0	1	0	55.7232833834688	0
4.77	55.8911652813053	0	1	0	1	0	55.8911652813053	0
4.78	56.0595185660787	0	1	0	1	0	56.0595185660787	0
4.79	56.2283427411745	0	1	0	1	0	56.2283427411745	0
4.8	56.3976373141167	0	1	0	1	0	56.3976373141167	0
4.81	56.5674017965249	0	1	0	1	0	56.5674017965249	0
4.82	56.7376357040713	0	1	0	1	0	56.7376357040713	0
4.83	56.9083385564395	0	1	0	1	0	56.9083385564395	0
4.84	57.0795098772824	0	1	0	1	0	57.0795098772824	0
4.85	57.2511491941816	0	1	0	1	0	57.2511491941816	0
4.86	57.4232560386068	0	1	0	1	0	57.4232560386068	0
4.87	57.5958299458762	0	1	0	1	0	57.5958299458762	0
4.88	57.7688704551168	0	1	0	1	0	57.7688704551168	0
4.89	57.9423771092255	0	1	0	1	0	57.9423771092255	0
4.9	58.1163494548307	0	1	0	1	0	58.1163494548307	0
4.91	58.290787042254	0	1	0	1	0	58.290787042254	0
4.92	58.4656894254733	0	1	0	1	0	58.4656894254733	0
4.93	58.6410561620852	0	1	0	1	0	58.6410561620852	0
