# GHZ S RI R 50
1	53.5012978047296	0	1	0	1	0	53.5012978047296	0
1.01	53.046917739402	0	1	0	1	0	53.046917739402	0
1.02	52.6025890246256	0	1	0	1	0	52.6025890246256	0
1.03	52.1680300991593	0	1	0	1	0	52.1680300991593	0
1.04	51.7429702310403	0	1	0	1	0	51.7429702310403	0
1.05	51.3271490019048	0	1	0	1	0	51.3271490019048	0
1.06	50.9203158204967	0	1	0	1	0	50.9203158204967	0
1.07	50.5222294634574	0	1	0	1	0	50.5222294634574	0
1.08	50.1326576416269	0	1	0	1	0	50.1326576416269	0
1.09	49.751376590218	0	1	0	1	0	49.751376590218	0
1.1	49.3781706813447	0	1	0	1	0	49.3781706813447	0
1.11	49.0128320574955	0	1	0	1	0	49.0128320574955	0
1.12	48.6551602846412	0	1	0	1	0	48.6551602846412	0
1.13	48.3049620237628	0	1	0	1	0	48.3049620237628	0
1.14	47.9620507196662	0	1	0	1	0	47.9620507196662	0
1.15	47.6262463060338	0	1	0	1	0	47.6262463060338	0
1.16	47.2973749257314	0	1	0	1	0	47.2973749257314	0
1.17	46.9752686654583	0	1	0	1	0	46.9752686654583	0
1.18	46.6597653038902	0	1	0	1	0	46.6597653038902	0
1.19	46.3507080725204	0	1	0	1	0	46.3507080725204	0
1.2	46.0479454284591	0	1	0	1	0	46.0479454284591	0
1.21	45.7513308384988	0	1	0	1	0	45.7513308384988	0
1.22	45.4607225737994	0	1	0	1	0	45.4607225737994	0
1.23	45.175983514589	0	1	0	1	0	45.175983514589	0
1.24	44.8969809643137	0	1	0	1	0	44.8969809643137	0
1.25	44.6235864727098	0	1	0	1	0	44.6235864727098	0
1.26	44.3556756672995	0	1	0	1	0	44.3556756672995	0
1.27	44.0931280928484	0	1	0	1	0	44.0931280928484	0
1.28	43.8358270583482	0	1	0	1	0	43.8358270583482	0
1.29	43.5836594911166	0	1	0	1	0	43.5836594911166	0
1.3	43.3365157976304	0	1	0	1	0	43.3365157976304	0
1.31	43.094289730734	0	1	0	1	0	43.094289730734	0
1.32	42.856878262882	0	1	0	1	0	42.856878262882	0
1.33	42.6241814651024	0	1	0	1	0	42.6241814651024	0
1.34	42.3961023913771	0	1	0	1	0	42.3961023913771	0
1.35	42.1725469681628	0	1	0	1	0	42.1725469681628	0
1.36	41.9534238887853	0	1	0	1	0	41.9534238887853	0
1.37	41.7386445124583	0	1	0	1	0	41.7386445124583	0
1.38	41.528122767694	0	1	0	1	0	41.528122767694	0
1.39	41.3217750598817	0	1	0	1	0	41.3217750598817	0
1.4	41.1195201828285	0	1	0	1	0	41.1195201828285	0
1.41	40.9212792340628	0	1	0	1	0	40.9212792340628	0
1.42	40.7269755337182	0	1	0	1	0	40.7269755337182	0
1.43	40.5365345468196	0	1	0	1	0	40.5365345468196	0
1.44	40.3498838088077	0	1	0	1	0	40.3498838088077	0
1.45	40.1669528541458	0	1	0	1	0	40.1669528541458	0
1.46	39.9876731478596	0	1	0	1	0	39.9876731478596	0
1.47	39.8119780198722	0	1	0	1	0	39.8119780198722	0
1.48	39.6398026020007	0	1	0	1	0	39.6398026020007	0
1.49	39.4710837674897	0	1	0	1	0	39.4710837674897	0
1.5	39.3057600729643	0	1	0	1	0	39.3057600729643	0
1.51	39.1437717026883	0	1	0	1	0	39.1437717026883	0
1.52	38.9850604150242	0	1	0	1	0	38.9850604150242	0
1.53	38.8295694909912	0	1	0	1	0	38.8295694909912	0
1.54	38.6772436848294	0	1	0	1	0	38.6772436848294	0
1.55	38.5280291764753	0	1	0	1	0	38.5280291764753	0
1.56	38.3818735258675	0	1	0	1	0	38.3818735258675	0
1.57	38.238725628997	0	1	0	1	0	38.238725628997	0
1.58	38.0985356756269	0	1	0	1	0	38.0985356756269	0
1.59	37.9612551086085	0	1	0	1	0	37.9612551086085	0
1.6	37.8268365847214	0	1	0	1	0	37.8268365847214	0
1.61	37.6952339369744	0	1	0	1	0	37.6952339369744	0
1.62	37.5664021383022	0	1	0	1	0	37.5664021383022	0
1.63	37.440297266598	0	1	0	1	0	37.440297266598	0
1.64	37.3168764710258	0	1	0	1	0	37.3168764710258	0
1.65	37.1960979395579	0	1	0	1	0	37.1960979395579	0
1.66	37.0779208676853	0	1	0	1	0	37.0779208676853	0
1.67	36.9623054282525	0	1	0	1	0	36.9623054282525	0
1.68	36.8492127423696	0	1	0	1	0	36.8492127423696	0
1.69	36.7386048513572	0	1	0	1	0	36.7386048513572	0
1.7	36.630444689681	0	1	0	1	0	36.630444689681	0
1.71	36.5246960588372	0	1	0	1	0	36.5246960588372	0
1.72	36.4213236021473	0	1	0	1	0	36.4213236021473	0
1.73	36.3202927804284	0	1	0	1	0	36.3202927804284	0
1.74	36.2215698485018	0	1	0	1	0	36.2215698485018	0
1.75	36.1251218325072	0	1	0	1	0	36.1251218325072	0
1.76	36.0309165079901	0	1	0	1	0	36.0309165079901	0
1.77	35.9389223787324	0	1	0	1	0	35.9389223787324	0
1.78	35.8491086562961	0	1	0	1	0	35.8491086562961	0
1.79	35.761445240253	0	1	0	1	0	35.761445240253	0
1.8	35.6759026990733	0	1	0	1	0	35.6759026990733	0
1.81	35.5924522516477	0	1	0	1	0	35.5924522516477	0
1.82	35.511065749419	0	1	0	1	0	35.511065749419	0
1.83	35.4317156590987	0	1	0	1	0	35.4317156590987	0
1.84	35.3543750459481	0	1	0	1	0	35.3543750459481	0
1.85	35.2790175576014	0	1	0	1	0	35.2790175576014	0
1.86	35.2056174084102	0	1	0	1	0	35.2056174084102	0
1.87	35.1341493642908	0	1	0	1	0	35.1341493642908	0
1.88	35.064588728055	0	1	0	1	0	35.064588728055	0
1.89	34.9969113252063	0	1	0	1	0	34.9969113252063	0
1.9	34.9310934901849	0	1	0	1	0	34.9310934901849	0
1.91	34.867112053045	0	1	0	1	0	34.867112053045	0
1.92	34.804944326548	0	1	0	1	0	34.804944326548	0
1.93	34.7445680936568	0	1	0	1	0	34.7445680936568	0
1.94	34.685961595418	0	1	0	1	0	34.685961595418	0
1.95	34.6291035192155	0	1	0	1	0	34.6291035192155	0
1.96	34.5739729873844	0	1	0	1	0	34.5739729873844	0
1.97	34.5205495461721	0	1	0	1	0	34.5205495461721	0
1.98	34.4688131550328	0	1	0	1	0	34.4688131550328	0
1.99	34.418744176246	0	1	0	1	0	34.418744176246	0
2	34.3703233648455	0	1	0	1	0	34.3703233648455	0
2.01	34.3235318588494	0	1	0	1	0	34.3235318588494	0
2.02	34.2783511697805	0	1	0	1	0	34.2783511697805	0
2.03	34.2347631734667	0	1	0	1	0	34.2347631734667	0
2.04	34.1927501011115	0	1	0	1	0	34.1927501011115	0
2.05	34.152294530627	0	1	0	1	0	34.152294530627	0
2.06	34.1133793782179	0	1	0	1	0	34.1133793782179	0
2.07	34.0759878902109	0	1	0	1	0	34.0759878902109	0
2.08	34.0401036351185	0	1	0	1	0	34.0401036351185	0
2.09	34.0057104959314	0	1	0	1	0	34.0057104959314	0
2.1	33.9727926626311	0	1	0	1	0	33.9727926626311	0
2.11	33.941334624915	0	1	0	1	0	33.941334624915	0
2.12	33.9113211651278	0	1	0	1	0	33.9113211651278	0
2.13	33.8827373513916	0	1	0	1	0	33.8827373513916	0
2.14	33.8555685309293	0	1	0	1	0	33.8555685309293	0
2.15	33.8298003235733	0	1	0	1	0	33.8298003235733	0
2.16	33.8054186154556	0	1	0	1	0	33.8054186154556	0
2.17	33.7824095528716	0	1	0	1	0	33.7824095528716	0
2.18	33.760759536313	0	1	0	1	0	33.760759536313	0
2.19	33.7404552146647	0	1	0	1	0	33.7404552146647	0
2.2	33.7214834795587	0	1	0	1	0	33.7214834795587	0
2.21	33.7038314598829	0	1	0	1	0	33.7038314598829	0
2.22	33.6874865164368	0	1	0	1	0	33.6874865164368	0
2.23	33.6724362367323	0	1	0	1	0	33.6724362367323	0
2.24	33.6586684299327	0	1	0	1	0	33.6586684299327	0
2.25	33.6461711219275	0	1	0	1	0	33.6461711219275	0
2.26	33.634932550537	0	1	0	1	0	33.634932550537	0
2.27	33.6249411608449	0	1	0	1	0	33.6249411608449	0
2.28	33.6161856006525	0	1	0	1	0	33.6161856006525	0
2.29	33.6086547160531	0	1	0	1	0	33.6086547160531	0
2.3	33.6023375471206	0	1	0	1	0	33.6023375471206	0
2.31	33.5972233237114	0	1	0	1	0	33.5972233237114	0
2.32	33.593301461374	0	1	0	1	0	33.593301461374	0
2.33	33.5905615573642	0	1	0	1	0	33.5905615573642	0
2.34	33.5889933867625	0	1	0	1	0	33.5889933867625	0
2.35	33.5885868986905	0	1	0	1	0	33.5885868986905	0
2.36	33.5893322126238	0	1	0	1	0	33.5893322126238	0
2.37	33.5912196147979	0	1	0	1	0	33.5912196147979	0
2.38	33.5942395547047	0	1	0	1	0	33.5942395547047	0
2.39	33.5983826416774	0	1	0	1	0	33.5983826416774	0
2.4	33.6036396415602	0	1	0	1	0	33.6036396415602	0
2.41	33.6100014734614	0	1	0	1	0	33.6100014734614	0
2.42	33.6174592065866	0	1	0	1	0	33.6174592065866	0
2.43	33.6260040571504	0	1	0	1	0	33.6260040571504	0
2.44	33.6356273853639	0	1	0	1	0	33.6356273853639	0
2.45	33.6463206924959	0	1	0	1	0	33.6463206924959	0
2.46	33.658075618006	0	1	0	1	0	33.658075618006	0
2.47	33.6708839367472	0	1	0	1	0	33.6708839367472	0
2.48	33.6847375562361	0	1	0	1	0	33.6847375562361	0
2.49	33.699628513989	0	1	0	1	0	33.699628513989	0
2.5	33.7155489749222	0	1	0	1	0	33.7155489749222	0
2.51	33.7324912288136	0	1	0	1	0	33.7324912288136	0
2.52	33.7504476878255	0	1	0	1	0	33.7504476878255	0
2.53	33.7694108840865	0	1	0	1	0	33.7694108840865	0
2.54	33.7893734673289	0	1	0	1	0	33.7893734673289	0
2.55	33.8103282025836	0	1	0	1	0	33.8103282025836	0
2.56	33.8322679679281	0	1	0	1	0	33.8322679679281	0
2.57	33.8551857522864	0	1	0	1	0	33.8551857522864	0
2.58	33.8790746532819	0	1	0	1	0	33.8790746532819	0
2.59	33.903927875138	0	1	0	1	0	33.903927875138	0
2.6	33.9297387266289	0	1	0	1	0	33.9297387266289	0
2.61	33.9565006190758	0	1	0	1	0	33.9565006190758	0
2.62	33.984207064391	0	1	0	1	0	33.984207064391	0
2.63	34.0128516731646	0	1	0	1	0	34.0128516731646	0
2.64	34.0424281527959	0	1	0	1	0	34.0424281527959	0
2.65	34.072930305667	0	1	0	1	0	34.072930305667	0
2.66	34.1043520273572	0	1	0	1	0	34.1043520273572	0
2.67	34.1366873048979	0	1	0	1	0	34.1366873048979	0
2.68	34.1699302150662	0	1	0	1	0	34.1699302150662	0
2.69	34.2040749227167	0	1	0	1	0	34.2040749227167	0
2.7	34.239115679151	0	1	0	1	0	34.239115679151	0
2.71	34.275046820522	0	1	0	1	0	34.275046820522	0
2.72	34.3118627662746	0	1	0	1	0	34.3118627662746	0
2.73	34.34955801762	0	1	0	1	0	34.34955801762	0
2.74	34.3881271560438	0	1	0	1	0	34.3881271560438	0
2.75	34.4275648418463	0	1	0	1	0	34.4275648418463	0
2.76	34.4678658127148	0	1	0	1	0	34.4678658127148	0
2.77	34.5090248823265	0	1	0	1	0	34.5090248823265	0
2.78	34.5510369389822	0	1	0	1	0	34.5510369389822	0
2.79	34.5938969442685	0	1	0	1	0	34.5938969442685	0
2.8	34.6375999317494	0	1	0	1	0	34.6375999317494	0
2.81	34.6821410056857	0	1	0	1	0	34.6821410056857	0
2.82	34.7275153397809	0	1	0	1	0	34.7275153397809	0
2.83	34.7737181759551	0	1	0	1	0	34.7737181759551	0
2.84	34.8207448231433	0	1	0	1	0	34.8207448231433	0
2.85	34.8685906561202	0	1	0	1	0	34.8685906561202	0
2.86	34.917251114349	0	1	0	1	0	34.917251114349	0
2.87	34.9667217008543	0	1	0	1	0	34.9667217008543	0
2.88	35.0169979811185	0	1	0	1	0	35.0169979811185	0
2.89	35.0680755820019	0	1	0	1	0	35.0680755820019	0
2.9	35.1199501906834	0	1	0	1	0	35.1199501906834	0
2.91	35.1726175536251	0	1	0	1	0	35.1726175536251	0
2.92	35.2260734755565	0	1	0	1	0	35.2260734755565	0
2.93	35.2803138184806	0	1	0	1	0	35.2803138184806	0
2.94	35.3353345006995	0	1	0	1	0	35.3353345006995	0
2.95	35.3911314958603	0	1	0	1	0	35.3911314958603	0
2.96	35.4477008320207	0	1	0	1	0	35.4477008320207	0
2.97	35.505038590732	0	1	0	1	0	35.505038590732	0
2.98	35.5631409061426	0	1	0	1	0	35.5631409061426	0
2.99	35.6220039641176	0	1	0	1	0	35.6220039641176	0
3	35.6816240013776	0	1	0	1	0	35.6816240013776	0
3.01	35.7419973046533	0	1	0	1	0	35.7419973046533	0
3.02	35.8031202098578	0	1	0	1	0	35.8031202098578	0
3.03	35.864989101275	0	1	0	1	0	35.864989101275	0
3.04	35.9276004107642	0	1	0	1	0	35.9276004107642	0
3.05	35.9909506169797	0	1	0	1	0	35.9909506169797	0
3.06	36.0550362446067	0	1	0	1	0	36.0550362446067	0
3.07	36.1198538636111	0	1	0	1	0	36.1198538636111	0
3.08	36.185400088505	0	1	0	1	0	36.185400088505	0
3.09	36.2516715776255	0	1	0	1	0	36.2516715776255	0
3.1	36.3186650324277	0	1	0	1	0	36.3186650324277	0
3.11	36.3863771967921	0	1	0	1	0	36.3863771967921	0
3.12	36.4548048563439	0	1	0	1	0	36.4548048563439	0
3.13	36.523944837787	0	1	0	1	0	36.523944837787	0
3.14	36.5937940082491	0	1	0	1	0	36.5937940082491	0
3.15	36.6643492746406	0	1	0	1	0	36.6643492746406	0
3.16	36.7356075830249	0	1	0	1	0	36.7356075830249	0
3.17	36.8075659180009	0	1	0	1	0	36.8075659180009	0
3.18	36.8802213020969	0	1	0	1	0	36.8802213020969	0
3.19	36.9535707951766	0	1	0	1	0	36.9535707951766	0
3.2	37.027611493855	0	1	0	1	0	37.027611493855	0
3.21	37.1023405309267	0	1	0	1	0	37.1023405309267	0
3.22	37.1777550748036	0	1	0	1	0	37.1777550748036	0
3.23	37.2538523289636	0	1	0	1	0	37.2538523289636	0
3.24	37.3306295314099	0	1	0	1	0	37.3306295314099	0
3.25	37.4080839541391	0	1	0	1	0	37.4080839541391	0
3.26	37.4862129026205	0	1	0	1	0	37.4862129026205	0
3.27	37.565013715284	0	1	0	1	0	37.565013715284	0
3.28	37.6444837630176	0	1	0	1	0	37.6444837630176	0
3.29	37.7246204486742	0	1	0	1	0	37.7246204486742	0
3.3	37.8054212065872	0	1	0	1	0	37.8054212065872	0
3.31	37.8868835020952	0	1	0	1	0	37.8868835020952	0
3.32	37.9690048310748	0	1	0	1	0	37.9690048310748	0
3.33	38.0517827194822	0	1	0	1	0	38.0517827194822	0
3.34	38.1352147229028	0	1	0	1	0	38.1352147229028	0
3.35	38.219298426109	0	1	0	1	0	38.219298426109	0
3.36	38.304031442626	0	1	0	1	0	38.304031442626	0
3.37	38.3894114143052	0	1	0	1	0	38.3894114143052	0
3.38	38.4754360109049	0	1	0	1	0	38.4754360109049	0
3.39	38.562102929679	0	1	0	1	0	38.562102929679	0
3.4	38.6494098949723	0	1	0	1	0	38.6494098949723	0
3.41	38.737354657824	0	1	0	1	0	38.737354657824	0
3.42	38.8259349955763	0	1	0	1	0	38.8259349955763	0
3.43	38.9151487114921	0	1	0	1	0	38.9151487114921	0
3.44	39.0049936343776	0	1	0	1	0	39.0049936343776	0
3.45	39.0954676182122	0	1	0	1	0	39.0954676182122	0
3.46	39.1865685417848	0	1	0	1	0	39.1865685417848	0
3.47	39.2782943083364	0	1	0	1	0	39.2782943083364	0
3.48	39.3706428452086	0	1	0	1	0	39.3706428452086	0
3.49	39.4636121034983	0	1	0	1	0	39.4636121034983	0
3.5	39.5572000577187	0	1	0	1	0	39.5572000577187	0
3.51	39.6514047054652	0	1	0	1	0	39.6514047054652	0
3.52	39.7462240670879	0	1	0	1	0	39.7462240670879	0
3.53	39.8416561853693	0	1	0	1	0	39.8416561853693	0
3.54	39.9376991252073	0	1	0	1	0	39.9376991252073	0
3.55	40.0343509733035	0	1	0	1	0	40.0343509733035	0
3.56	40.1316098378577	0	1	0	1	0	40.1316098378577	0
3.57	40.229473848266	0	1	0	1	0	40.229473848266	0
3.58	40.3279411548251	0	1	0	1	0	40.3279411548251	0
3.59	40.4270099284415	0	1	0	1	0	40.4270099284415	0
3.6	40.5266783603446	0	1	0	1	0	40.5266783603446	0
3.61	40.6269446618059	0	1	0	1	0	40.6269446618059	0
3.62	40.7278070638616	0	1	0	1	0	40.7278070638616	0
3.63	40.8292638170407	0	1	0	1	0	40.8292638170407	0
3.64	40.9313131910973	0	1	0	1	0	40.9313131910973	0
3.65	41.0339534747469	0	1	0	1	0	41.0339534747469	0
3.66	41.1371829754077	0	1	0	1	0	41.1371829754077	0
3.67	41.2410000189455	0	1	0	1	0	41.2410000189455	0
3.68	41.3454029494233	0	1	0	1	0	41.3454029494233	0
3.69	41.4503901288547	0	1	0	1	0	41.4503901288547	0
3.7	41.5559599369612	0	1	0	1	0	41.5559599369612	0
3.71	41.6621107709336	0	1	0	1	0	41.6621107709336	0
3.72	41.7688410451973	0	1	0	1	0	41.7688410451973	0
3.73	41.876149191181	0	1	0	1	0	41.876149191181	0
3.74	41.9840336570897	0	1	0	1	0	41.9840336570897	0
3.75	42.0924929076808	0	1	0	1	0	42.0924929076808	0
3.76	42.2015254240442	0	1	0	1	0	42.2015254240442	0
3.77	42.3111297033855	0	1	0	1	0	42.3111297033855	0
3.78	42.4213042588127	0	1	0	1	0	42.4213042588127	0
3.79	42.5320476191269	0	1	0	1	0	42.5320476191269	0
3.8	42.6433583286152	0	1	0	1	0	42.6433583286152	0
3.81	42.7552349468481	0	1	0	1	0	42.7552349468481	0
3.82	42.8676760484789	0	1	0	1	0	42.8676760484789	0
3.83	42.980680223047	0	1	0	1	0	42.980680223047	0
3.84	43.0942460747843	0	1	0	1	0	43.0942460747843	0
3.85	43.2083722224241	0	1	0	1	0	43.2083722224241	0
3.86	43.3230572990131	0	1	0	1	0	43.3230572990131	0
3.87	43.4382999517272	0	1	0	1	0	43.4382999517272	0
3.88	43.5540988416885	0	1	0	1	0	43.5540988416885	0
3.89	43.6704526437867	0	1	0	1	0	43.6704526437867	0
3.9	43.7873600465024	0	1	0	1	0	43.7873600465024	0
3.91	43.9048197517331	0	1	0	1	0	43.9048197517331	0
3.92	44.0228304746224	0	1	0	1	0	44.0228304746224	0
3.93	44.1413909433913	0	1	0	1	0	44.1413909433913	0
3.94	44.2604998991721	0	1	0	1	0	44.2604998991721	0
3.95	44.3801560958455	0	1	0	1	0	44.3801560958455	0
3.96	44.5003582998788	0	1	0	1	0	44.5003582998788	0
3.97	44.6211052901682	0	1	0	1	0	44.6211052901682	0
3.98	44.7423958578821	0	1	0	1	0	44.7423958578821	0
3.99	44.8642288063076	0	1	0	1	0	44.8642288063076	0
4	44.9866029506989	0	1	0	1	0	44.9866029506989	0
4.01	45.1095171181281	0	1	0	1	0	45.1095171181281	0
4.02	45.2329701473383	0	1	0	1	0	45.2329701473383	0
4.03	45.3569608885986	0	1	0	1	0	45.3569608885986	0
4.04	45.4814882035617	0	1	0	1	0	45.4814882035617	0
4.05	45.6065509651232	0	1	0	1	0	45.6065509651232	0
4.06	45.7321480572831	0	1	0	1	0	45.7321480572831	0
4.07	45.8582783750094	0	1	0	1	0	45.8582783750094	0
4.08	45.9849408241041	0	1	0	1	0	45.9849408241041	0
4.09	46.11213432107	0	1	0	1	0	46.11213432107	0
4.1	46.2398577929809	0	1	0	1	0	46.2398577929809	0
4.11	46.3681101773524	0	1	0	1	0	46.3681101773524	0
4.12	46.4968904220157	0	1	0	1	0	46.4968904220157	0
4.13	46.6261974849926	0	1	0	1	0	46.6261974849926	0
4.14	46.756030334372	0	1	0	1	0	46.756030334372	0
4.15	46.8863879481892	0	1	0	1	0	46.8863879481892	0
4.16	47.017269314306	0	1	0	1	0	47.017269314306	0
4.17	47.1486734302928	0	1	0	1	0	47.1486734302928	0
4.18	47.280599303313	0	1	0	1	0	47.280599303313	0
4.19	47.4130459500077	0	1	0	1	0	47.4130459500077	0
4.2	47.5460123963838	0	1	0	1	0	47.5460123963838	0
4.21	47.6794976777018	0	1	0	1	0	47.6794976777018	0
4.22	47.8135008383671	0	1	0	1	0	47.8135008383671	0
4.23	47.948020931821	0	1	0	1	0	47.948020931821	0
4.24	48.0830570204351	0	1	0	1	0	48.0830570204351	0
4.25	48.2186081754054	0	1	0	1	0	48.2186081754054	0
4.26	48.3546734766492	0	1	0	1	0	48.3546734766492	0
4.27	48.4912520127027	0	1	0	1	0	48.4912520127027	0
4.28	48.6283428806205	0	1	0	1	0	48.6283428806205	0
4.29	48.7659451858764	0	1	0	1	0	48.7659451858764	0
4.3	48.9040580422654	0	1	0	1	0	48.9040580422654	0
4.31	49.0426805718068	0	1	0	1	0	49.0426805718068	0
4.32	49.1818119046498	0	1	0	1	0	49.1818119046498	0
4.33	49.3214511789788	0	1	0	1	0	49.3214511789788	0
4.34	49.4615975409214	0	1	0	1	0	49.4615975409214	0
4.35	49.6022501444569	0	1	0	1	0	49.6022501444569	0
4.36	49.7434081513262	0	1	0	1	0	49.7434081513262	0
4.37	49.885070730943	0	1	0	1	0	49.885070730943	0
4.38	50.0272370603064	0	1	0	1	0	50.0272370603064	0
4.39	50.1699063239143	0	1	0	1	0	50.1699063239143	0
4.4	50.3130777136783	0	1	0	1	0	50.3130777136783	0
4.41	50.4567504288394	0	1	0	1	0	50.4567504288394	0
4.42	50.6009236758855	0	1	0	1	0	50.6009236758855	0
4.43	50.7455966684694	0	1	0	1	0	50.7455966684694	0
4.44	50.8907686273281	0	1	0	1	0	50.8907686273281	0
4.45	51.036438780203	0	1	0	1	0	51.036438780203	0
4.46	51.1826063617618	0	1	0	1	0	51.1826063617618	0
4.47	51.3292706135208	0	1	0	1	0	51.3292706135208	0
4.48	51.4764307837684	0	1	0	1	0	51.4764307837684	0
4.49	51.6240861274898	0	1	0	1	0	51.6240861274898	0
4.5	51.7722359062925	0	1	0	1	0	51.7722359062925	0
4.51	51.920879388333	0	1	0	1	0	51.920879388333	0
4.52	52.0700158482443	0	1	0	1	0	52.0700158482443	0
4.53	52.2196445670645	0	1	0	1	0	52.2196445670645	0
4.54	52.3697648321658	0	1	0	1	0	52.3697648321658	0
4.55	52.5203759371857	0	1	0	1	0	52.5203759371857	0
4.56	52.6714771819575	0	1	0	1	0	52.6714771819575	0
4.57	52.8230678724432	0	1	0	1	0	52.8230678724432	0
4.58	52.9751473206661	0	1	0	1	0	52.9751473206661	0
4.59	53.1277148446448	0	1	0	1	0	53.1277148446448	0
4.6	53.2807697683285	0	1	0	1	0	53.2807697683285	0
4.61	53.4343114215321	0	1	0	1	0	53.4343114215321	0
4.62	53.588339139873	0	1	0	1	0	53.588339139873	0
4.63	53.7428522647085	0	1	0	1	0	53.7428522647085	0
4.64	53.8978501430737	0	1	0	1	0	53.8978501430737	0
4.65	54.0533321276209	0	1	0	1	0	54.0533321276209	0
4.66	54.2092975765587	0	1	0	1	0	54.2092975765587	0
4.67	54.3657458535929	0	1	0	1	0	54.3657458535929	0
4.68	54.522676327868	0	1	0	1	0	54.522676327868	0
4.69	54.6800883739086	0	1	0	1	0	54.6800883739086	0
4.7	54.8379813715626	0	1	0	1	0	54.8379813715626	0
4.71	54.9963547059447	0	1	0	1	0	54.9963547059447	0
4.72	55.1552077673803	0	1	0	1	0	55.1552077673803	0
4.73	55.3145399513507	0	1	0	1	0	55.3145399513507	0
4.74	55.4743506584387	0	1	0	1	0	55.4743506584387	0
4.75	55.6346392942747	0	1	0	1	0	55.6346392942747	0
4.76	55.7954052694839	0	1	0	1	0	55.7954052694839	0
4.77	55.9566479996337	0	1	0	1	0	55.9566479996337	0
4.78	56.1183669051824	0	1	0	1	0	56.1183669051824	0
4.79	56.2805614114276	0	1	0	1	0	56.2805614114276	0
4.8	56.4432309484563	0	1	0	1	0	56.4432309484563	0
4.81	56.6063749510949	0	1	0	1	0	56.6063749510949	0
4.82	56.7699928588598	0	1	0	1	0	56.7699928588598	0
4.83	56.9340841159095	0	1	0	1	0	56.9340841159095	0
4.84	57.0986481709957	0	1	0	1	0	57.0986481709957	0
4.85	57.263684477417	0	1	0	1	0	57.263684477417	0
4.86	57.4291924929713	0	1	0	1	0	57.4291924929713	0
4.87	57.59517167991	0	1	0	1	0	57.59517167991	0
4.88	57.7616215048921	0	1	0	1	0	57.7616215048921	0
4.89	57.9285414389397	0	1	0	1	0	57.9285414389397	0
4.9	58.0959309573926	0	1	0	1	0	58.0959309573926	0
4.91	58.2637895398652	0	1	0	1	0	58.2637895398652	0
4.92	58.4321166702025	0	1	0	1	0	58.4321166702025	0
4.93	58.6009118364374	0	1	0	1	0	58.6009118364374	0
4.94	58.7701745307483	0	1	0	1	0	58.7701745307483	0
