# GHZ S RI R 50
1	46.1776203423472	0	1	0	1	0	46.1776203423472	0
1.01	45.8058746422393	0	1	0	1	0	45.8058746422393	0
1.02	45.4426064760228	0	1	0	1	0	45.4426064760228	0
1.03	45.0875805773598	0	1	0	1	0	45.0875805773598	0
1.04	44.7405707286178	0	1	0	1	0	44.7405707286178	0
1.05	44.4013593299789	0	1	0	1	0	44.4013593299789	0
1.06	44.069736992939	0	1	0	1	0	44.069736992939	0
1.07	43.7455021566017	0	1	0	1	0	43.7455021566017	0
1.08	43.4284607252889	0	1	0	1	0	43.4284607252889	0
1.09	43.1184257260998	0	1	0	1	0	43.1184257260998	0
1.1	42.815216985148	0	1	0	1	0	42.815216985148	0
1.11	42.5186608212999	0	1	0	1	0	42.5186608212999	0
1.12	42.2285897563195	0	1	0	1	0	42.2285897563195	0
1.13	41.9448422404039	0	1	0	1	0	41.9448422404039	0
1.14	41.6672623921645	0	1	0	1	0	41.6672623921645	0
1.15	41.3956997521737	0	1	0	1	0	41.3956997521737	0
1.16	41.1300090492603	0	1	0	1	0	41.1300090492603	0
1.17	40.8700499787889	0	1	0	1	0	40.8700499787889	0
1.18	40.6156869922132	0	1	0	1	0	40.6156869922132	0
1.19	40.3667890972408	0	1	0	1	0	40.3667890972408	0
1.2	40.1232296679888	0	1	0	1	0	40.1232296679888	0
1.21	39.8848862645542	0	1	0	1	0	39.8848862645542	0
1.22	39.6516404614567	0	1	0	1	0	39.6516404614567	0
1.23	39.4233776844515	0	1	0	1	0	39.4233776844515	0
1.24	39.1999870552369	0	1	0	1	0	39.1999870552369	0
1.25	38.9813612436169	0	1	0	1	0	38.9813612436169	0
1.26	38.7673963267035	0	1	0	1	0	38.7673963267035	0
1.27	38.5579916547703	0	1	0	1	0	38.5579916547703	0
1.28	38.3530497233949	0	1	0	1	0	38.3530497233949	0
1.29	38.152476051548	0	1	0	1	0	38.152476051548	0
1.3	37.9561790653087	0	1	0	1	0	37.9561790653087	0
1.31	37.7640699869064	0	1	0	1	0	37.7640699869064	0
1.32	37.576062728806	0	1	0	1	0	37.576062728806	0
1.33	37.3920737925714	0	1	0	1	0	37.3920737925714	0
1.34	37.2120221722566	0	1	0	1	0	37.2120221722566	0
1.35	37.0358292620924	0	1	0	1	0	37.0358292620924	0
1.36	36.8634187682436	0	1	0	1	0	36.8634187682436	0
1.37	36.6947166244322	0	1	0	1	0	36.6947166244322	0
1.38	36.5296509112292	0	1	0	1	0	36.5296509112292	0
1.39	36.3681517788291	0	1	0	1	0	36.3681517788291	0
1.4	36.2101513731353	0	1	0	1	0	36.2101513731353	0
1.41	36.05558376499	0	1	0	1	0	36.05558376499	0
1.42	35.9043848823949	0	1	0	1	0	35.9043848823949	0
1.43	35.7564924455753	0	1	0	1	0	35.7564924455753	0
1.44	35.6118459047503	0	1	0	1	0	35.6118459047503	0
1.45	35.4703863804779	0	1	0	1	0	35.4703863804779	0
1.46	35.3320566064514	0	1	0	1	0	35.3320566064514	0
1.47	35.1968008746308	0	1	0	1	0	35.1968008746308	0
1.48	35.0645649825991	0	1	0	1	0	35.0645649825991	0
1.49	34.9352961830374	0	1	0	1	0	34.9352961830374	0
1.5	34.8089431352223	0	1	0	1	0	34.8089431352223	0
1.51	34.6854558584494	0	1	0	1	0	34.6854558584494	0
1.52	34.564785687296	0	1	0	1	0	34.564785687296	0
1.53	34.446885228638	0	1	0	1	0	34.446885228638	0
1.54	34.3317083203416	0	1	0	1	0	34.3317083203416	0
1.55	34.2192099915539	0	1	0	1	0	34.2192099915539	0
1.56	34.1093464245207	0	1	0	1	0	34.1093464245207	0
1.57	34.0020749178638	0	1	0	1	0	34.0020749178638	0
1.58	33.8973538512525	0	1	0	1	0	33.8973538512525	0
1.59	33.7951426514084	0	1	0	1	0	33.7951426514084	0
1.6	33.6954017593851	0	1	0	1	0	33.6954017593851	0
1.61	33.5980925990672	0	1	0	1	0	33.5980925990672	0
1.62	33.5031775468359	0	1	0	1	0	33.5031775468359	0
1.63	33.4106199023515	0	1	0	1	0	33.4106199023515	0
1.64	33.3203838604044	0	1	0	1	0	33.3203838604044	0
1.65	33.2324344837903	0	1	0	1	0	33.2324344837903	0
1.66	33.1467376771649	0	1	0	1	0	33.1467376771649	0
1.67	33.0632601618392	0	1	0	1	0	33.0632601618392	0
1.68	32.9819694514738	0	1	0	1	0	32.9819694514738	0
1.69	32.9028338286366	0	1	0	1	0	32.9028338286366	0
1.7	32.8258223221882	0	1	0	1	0	32.8258223221882	0
1.71	32.7509046854603	0	1	0	1	0	32.7509046854603	0
1.72	32.6780513751954	0	1	0	1	0	32.6780513751954	0
1.73	32.6072335312172	0	1	0	1	0	32.6072335312172	0
1.74	32.5384229568015	0	1	0	1	0	32.5384229568015	0
1.75	32.471592099721	0	1	0	1	0	32.471592099721	0
1.76	32.4067140339352	0	1	0	1	0	32.4067140339352	0
1.77	32.3437624419015	0	1	0	1	0	32.3437624419015	0
1.78	32.2827115974832	0	1	0	1	0	32.2827115974832	0
1.79	32.2235363494289	0	1	0	1	0	32.2235363494289	0
1.8	32.1662121054041	0	1	0	1	0	32.1662121054041	0
1.81	32.1107148165514	0	1	0	1	0	32.1107148165514	0
1.82	32.0570209625595	0	1	0	1	0	32.0570209625595	0
1.83	32.0051075372223	0	1	0	1	0	32.0051075372223	0
1.84	31.9549520344689	0	1	0	1	0	31.9549520344689	0
1.85	31.9065324348457	0	1	0	1	0	31.9065324348457	0
1.86	31.8598271924362	0	1	0	1	0	31.8598271924362	0
1.87	31.8148152221986	0	1	0	1	0	31.8148152221986	0
1.88	31.7714758877096	0	1	0	1	0	31.7714758877096	0
1.89	31.729788989295	0	1	0	1	0	31.729788989295	0
1.9	31.6897347525375	0	1	0	1	0	31.6897347525375	0
1.91	31.6512938171432	0	1	0	1	0	31.6512938171432	0
1.92	31.6144472261579	0	1	0	1	0	31.6144472261579	0
1.93	31.5791764155177	0	1	0	1	0	31.5791764155177	0
1.94	31.5454632039228	0	1	0	1	0	31.5454632039228	0
1.95	31.5132897830231	0	1	0	1	0	31.5132897830231	0
1.96	31.4826387079043	0	1	0	1	0	31.4826387079043	0
1.97	31.4534928878636	0	1	0	1	0	31.4534928878636	0
1.98	31.4258355774647	0	1	0	1	0	31.4258355774647	0
1.99	31.3996503678634	0	1	0	1	0	31.3996503678634	0
2	31.3749211783919	0	1	0	1	0	31.3749211783919	0
2.01	31.351632248396	0	1	0	1	0	31.351632248396	0
2.02	31.3297681293136	0	1	0	1	0	31.3297681293136	0
2.03	31.3093136769877	0	1	0	1	0	31.3093136769877	0
2.04	31.2902540442056	0	1	0	1	0	31.2902540442056	0
2.05	31.2725746734563	0	1	0	1	0	31.2725746734563	0
2.06	31.256261289899	0	1	0	1	0	31.256261289899	0
2.07	31.2412998945351	0	1	0	1	0	31.2412998945351	0
2.08	31.2276767575776	0	1	0	1	0	31.2276767575776	0
2.09	31.2153784120104	0	1	0	1	0	31.2153784120104	0
2.1	31.2043916473323	0	1	0	1	0	31.2043916473323	0
2.11	31.1947035034778	0	1	0	1	0	31.1947035034778	0
2.12	31.1863012649112	0	1	0	1	0	31.1863012649112	0
2.13	31.1791724548859	0	1	0	1	0	31.1791724548859	0
2.14	31.1733048298659	0	1	0	1	0	31.1733048298659	0
2.15	31.1686863741017	0	1	0	1	0	31.1686863741017	0
2.16	31.1653052943576	0	1	0	1	0	31.1653052943576	0
2.17	31.1631500147849	0	1	0	1	0	31.1631500147849	0
2.18	31.1622091719358	0	1	0	1	0	31.1622091719358	0
2.19	31.1624716099138	0	1	0	1	0	31.1624716099138	0
2.2	31.1639263756572	0	1	0	1	0	31.1639263756572	0
2.21	31.1665627143496	0	1	0	1	0	31.1665627143496	0
2.22	31.1703700649551	0	1	0	1	0	31.1703700649551	0
2.23	31.1753380558735	0	1	0	1	0	31.1753380558735	0
2.24	31.1814565007115	0	1	0	1	0	31.1814565007115	0
2.25	31.1887153941676	0	1	0	1	0	31.1887153941676	0
2.26	31.197104908025	0	1	0	1	0	31.197104908025	0
2.27	31.2066153872514	0	1	0	1	0	31.2066153872514	0
2.28	31.2172373462011	0	1	0	1	0	31.2172373462011	0
2.29	31.2289614649165	0	1	0	1	0	31.2289614649165	0
2.3	31.2417785855263	0	1	0	1	0	31.2417785855263	0
2.31	31.2556797087368	0	1	0	1	0	31.2556797087368	0
2.32	31.2706559904147	0	1	0	1	0	31.2706559904147	0
2.33	31.2866987382575	0	1	0	1	0	31.2866987382575	0
2.34	31.3037994085488	0	1	0	1	0	31.3037994085488	0
2.35	31.3219496029972	0	1	0	1	0	31.3219496029972	0
2.36	31.3411410656554	0	1	0	1	0	31.3411410656554	0
2.37	31.3613656799167	0	1	0	1	0	31.3613656799167	0
2.38	31.3826154655882	0	1	0	1	0	31.3826154655882	0
2.39	31.4048825760366	0	1	0	1	0	31.4048825760366	0
2.4	31.4281592954059	0	1	0	1	0	31.4281592954059	0
2.41	31.452438035904	0	1	0	1	0	31.452438035904	0
2.42	31.4777113351569	0	1	0	1	0	31.4777113351569	0
2.43	31.503971853628	0	1	0	1	0	31.503971853628	0
2.44	31.5312123721011	0	1	0	1	0	31.5312123721011	0
2.45	31.5594257892246	0	1	0	1	0	31.5594257892246	0
2.46	31.588605119116	0	1	0	1	0	31.588605119116	0
2.47	31.6187434890248	0	1	0	1	0	31.6187434890248	0
2.48	31.6498341370509	0	1	0	1	0	31.6498341370509	0
2.49	31.6818704099195	0	1	0	1	0	31.6818704099195	0
2.5	31.7148457608078	0	1	0	1	0	31.7148457608078	0
2.51	31.7487537472252	0	1	0	1	0	31.7487537472252	0
2.52	31.7835880289426	0	1	0	1	0	31.7835880289426	0
2.53	31.8193423659718	0	1	0	1	0	31.8193423659718	0
2.54	31.8560106165921	0	1	0	1	0	31.8560106165921	0
2.55	31.8935867354235	0	1	0	1	0	31.8935867354235	0
2.56	31.9320647715451	0	1	0	1	0	31.9320647715451	0
2.57	31.9714388666574	0	1	0	1	0	31.9714388666574	0
2.58	32.011703253287	0	1	0	1	0	32.011703253287	0
2.59	32.0528522530338	0	1	0	1	0	32.0528522530338	0
2.6	32.0948802748574	0	1	0	1	0	32.0948802748574	0
2.61	32.1377818134039	0	1	0	1	0	32.1377818134039	0
2.62	32.1815514473709	0	1	0	1	0	32.1815514473709	0
2.63	32.2261838379088	0	1	0	1	0	32.2261838379088	0
2.64	32.27167372706	0	1	0	1	0	32.27167372706	0
2.65	32.3180159362321	0	1	0	1	0	32.3180159362321	0
2.66	32.3652053647065	0	1	0	1	0	32.3652053647065	0
2.67	32.4132369881797	0	1	0	1	0	32.4132369881797	0
2.68	32.4621058573377	0	1	0	1	0	32.4621058573377	0
2.69	32.5118070964625	0	1	0	1	0	32.5118070964625	0
2.7	32.5623359020688	0	1	0	1	0	32.5623359020688	0
2.71	32.6136875415714	0	1	0	1	0	32.6136875415714	0
2.72	32.6658573519821	0	1	0	1	0	32.6658573519821	0
2.73	32.7188407386349	0	1	0	1	0	32.7188407386349	0
2.74	32.7726331739389	0	1	0	1	0	32.7726331739389	0
2.75	32.8272301961595	0	1	0	1	0	32.8272301961595	0
2.76	32.8826274082245	0	1	0	1	0	32.8826274082245	0
2.77	32.9388204765576	0	1	0	1	0	32.9388204765576	0
2.78	32.9958051299361	0	1	0	1	0	32.9958051299361	0
2.79	33.0535771583734	0	1	0	1	0	33.0535771583734	0
2.8	33.1121324120256	0	1	0	1	0	33.1121324120256	0
2.81	33.1714668001211	0	1	0	1	0	33.1714668001211	0
2.82	33.2315762899139	0	1	0	1	0	33.2315762899139	0
2.83	33.2924569056574	0	1	0	1	0	33.2924569056574	0
2.84	33.3541047276019	0	1	0	1	0	33.3541047276019	0
2.85	33.4165158910114	0	1	0	1	0	33.4165158910114	0
2.86	33.4796865852024	0	1	0	1	0	33.4796865852024	0
2.87	33.5436130526017	0	1	0	1	0	33.5436130526017	0
2.88	33.6082915878248	0	1	0	1	0	33.6082915878248	0
2.89	33.6737185367728	0	1	0	1	0	33.6737185367728	0
2.9	33.7398902957481	0	1	0	1	0	33.7398902957481	0
2.91	33.8068033105885	0	1	0	1	0	33.8068033105885	0
2.92	33.8744540758189	0	1	0	1	0	33.8744540758189	0
2.93	33.9428391338207	0	1	0	1	0	33.9428391338207	0
2.94	34.0119550740174	0	1	0	1	0	34.0119550740174	0
2.95	34.0817985320779	0	1	0	1	0	34.0817985320779	0
2.96	34.152366189135	0	1	0	1	0	34.152366189135	0
2.97	34.2236547710198	0	1	0	1	0	34.2236547710198	0
2.98	34.2956610475122	0	1	0	1	0	34.2956610475122	0
2.99	34.3683818316057	0	1	0	1	0	34.3683818316057	0
3	34.4418139787873	0	1	0	1	0	34.4418139787873	0
3.01	34.5159543863314	0	1	0	1	0	34.5159543863314	0
3.02	34.5907999926081	0	1	0	1	0	34.5907999926081	0
3.03	34.6663477764053	0	1	0	1	0	34.6663477764053	0
3.04	34.7425947562634	0	1	0	1	0	34.7425947562634	0
3.05	34.819537989824	0	1	0	1	0	34.819537989824	0
3.06	34.8971745731909	0	1	0	1	0	34.8971745731909	0
3.07	34.9755016403039	0	1	0	1	0	34.9755016403039	0
3.08	35.054516362324	0	1	0	1	0	35.054516362324	0
3.09	35.1342159470316	0	1	0	1	0	35.1342159470316	0
3.1	35.214597638236	0	1	0	1	0	35.214597638236	0
3.11	35.2956587151954	0	1	0	1	0	35.2956587151954	0
3.12	35.3773964920498	0	1	0	1	0	35.3773964920498	0
3.13	35.4598083172631	0	1	0	1	0	35.4598083172631	0
3.14	35.5428915730765	0	1	0	1	0	35.5428915730765	0
3.15	35.6266436749729	0	1	0	1	0	35.6266436749729	0
3.16	35.7110620711506	0	1	0	1	0	35.7110620711506	0
3.17	35.796144242007	0	1	0	1	0	35.796144242007	0
3.18	35.8818876996329	0	1	0	1	0	35.8818876996329	0
3.19	35.9682899873153	0	1	0	1	0	35.9682899873153	0
3.2	36.0553486790502	0	1	0	1	0	36.0553486790502	0
3.21	36.1430613790642	0	1	0	1	0	36.1430613790642	0
3.22	36.2314257213449	0	1	0	1	0	36.2314257213449	0
3.23	36.3204393691805	0	1	0	1	0	36.3204393691805	0
3.24	36.4101000147075	0	1	0	1	0	36.4101000147075	0
3.25	36.5004053784669	0	1	0	1	0	36.5004053784669	0
3.26	36.5913532089683	0	1	0	1	0	36.5913532089683	0
3.27	36.6829412822626	0	1	0	1	0	36.6829412822626	0
3.28	36.7751674015223	0	1	0	1	0	36.7751674015223	0
3.29	36.8680293966285	0	1	0	1	0	36.8680293966285	0
3.3	36.9615251237674	0	1	0	1	0	36.9615251237674	0
3.31	37.0556524650317	0	1	0	1	0	37.0556524650317	0
3.32	37.1504093280315	0	1	0	1	0	37.1504093280315	0
3.33	37.2457936455105	0	1	0	1	0	37.2457936455105	0
3.34	37.3418033749701	0	1	0	1	0	37.3418033749701	0
3.35	37.4384364982995	0	1	0	1	0	37.4384364982995	0
3.36	37.5356910214134	0	1	0	1	0	37.5356910214134	0
3.37	37.6335649738948	0	1	0	1	0	37.6335649738948	0
3.38	37.7320564086455	0	1	0	1	0	37.7320564086455	0
3.39	37.8311634015418	0	1	0	1	0	37.8311634015418	0
3.4	37.9308840510966	0	1	0	1	0	37.9308840510966	0
3.41	38.0312164781281	0	1	0	1	0	38.0312164781281	0
3.42	38.1321588254327	0	1	0	1	0	38.1321588254327	0
3.43	38.2337092574654	0	1	0	1	0	38.2337092574654	0
3.44	38.3358659600248	0	1	0	1	0	38.3358659600248	0
3.45	38.4386271399437	0	1	0	1	0	38.4386271399437	0
3.46	38.5419910247849	0	1	0	1	0	38.5419910247849	0
3.47	38.6459558625432	0	1	0	1	0	38.6459558625432	0
3.48	38.750519921351	0	1	0	1	0	38.750519921351	0
3.49	38.8556814891904	0	1	0	1	0	38.8556814891904	0
3.5	38.9614388736093	0	1	0	1	0	38.9614388736093	0
3.51	39.0677904014428	0	1	0	1	0	39.0677904014428	0
3.52	39.1747344185395	0	1	0	1	0	39.1747344185395	0
3.53	39.2822692894915	0	1	0	1	0	39.2822692894915	0
3.54	39.3903933973704	0	1	0	1	0	39.3903933973704	0
3.55	39.4991051434667	0	1	0	1	0	39.4991051434667	0
3.56	39.6084029470336	0	1	0	1	0	39.6084029470336	0
3.57	39.7182852450363	0	1	0	1	0	39.7182852450363	0
3.58	39.8287504919035	0	1	0	1	0	39.8287504919035	0
3.59	39.9397971592852	0	1	0	1	0	39.9397971592852	0
3.6	40.0514237358128	0	1	0	1	0	40.0514237358128	0
3.61	40.1636287268643	0	1	0	1	0	40.1636287268643	0
3.62	40.2764106543328	0	1	0	1	0	40.2764106543328	0
3.63	40.389768056399	0	1	0	1	0	40.389768056399	0
3.64	40.5036994873077	0	1	0	1	0	40.5036994873077	0
3.65	40.6182035171476	0	1	0	1	0	40.6182035171476	0
3.66	40.7332787316347	0	1	0	1	0	40.7332787316347	0
3.67	40.8489237318997	0	1	0	1	0	40.8489237318997	0
3.68	40.9651371342782	0	1	0	1	0	40.9651371342782	0
3.69	41.0819175701051	0	1	0	1	0	41.0819175701051	0
3.7	41.1992636855115	0	1	0	1	0	41.1992636855115	0
3.71	41.3171741412255	0	1	0	1	0	41.3171741412255	0
3.72	41.4356476123761	0	1	0	1	0	41.4356476123761	0
3.73	41.5546827883	0	1	0	1	0	41.5546827883	0
3.74	41.6742783723515	0	1	0	1	0	41.6742783723515	0
3.75	41.794433081716	0	1	0	1	0	41.794433081716	0
3.76	41.9151456472257	0	1	0	1	0	41.9151456472257	0
3.77	42.0364148131789	0	1	0	1	0	42.0364148131789	0
3.78	42.1582393371618	0	1	0	1	0	42.1582393371618	0
3.79	42.2806179898729	0	1	0	1	0	42.2806179898729	0
3.8	42.403549554951	0	1	0	1	0	42.403549554951	0
3.81	42.5270328288049	0	1	0	1	0	42.5270328288049	0
3.82	42.6510666204465	0	1	0	1	0	42.6510666204465	0
3.83	42.7756497513262	0	1	0	1	0	42.7756497513262	0
3.84	42.9007810551711	0	1	0	1	0	42.9007810551711	0
3.85	43.0264593778253	0	1	0	1	0	43.0264593778253	0
3.86	43.1526835770929	0	1	0	1	0	43.1526835770929	0
3.87	43.279452522584	0	1	0	1	0	43.279452522584	0
3.88	43.406765095562	0	1	0	1	0	43.406765095562	0
3.89	43.534620188794	0	1	0	1	0	43.534620188794	0
3.9	43.6630167064033	0	1	0	1	0	43.6630167064033	0
3.91	43.7919535637244	0	1	0	1	0	43.7919535637244	0
3.92	43.9214296871597	0	1	0	1	0	43.9214296871597	0
3.93	44.0514440140388	0	1	0	1	0	44.0514440140388	0
3.94	44.1819954924798	0	1	0	1	0	44.1819954924798	0
3.95	44.3130830812528	0	1	0	1	0	44.3130830812528	0
3.96	44.4447057496455	0	1	0	1	0	44.4447057496455	0
3.97	44.5768624773303	0	1	0	1	0	44.5768624773303	0
3.98	44.7095522542345	0	1	0	1	0	44.7095522542345	0
3.99	44.8427740804112	0	1	0	1	0	44.8427740804112	0
4	44.9765269659131	0	1	0	1	0	44.9765269659131	0
4.01	45.1108099306676	0	1	0	1	0	45.1108099306676	0
4.02	45.2456220043541	0	1	0	1	0	45.2456220043541	0
4.03	45.380962226283	0	1	0	1	0	45.380962226283	0
4.04	45.5168296452765	0	1	0	1	0	45.5168296452765	0
4.05	45.653223319551	0	1	0	1	0	45.653223319551	0
4.06	45.7901423166018	0	1	0	1	0	45.7901423166018	0
4.07	45.9275857130886	0	1	0	1	0	45.9275857130886	0
4.08	46.0655525947236	0	1	0	1	0	46.0655525947236	0
4.09	46.2040420561607	0	1	0	1	0	46.2040420561607	0
4.1	46.3430532008865	0	1	0	1	0	46.3430532008865	0
4.11	46.4825851411125	0	1	0	1	0	46.4825851411125	0
4.12	46.6226369976699	0	1	0	1	0	46.6226369976699	0
4.13	46.7632078999046	0	1	0	1	0	46.7632078999046	0
4.14	46.9042969855747	0	1	0	1	0	46.9042969855747	0
4.15	47.0459034007491	0	1	0	1	0	47.0459034007491	0
4.16	47.1880262997074	0	1	0	1	0	47.1880262997074	0
4.17	47.3306648448418	0	1	0	1	0	47.3306648448418	0
4.18	47.4738182065598	0	1	0	1	0	47.4738182065598	0
4.19	47.6174855631888	0	1	0	1	0	47.6174855631888	0
4.2	47.7616661008814	0	1	0	1	0	47.7616661008814	0
4.21	47.906359013523	0	1	0	1	0	47.906359013523	0
4.22	48.0515635026395	0	1	0	1	0	48.0515635026395	0
4.23	48.1972787773078	0	1	0	1	0	48.1972787773078	0
4.24	48.3435040540661	0	1	0	1	0	48.3435040540661	0
4.25	48.4902385568265	0	1	0	1	0	48.4902385568265	0
4.26	48.6374815167881	0	1	0	1	0	48.6374815167881	0
4.27	48.7852321723521	0	1	0	1	0	48.7852321723521	0
4.28	48.9334897690373	0	1	0	1	0	48.9334897690373	0
4.29	49.0822535593974	0	1	0	1	0	49.0822535593974	0
4.3	49.231522802939	0	1	0	1	0	49.231522802939	0
4.31	49.3812967660411	0	1	0	1	0	49.3812967660411	0
4.32	49.5315747218754	0	1	0	1	0	49.5315747218754	0
4.33	49.6823559503281	0	1	0	1	0	49.6823559503281	0
4.34	49.8336397379222	0	1	0	1	0	49.8336397379222	0
4.35	49.9854253777415	0	1	0	1	0	49.9854253777415	0
4.36	50.1377121693553	0	1	0	1	0	50.1377121693553	0
4.37	50.2904994187442	0	1	0	1	0	50.2904994187442	0
4.38	50.4437864382267	0	1	0	1	0	50.4437864382267	0
4.39	50.5975725463874	0	1	0	1	0	50.5975725463874	0
4.4	50.7518570680054	0	1	0	1	0	50.7518570680054	0
4.41	50.9066393339844	0	1	0	1	0	50.9066393339844	0
4.42	51.0619186812832	0	1	0	1	0	51.0619186812832	0
4.43	51.2176944528475	0	1	0	1	0	51.2176944528475	0
4.44	51.3739659975423	0	1	0	1	0	51.3739659975423	0
4.45	51.5307326700855	0	1	0	1	0	51.5307326700855	0
4.46	51.6879938309823	0	1	0	1	0	51.6879938309823	0
4.47	51.8457488464607	0	1	0	1	0	51.8457488464607	0
4.48	52.0039970884069	0	1	0	1	0	52.0039970884069	0
4.49	52.1627379343032	0	1	0	1	0	52.1627379343032	0
4.5	52.3219707671651	0	1	0	1	0	52.3219707671651	0
4.51	52.4816949754805	0	1	0	1	0	52.4816949754805	0
4.52	52.6419099531486	0	1	0	1	0	52.6419099531486	0
4.53	52.8026150994208	0	1	0	1	0	52.8026150994208	0
4.54	52.9638098188412	0	1	0	1	0	52.9638098188412	0
4.55	53.1254935211889	0	1	0	1	0	53.1254935211889	0
4.56	53.2876656214202	0	1	0	1	0	53.2876656214202	0
4.57	53.4503255396121	0	1	0	1	0	53.4503255396121	0
4.58	53.6134727009066	0	1	0	1	0	53.6134727009066	0
4.59	53.7771065354552	0	1	0	1	0	53.7771065354552	0
4.6	53.9412264783647	0	1	0	1	0	53.9412264783647	0
4.61	54.1058319696434	0	1	0	1	0	54.1058319696434	0
4.62	54.270922454148	0	1	0	1	0	54.270922454148	0
4.63	54.436497381531	0	1	0	1	0	54.436497381531	0
4.64	54.6025562061896	0	1	0	1	0	54.6025562061896	0
4.65	54.7690983872141	0	1	0	1	0	54.7690983872141	0
4.66	54.9361233883382	0	1	0	1	0	54.9361233883382	0
4.67	55.1036306778884	0	1	0	1	0	55.1036306778884	0
4.68	55.2716197287357	0	1	0	1	0	55.2716197287357	0
4.69	55.4400900182468	0	1	0	1	0	55.4400900182468	0
4.7	55.6090410282364	0	1	0	1	0	55.6090410282364	0
4.71	55.7784722449198	0	1	0	1	0	55.7784722449198	0
4.72	55.9483831588666	0	1	0	1	0	55.9483831588666	0
4.73	56.1187732649543	0	1	0	1	0	56.1187732649543	0
4.74	56.289642062323	0	1	0	1	0	56.289642062323	0
4.75	56.4609890543308	0	1	0	1	0	56.4609890543308	0
4.76	56.6328137485092	0	1	0	1	0	56.6328137485092	0
4.77	56.8051156565191	0	1	0	1	0	56.8051156565191	0
4.78	56.9778942941084	0	1	0	1	0	56.9778942941084	0
4.79	57.1511491810685	0	1	0	1	0	57.1511491810685	0
4.8	57.3248798411927	0	1	0	1	0	57.3248798411927	0
4.81	57.4990858022344	0	1	0	1	0	57.4990858022344	0
4.82	57.6737665958661	0	1	0	1	0	57.6737665958661	0
4.83	57.8489217576386	0	1	0	1	0	57.8489217576386	0
4.84	58.0245508269414	0	1	0	1	0	58.0245508269414	0
4.85	58.2006533469627	0	1	0	1	0	58.2006533469627	0
4.86	58.3772288646506	0	1	0	1	0	58.3772288646506	0
4.87	58.554276930674	0	1	0	1	0	58.554276930674	0
4.88	58.7317970993853	0	1	0	1	0	58.7317970993853	0
4.89	58.909788928782	0	1	0	1	0	58.909788928782	0
4.9	59.0882519804699	0	1	0	1	0	59.0882519804699	0
4.91	59.2671858196261	0	1	0	1	0	59.2671858196261	0
4.92	59.4465900149631	0	1	0	1	0	59.4465900149631	0
4.93	59.6264641386924	0	1	0	1	0	59.6264641386924	0
