# GHZ S RI R 50
1	57.5376570235377	0	1	0	1	0	57.5376570235377	0
1.01	57.0425152799279	0	1	0	1	0	57.0425152799279	0
1.02	56.5582501700857	0	1	0	1	0	56.5582501700857	0
1.03	56.0845563506609	0	1	0	1	0	56.0845563506609	0
1.04	55.621140222278	0	1	0	1	0	55.621140222278	0
1.05	55.1677193702997	0	1	0	1	0	55.1677193702997	0
1.06	54.7240220372447	0	1	0	1	0	54.7240220372447	0
1.07	54.2897866247902	0	1	0	1	0	54.2897866247902	0
1.08	53.8647612234399	0	1	0	1	0	53.8647612234399	0
1.09	53.4487031680827	0	1	0	1	0	53.4487031680827	0
1.1	53.0413786177934	0	1	0	1	0	53.0413786177934	0
1.11	52.6425621583469	0	1	0	1	0	52.6425621583469	0
1.12	52.2520364260261	0	1	0	1	0	52.2520364260261	0
1.13	51.8695917514046	0	1	0	1	0	51.8695917514046	0
1.14	51.4950258218782	0	1	0	1	0	51.4950258218782	0
1.15	51.1281433618027	0	1	0	1	0	51.1281433618027	0
1.16	50.7687558291769	0	1	0	1	0	50.7687558291769	0
1.17	50.4166811278799	0	1	0	1	0	50.4166811278799	0
1.18	50.0717433345408	0	1	0	1	0	50.0717433345408	0
1.19	49.7337724391791	0	1	0	1	0	49.7337724391791	0
1.2	49.4026040988139	0	1	0	1	0	49.4026040988139	0
1.21	49.0780794032898	0	1	0	1	0	49.0780794032898	0
1.22	48.7600446526209	0	1	0	1	0	48.7600446526209	0
1.23	48.4483511451942	0	1	0	1	0	48.4483511451942	0
1.24	48.1428549762236	0	1	0	1	0	48.1428549762236	0
1.25	47.8434168458756	0	1	0	1	0	47.8434168458756	0
1.26	47.5499018765339	0	1	0	1	0	47.5499018765339	0
1.27	47.2621794386961	0	1	0	1	0	47.2621794386961	0
1.28	46.9801229850317	0	1	0	1	0	46.9801229850317	0
1.29	46.7036098921584	0	1	0	1	0	46.7036098921584	0
1.3	46.4325213097211	0	1	0	1	0	46.4325213097211	0
1.31	46.1667420163833	0	1	0	1	0	46.1667420163833	0
1.32	45.9061602823638	0	1	0	1	0	45.9061602823638	0
1.33	45.6506677381759	0	1	0	1	0	45.6506677381759	0
1.34	45.4001592492429	0	1	0	1	0	45.4001592492429	0
1.35	45.1545327960865	0	1	0	1	0	45.1545327960865	0
1.36	44.9136893598014	0	1	0	1	0	44.9136893598014	0
1.37	44.6775328125453	0	1	0	1	0	44.6775328125453	0
1.38	44.4459698127901	0	1	0	1	0	44.4459698127901	0
1.39	44.2189097050948	0	1	0	1	0	44.2189097050948	0
1.4	43.9962644241738	0	1	0	1	0	43.9962644241738	0
1.41	43.7779484030477	0	1	0	1	0	43.7779484030477	0
1.42	43.5638784850744	0	1	0	1	0	43.5638784850744	0
1.43	43.3539738396717	0	1	0	1	0	43.3539738396717	0
1.44	43.1481558815514	0	1	0	1	0	43.1481558815514	0
1.45	42.9463481932953	0	1	0	1	0	42.9463481932953	0
1.46	42.7484764511131	0	1	0	1	0	42.7484764511131	0
1.47	42.5544683536305	0	1	0	1	0	42.5544683536305	0
1.48	42.3642535535646	0	1	0	1	0	42.3642535535646	0
1.49	42.1777635921499	0	1	0	1	0	42.1777635921499	0
1.5	41.9949318361882	0	1	0	1	0	41.9949318361882	0
1.51	41.8156934175989	0	1	0	1	0	41.8156934175989	0
1.52	41.6399851753565	0	1	0	1	0	41.6399851753565	0
1.53	41.4677455997037	0	1	0	1	0	41.4677455997037	0
1.54	41.2989147785395	0	1	0	1	0	41.2989147785395	0
1.55	41.1334343458818	0	1	0	1	0	41.1334343458818	0
1.56	40.9712474323117	0	1	0	1	0	40.9712474323117	0
1.57	40.812298617313	0	1	0	1	0	40.812298617313	0
1.58	40.6565338834206	0	1	0	1	0	40.6565338834206	0
1.59	40.503900572099	0	1	0	1	0	40.503900572099	0
1.6	40.3543473412765	0	1	0	1	0	40.3543473412765	0
1.61	40.2078241244606	0	1	0	1	0	40.2078241244606	0
1.62	40.0642820913684	0	1	0	1	0	40.0642820913684	0
1.63	39.9236736100063	0	1	0	1	0	39.9236736100063	0
1.64	39.7859522101367	0	1	0	1	0	39.7859522101367	0
1.65	39.651072548073	0	1	0	1	0	39.651072548073	0
1.66	39.5189903727478	0	1	0	1	0	39.5189903727478	0
1.67	39.3896624929993	0	1	0	1	0	39.3896624929993	0
1.68	39.2630467460268	0	1	0	1	0	39.2630467460268	0
1.69	39.1391019669657	0	1	0	1	0	39.1391019669657	0
1.7	39.0177879595364	0	1	0	1	0	39.0177879595364	0
1.71	38.8990654677232	0	1	0	1	0	38.8990654677232	0
1.72	38.782896148441	0	1	0	1	0	38.782896148441	0
1.73	38.6692425451501	0	1	0	1	0	38.6692425451501	0
1.74	38.5580680623804	0	1	0	1	0	38.5580680623804	0
1.75	38.44933694113	0	1	0	1	0	38.44933694113	0
1.76	38.3430142351015	0	1	0	1	0	38.3430142351015	0
1.77	38.2390657877441	0	1	0	1	0	38.2390657877441	0
1.78	38.1374582100703	0	1	0	1	0	38.1374582100703	0
1.79	38.0381588592151	0	1	0	1	0	38.0381588592151	0
1.8	37.9411358177103	0	1	0	1	0	37.9411358177103	0
1.81	37.8463578734464	0	1	0	1	0	37.8463578734464	0
1.82	37.7537945002941	0	1	0	1	0	37.7537945002941	0
1.83	37.6634158393622	0	1	0	1	0	37.6634158393622	0
1.84	37.5751926808654	0	1	0	1	0	37.5751926808654	0
1.85	37.4890964465816	0	1	0	1	0	37.4890964465816	0
1.86	37.4050991728742	0	1	0	1	0	37.4050991728742	0
1.87	37.323173494259	0	1	0	1	0	37.323173494259	0
1.88	37.2432926274964	0	1	0	1	0	37.2432926274964	0
1.89	37.1654303561876	0	1	0	1	0	37.1654303561876	0
1.9	37.0895610158583	0	1	0	1	0	37.0895610158583	0
1.91	37.0156594795097	0	1	0	1	0	37.0156594795097	0
1.92	36.9437011436225	0	1	0	1	0	36.9437011436225	0
1.93	36.8736619145947	0	1	0	1	0	36.8736619145947	0
1.94	36.8055181955996	0	1	0	1	0	36.8055181955996	0
1.95	36.7392468738481	0	1	0	1	0	36.7392468738481	0
1.96	36.6748253082406	0	1	0	1	0	36.6748253082406	0
1.97	36.6122313173953	0	1	0	1	0	36.6122313173953	0
1.98	36.551443168039	0	1	0	1	0	36.551443168039	0
1.99	36.4924395637482	0	1	0	1	0	36.4924395637482	0
2	36.4351996340282	0	1	0	1	0	36.4351996340282	0
2.01	36.3797029237171	0	1	0	1	0	36.3797029237171	0
2.02	36.325929382706	0	1	0	1	0	36.325929382706	0
2.03	36.2738593559618	0	1	0	1	0	36.2738593559618	0
2.04	36.2234735738446	0	1	0	1	0	36.2234735738446	0
2.05	36.174753142707	0	1	0	1	0	36.174753142707	0
2.06	36.1276795357688	0	1	0	1	0	36.1276795357688	0
2.07	36.0822345842552	0	1	0	1	0	36.0822345842552	0
2.08	36.0384004687909	0	1	0	1	0	36.0384004687909	0
2.09	35.9961597110412	0	1	0	1	0	35.9961597110412	0
2.1	35.9554951655922	0	1	0	1	0	35.9554951655922	0
2.11	35.9163900120614	0	1	0	1	0	35.9163900120614	0
2.12	35.8788277474322	0	1	0	1	0	35.8788277474322	0
2.13	35.8427921786035	0	1	0	1	0	35.8427921786035	0
2.14	35.8082674151493	0	1	0	1	0	35.8082674151493	0
2.15	35.7752378622792	0	1	0	1	0	35.7752378622792	0
2.16	35.7436882139954	0	1	0	1	0	35.7436882139954	0
2.17	35.7136034464382	0	1	0	1	0	35.7136034464382	0
2.18	35.6849688114151	0	1	0	1	0	35.6849688114151	0
2.19	35.6577698301069	0	1	0	1	0	35.6577698301069	0
2.2	35.6319922869457	0	1	0	1	0	35.6319922869457	0
2.21	35.607622223659	0	1	0	1	0	35.607622223659	0
2.22	35.5846459334746	0	1	0	1	0	35.5846459334746	0
2.23	35.5630499554818	0	1	0	1	0	35.5630499554818	0
2.24	35.5428210691432	0	1	0	1	0	35.5428210691432	0
2.25	35.5239462889533	0	1	0	1	0	35.5239462889533	0
2.26	35.5064128592385	0	1	0	1	0	35.5064128592385	0
2.27	35.4902082490947	0	1	0	1	0	35.4902082490947	0
2.28	35.4753201474583	0	1	0	1	0	35.4753201474583	0
2.29	35.4617364583061	0	1	0	1	0	35.4617364583061	0
2.3	35.4494452959805	0	1	0	1	0	35.4494452959805	0
2.31	35.4384349806361	0	1	0	1	0	35.4384349806361	0
2.32	35.4286940338044	0	1	0	1	0	35.4286940338044	0
2.33	35.4202111740719	0	1	0	1	0	35.4202111740719	0
2.34	35.4129753128697	0	1	0	1	0	35.4129753128697	0
2.35	35.4069755503709	0	1	0	1	0	35.4069755503709	0
2.36	35.4022011714909	0	1	0	1	0	35.4022011714909	0
2.37	35.3986416419909	0	1	0	1	0	35.3986416419909	0
2.38	35.3962866046778	0	1	0	1	0	35.3962866046778	0
2.39	35.3951258757007	0	1	0	1	0	35.3951258757007	0
2.4	35.3951494409398	0	1	0	1	0	35.3951494409398	0
2.41	35.3963474524844	0	1	0	1	0	35.3963474524844	0
2.42	35.3987102251993	0	1	0	1	0	35.3987102251993	0
2.43	35.4022282333756	0	1	0	1	0	35.4022282333756	0
2.44	35.4068921074634	0	1	0	1	0	35.4068921074634	0
2.45	35.4126926308848	0	1	0	1	0	35.4126926308848	0
2.46	35.4196207369255	0	1	0	1	0	35.4196207369255	0
2.47	35.4276675057001	0	1	0	1	0	35.4276675057001	0
2.48	35.4368241611926	0	1	0	1	0	35.4368241611926	0
2.49	35.447082068367	0	1	0	1	0	35.447082068367	0
2.5	35.4584327303479	0	1	0	1	0	35.4584327303479	0
2.51	35.4708677856685	0	1	0	1	0	35.4708677856685	0
2.52	35.4843790055833	0	1	0	1	0	35.4843790055833	0
2.53	35.498958291446	0	1	0	1	0	35.498958291446	0
2.54	35.5145976721477	0	1	0	1	0	35.5145976721477	0
2.55	35.5312893016165	0	1	0	1	0	35.5312893016165	0
2.56	35.5490254563756	0	1	0	1	0	35.5490254563756	0
2.57	35.5677985331579	0	1	0	1	0	35.5677985331579	0
2.58	35.5876010465761	0	1	0	1	0	35.5876010465761	0
2.59	35.6084256268478	0	1	0	1	0	35.6084256268478	0
2.6	35.6302650175716	0	1	0	1	0	35.6302650175716	0
2.61	35.6531120735552	0	1	0	1	0	35.6531120735552	0
2.62	35.6769597586936	0	1	0	1	0	35.6769597586936	0
2.63	35.7018011438945	0	1	0	1	0	35.7018011438945	0
2.64	35.7276294050518	0	1	0	1	0	35.7276294050518	0
2.65	35.7544378210651	0	1	0	1	0	35.7544378210651	0
2.66	35.7822197719028	0	1	0	1	0	35.7822197719028	0
2.67	35.81096873671	0	1	0	1	0	35.81096873671	0
2.68	35.8406782919581	0	1	0	1	0	35.8406782919581	0
2.69	35.8713421096354	0	1	0	1	0	35.8713421096354	0
2.7	35.9029539554786	0	1	0	1	0	35.9029539554786	0
2.71	35.9355076872433	0	1	0	1	0	35.9355076872433	0
2.72	35.9689972530118	0	1	0	1	0	35.9689972530118	0
2.73	36.0034166895395	0	1	0	1	0	36.0034166895395	0
2.74	36.0387601206364	0	1	0	1	0	36.0387601206364	0
2.75	36.0750217555843	0	1	0	1	0	36.0750217555843	0
2.76	36.1121958875884	0	1	0	1	0	36.1121958875884	0
2.77	36.1502768922626	0	1	0	1	0	36.1502768922626	0
2.78	36.1892592261473	0	1	0	1	0	36.1892592261473	0
2.79	36.2291374252587	0	1	0	1	0	36.2291374252587	0
2.8	36.2699061036703	0	1	0	1	0	36.2699061036703	0
2.81	36.3115599521233	0	1	0	1	0	36.3115599521233	0
2.82	36.3540937366677	0	1	0	1	0	36.3540937366677	0
2.83	36.3975022973314	0	1	0	1	0	36.3975022973314	0
2.84	36.4417805468184	0	1	0	1	0	36.4417805468184	0
2.85	36.4869234692327	0	1	0	1	0	36.4869234692327	0
2.86	36.5329261188313	0	1	0	1	0	36.5329261188313	0
2.87	36.5797836188011	0	1	0	1	0	36.5797836188011	0
2.88	36.6274911600624	0	1	0	1	0	36.6274911600624	0
2.89	36.6760440000975	0	1	0	1	0	36.6760440000975	0
2.9	36.7254374618026	0	1	0	1	0	36.7254374618026	0
2.91	36.7756669323637	0	1	0	1	0	36.7756669323637	0
2.92	36.8267278621566	0	1	0	1	0	36.8267278621566	0
2.93	36.8786157636675	0	1	0	1	0	36.8786157636675	0
2.94	36.9313262104374	0	1	0	1	0	36.9313262104374	0
2.95	36.9848548360271	0	1	0	1	0	36.9848548360271	0
2.96	37.0391973330035	0	1	0	1	0	37.0391973330035	0
2.97	37.0943494519456	0	1	0	1	0	37.0943494519456	0
2.98	37.1503070004721	0	1	0	1	0	37.1503070004721	0
2.99	37.2070658422868	0	1	0	1	0	37.2070658422868	0
3	37.2646218962441	0	1	0	1	0	37.2646218962441	0
3.01	37.3229711354331	0	1	0	1	0	37.3229711354331	0
3.02	37.3821095862793	0	1	0	1	0	37.3821095862793	0
3.03	37.4420333276647	0	1	0	1	0	37.4420333276647	0
3.04	37.5027384900649	0	1	0	1	0	37.5027384900649	0
3.05	37.5642212547033	0	1	0	1	0	37.5642212547033	0
3.06	37.6264778527222	0	1	0	1	0	37.6264778527222	0
3.07	37.6895045643693	0	1	0	1	0	37.6895045643693	0
3.08	37.7532977182008	0	1	0	1	0	37.7532977182008	0
3.09	37.8178536902998	0	1	0	1	0	37.8178536902998	0
3.1	37.8831689035096	0	1	0	1	0	37.8831689035096	0
3.11	37.9492398266817	0	1	0	1	0	37.9492398266817	0
3.12	38.0160629739391	0	1	0	1	0	38.0160629739391	0
3.13	38.0836349039525	0	1	0	1	0	38.0836349039525	0
3.14	38.1519522192312	0	1	0	1	0	38.1519522192312	0
3.15	38.2210115654275	0	1	0	1	0	38.2210115654275	0
3.16	38.2908096306535	0	1	0	1	0	38.2908096306535	0
3.17	38.3613431448117	0	1	0	1	0	38.3613431448117	0
3.18	38.4326088789381	0	1	0	1	0	38.4326088789381	0
3.19	38.5046036445571	0	1	0	1	0	38.5046036445571	0
3.2	38.5773242930492	0	1	0	1	0	38.5773242930492	0
3.21	38.6507677150298	0	1	0	1	0	38.6507677150298	0
3.22	38.7249308397405	0	1	0	1	0	38.7249308397405	0
3.23	38.7998106344505	0	1	0	1	0	38.7998106344505	0
3.24	38.8754041038706	0	1	0	1	0	38.8754041038706	0
3.25	38.9517082895762	0	1	0	1	0	38.9517082895762	0
3.26	39.0287202694427	0	1	0	1	0	39.0287202694427	0
3.27	39.1064371570901	0	1	0	1	0	39.1064371570901	0
3.28	39.184856101338	0	1	0	1	0	39.184856101338	0
3.29	39.263974285671	0	1	0	1	0	39.263974285671	0
3.3	39.3437889277132	0	1	0	1	0	39.3437889277132	0
3.31	39.4242972787126	0	1	0	1	0	39.4242972787126	0
3.32	39.5054966230346	0	1	0	1	0	39.5054966230346	0
3.33	39.5873842776649	0	1	0	1	0	39.5873842776649	0
3.34	39.6699575917212	0	1	0	1	0	39.6699575917212	0
3.35	39.7532139459735	0	1	0	1	0	39.7532139459735	0
3.36	39.8371507523729	0	1	0	1	0	39.8371507523729	0
3.37	39.9217654535894	0	1	0	1	0	39.9217654535894	0
3.38	40.0070555225571	0	1	0	1	0	40.0070555225571	0
3.39	40.0930184620283	0	1	0	1	0	40.0930184620283	0
3.4	40.1796518041342	0	1	0	1	0	40.1796518041342	0
3.41	40.2669531099551	0	1	0	1	0	40.2669531099551	0
3.42	40.3549199690963	0	1	0	1	0	40.3549199690963	0
3.43	40.4435499992729	0	1	0	1	0	40.4435499992729	0
3.44	40.5328408459009	0	1	0	1	0	40.5328408459009	0
3.45	40.6227901816957	0	1	0	1	0	40.6227901816957	0
3.46	40.713395706278	0	1	0	1	0	40.713395706278	0
3.47	40.8046551457856	0	1	0	1	0	40.8046551457856	0
3.48	40.8965662524927	0	1	0	1	0	40.8965662524927	0
3.49	40.9891268044355	0	1	0	1	0	40.9891268044355	0
3.5	41.082334605044	0	1	0	1	0	41.082334605044	0
3.51	41.1761874827803	0	1	0	1	0	41.1761874827803	0
3.52	41.2706832907831	0	1	0	1	0	41.2706832907831	0
3.53	41.3658199065182	0	1	0	1	0	41.3658199065182	0
3.54	41.4615952314348	0	1	0	1	0	41.4615952314348	0
3.55	41.5580071906277	0	1	0	1	0	41.5580071906277	0
3.56	41.6550537325052	0	1	0	1	0	41.6550537325052	0
3.57	41.7527328284628	0	1	0	1	0	41.7527328284628	0
3.58	41.8510424725618	0	1	0	1	0	41.8510424725618	0
3.59	41.9499806812139	0	1	0	1	0	41.9499806812139	0
3.6	42.0495454928706	0	1	0	1	0	42.0495454928706	0
3.61	42.149734967718	0	1	0	1	0	42.149734967718	0
3.62	42.2505471873768	0	1	0	1	0	42.2505471873768	0
3.63	42.3519802546065	0	1	0	1	0	42.3519802546065	0
3.64	42.4540322930157	0	1	0	1	0	42.4540322930157	0
3.65	42.5567014467761	0	1	0	1	0	42.5567014467761	0
3.66	42.6599858803417	0	1	0	1	0	42.6599858803417	0
3.67	42.7638837781724	0	1	0	1	0	42.7638837781724	0
3.68	42.8683933444623	0	1	0	1	0	42.8683933444623	0
3.69	42.9735128028721	0	1	0	1	0	42.9735128028721	0
3.7	43.0792403962663	0	1	0	1	0	43.0792403962663	0
3.71	43.1855743864542	0	1	0	1	0	43.1855743864542	0
3.72	43.2925130539354	0	1	0	1	0	43.2925130539354	0
3.73	43.4000546976491	0	1	0	1	0	43.4000546976491	0
3.74	43.5081976347276	0	1	0	1	0	43.5081976347276	0
3.75	43.616940200254	0	1	0	1	0	43.616940200254	0
3.76	43.726280747023	0	1	0	1	0	43.726280747023	0
3.77	43.8362176453066	0	1	0	1	0	43.8362176453066	0
3.78	43.9467492826223	0	1	0	1	0	43.9467492826223	0
3.79	44.0578740635061	0	1	0	1	0	44.0578740635061	0
3.8	44.1695904092882	0	1	0	1	0	44.1695904092882	0
3.81	44.2818967578729	0	1	0	1	0	44.2818967578729	0
3.82	44.3947915635215	0	1	0	1	0	44.3947915635215	0
3.83	44.5082732966386	0	1	0	1	0	44.5082732966386	0
3.84	44.6223404435624	0	1	0	1	0	44.6223404435624	0
3.85	44.7369915063571	0	1	0	1	0	44.7369915063571	0
3.86	44.8522250026099	0	1	0	1	0	44.8522250026099	0
3.87	44.9680394652298	0	1	0	1	0	44.9680394652298	0
3.88	45.0844334422507	0	1	0	1	0	45.0844334422507	0
3.89	45.2014054966366	0	1	0	1	0	45.2014054966366	0
3.9	45.3189542060903	0	1	0	1	0	45.3189542060903	0
3.91	45.4370781628651	0	1	0	1	0	45.4370781628651	0
3.92	45.5557759735788	0	1	0	1	0	45.5557759735788	0
3.93	45.6750462590316	0	1	0	1	0	45.6750462590316	0
3.94	45.7948876540254	0	1	0	1	0	45.7948876540254	0
3.95	45.9152988071869	0	1	0	1	0	45.9152988071869	0
3.96	46.0362783807933	0	1	0	1	0	46.0362783807933	0
3.97	46.1578250505999	0	1	0	1	0	46.1578250505999	0
3.98	46.2799375056711	0	1	0	1	0	46.2799375056711	0
3.99	46.4026144482133	0	1	0	1	0	46.4026144482133	0
4	46.5258545934111	0	1	0	1	0	46.5258545934111	0
4.01	46.649656669265	0	1	0	1	0	46.649656669265	0
4.02	46.7740194164325	0	1	0	1	0	46.7740194164325	0
4.03	46.8989415880705	0	1	0	1	0	46.8989415880705	0
4.04	47.0244219496809	0	1	0	1	0	47.0244219496809	0
4.05	47.1504592789583	0	1	0	1	0	47.1504592789583	0
4.06	47.2770523656397	0	1	0	1	0	47.2770523656397	0
4.07	47.4042000113565	0	1	0	1	0	47.4042000113565	0
4.08	47.5319010294888	0	1	0	1	0	47.5319010294888	0
4.09	47.660154245022	0	1	0	1	0	47.660154245022	0
4.1	47.7889584944048	0	1	0	1	0	47.7889584944048	0
4.11	47.91831262541	0	1	0	1	0	47.91831262541	0
4.12	48.0482154969973	0	1	0	1	0	48.0482154969973	0
4.13	48.1786659791775	0	1	0	1	0	48.1786659791775	0
4.14	48.3096629528792	0	1	0	1	0	48.3096629528792	0
4.15	48.4412053098171	0	1	0	1	0	48.4412053098171	0
4.16	48.5732919523626	0	1	0	1	0	48.5732919523626	0
4.17	48.705921793416	0	1	0	1	0	48.705921793416	0
4.18	48.8390937562803	0	1	0	1	0	48.8390937562803	0
4.19	48.9728067745373	0	1	0	1	0	48.9728067745373	0
4.2	49.1070597919252	0	1	0	1	0	49.1070597919252	0
4.21	49.2418517622179	0	1	0	1	0	49.2418517622179	0
4.22	49.3771816491062	0	1	0	1	0	49.3771816491062	0
4.23	49.5130484260804	0	1	0	1	0	49.5130484260804	0
4.24	49.6494510763149	0	1	0	1	0	49.6494510763149	0
4.25	49.7863885925543	0	1	0	1	0	49.7863885925543	0
4.26	49.9238599770009	0	1	0	1	0	49.9238599770009	0
4.27	50.061864241204	0	1	0	1	0	50.061864241204	0
4.28	50.200400405951	0	1	0	1	0	50.200400405951	0
4.29	50.3394675011592	0	1	0	1	0	50.3394675011592	0
4.3	50.4790645657702	0	1	0	1	0	50.4790645657702	0
4.31	50.6191906476446	0	1	0	1	0	50.6191906476446	0
4.32	50.7598448034594	0	1	0	1	0	50.7598448034594	0
4.33	50.9010260986057	0	1	0	1	0	50.9010260986057	0
4.34	51.0427336070888	0	1	0	1	0	51.0427336070888	0
4.35	51.1849664114286	0	1	0	1	0	51.1849664114286	0
4.36	51.3277236025622	0	1	0	1	0	51.3277236025622	0
4.37	51.471004279748	0	1	0	1	0	51.471004279748	0
4.38	51.6148075504701	0	1	0	1	0	51.6148075504701	0
4.39	51.7591325303448	0	1	0	1	0	51.7591325303448	0
4.4	51.9039783430284	0	1	0	1	0	51.9039783430284	0
4.41	52.0493441201258	0	1	0	1	0	52.0493441201258	0
4.42	52.1952290011008	0	1	0	1	0	52.1952290011008	0
4.43	52.3416321331872	0	1	0	1	0	52.3416321331872	0
4.44	52.4885526713014	0	1	0	1	0	52.4885526713014	0
4.45	52.635989777956	0	1	0	1	0	52.635989777956	0
4.46	52.7839426231747	0	1	0	1	0	52.7839426231747	0
4.47	52.9324103844084	0	1	0	1	0	52.9324103844084	0
4.48	53.0813922464521	0	1	0	1	0	53.0813922464521	0
4.49	53.2308874013632	0	1	0	1	0	53.2308874013632	0
4.5	53.3808950483807	0	1	0	1	0	53.3808950483807	0
4.51	53.5314143938461	0	1	0	1	0	53.5314143938461	0
4.52	53.6824446511239	0	1	0	1	0	53.6824446511239	0
4.53	53.8339850405249	0	1	0	1	0	53.8339850405249	0
4.54	53.9860347892294	0	1	0	1	0	53.9860347892294	0
4.55	54.1385931312118	0	1	0	1	0	54.1385931312118	0
4.56	54.2916593071657	0	1	0	1	0	54.2916593071657	0
4.57	54.4452325644309	0	1	0	1	0	54.4452325644309	0
4.58	54.5993121569209	0	1	0	1	0	54.5993121569209	0
4.59	54.7538973450506	0	1	0	1	0	54.7538973450506	0
4.6	54.9089873956664	0	1	0	1	0	54.9089873956664	0
4.61	55.0645815819759	0	1	0	1	0	55.0645815819759	0
4.62	55.2206791834795	0	1	0	1	0	55.2206791834795	0
4.63	55.377279485902	0	1	0	1	0	55.377279485902	0
4.64	55.5343817811258	0	1	0	1	0	55.5343817811258	0
4.65	55.6919853671248	0	1	0	1	0	55.6919853671248	0
4.66	55.8500895478987	0	1	0	1	0	55.8500895478987	0
4.67	56.0086936334086	0	1	0	1	0	56.0086936334086	0
4.68	56.1677969395137	0	1	0	1	0	56.1677969395137	0
4.69	56.3273987879077	0	1	0	1	0	56.3273987879077	0
4.7	56.4874985060573	0	1	0	1	0	56.4874985060573	0
4.71	56.6480954271407	0	1	0	1	0	56.6480954271407	0
4.72	56.8091888899873	0	1	0	1	0	56.8091888899873	0
4.73	56.9707782390175	0	1	0	1	0	56.9707782390175	0
4.74	57.1328628241842	0	1	0	1	0	57.1328628241842	0
4.75	57.2954420009143	0	1	0	1	0	57.2954420009143	0
4.76	57.4585151300514	0	1	0	1	0	57.4585151300514	0
4.77	57.6220815777989	0	1	0	1	0	57.6220815777989	0
4.78	57.7861407156637	0	1	0	1	0	57.7861407156637	0
4.79	57.9506919204013	0	1	0	1	0	57.9506919204013	0
4.8	58.115734573961	0	1	0	1	0	58.115734573961	0
4.81	58.2812680634314	0	1	0	1	0	58.2812680634314	0
4.82	58.4472917809879	0	1	0	1	0	58.4472917809879	0
4.83	58.6138051238396	0	1	0	1	0	58.6138051238396	0
4.84	58.780807494177	0	1	0	1	0	58.780807494177	0
4.85	58.9482982991215	0	1	0	1	0	58.9482982991215	0
4.86	59.1162769506737	0	1	0	1	0	59.1162769506737	0
4.87	59.2847428656641	0	1	0	1	0	59.2847428656641	0
4.88	59.4536954657031	0	1	0	1	0	59.4536954657031	0
4.89	59.6231341771323	0	1	0	1	0	59.6231341771323	0
4.9	59.7930584309763	0	1	0	1	0	59.7930584309763	0
4.91	59.9634676628949	0	1	0	1	0	59.9634676628949	0
4.92	60.134361313136	0	1	0	1	0	60.134361313136	0
4.93	60.3057388264892	0	1	0	1	0	60.3057388264892	0
