# GHZ S RI R 50
1	55.3542829867979	0	1	0	1	0	55.3542829867979	0
1.01	54.8956351709562	0	1	0	1	0	54.8956351709562	0
1.02	54.4471996006349	0	1	0	1	0	54.4471996006349	0
1.03	54.0086907854003	0	1	0	1	0	54.0086907854003	0
1.04	53.5798342152201	0	1	0	1	0	53.5798342152201	0
1.05	53.1603658375869	0	1	0	1	0	53.1603658375869	0
1.06	52.750031564239	0	1	0	1	0	52.750031564239	0
1.07	52.3485868055412	0	1	0	1	0	52.3485868055412	0
1.08	51.9557960307338	0	1	0	1	0	51.9557960307338	0
1.09	51.5714323523876	0	1	0	1	0	51.5714323523876	0
1.1	51.1952771335255	0	1	0	1	0	51.1952771335255	0
1.11	50.8271196159803	0	1	0	1	0	50.8271196159803	0
1.12	50.4667565686621	0	1	0	1	0	50.4667565686621	0
1.13	50.1139919545021	0	1	0	1	0	50.1139919545021	0
1.14	49.768636614925	0	1	0	1	0	49.768636614925	0
1.15	49.4305079707844	0	1	0	1	0	49.4305079707844	0
1.16	49.0994297387661	0	1	0	1	0	49.0994297387661	0
1.17	48.7752316623364	0	1	0	1	0	48.7752316623364	0
1.18	48.4577492563691	0	1	0	1	0	48.4577492563691	0
1.19	48.1468235646501	0	1	0	1	0	48.1468235646501	0
1.2	47.8423009295057	0	1	0	1	0	47.8423009295057	0
1.21	47.5440327728545	0	1	0	1	0	47.5440327728545	0
1.22	47.2518753880278	0	1	0	1	0	47.2518753880278	0
1.23	46.9656897417446	0	1	0	1	0	46.9656897417446	0
1.24	46.6853412856683	0	1	0	1	0	46.6853412856683	0
1.25	46.410699777009	0	1	0	1	0	46.410699777009	0
1.26	46.1416391076686	0	1	0	1	0	46.1416391076686	0
1.27	45.8780371414578	0	1	0	1	0	45.8780371414578	0
1.28	45.619775558943	0	1	0	1	0	45.619775558943	0
1.29	45.3667397095102	0	1	0	1	0	45.3667397095102	0
1.3	45.1188184702569	0	1	0	1	0	45.1188184702569	0
1.31	44.8759041113459	0	1	0	1	0	44.8759041113459	0
1.32	44.6378921674809	0	1	0	1	0	44.6378921674809	0
1.33	44.4046813151788	0	1	0	1	0	44.4046813151788	0
1.34	44.1761732555381	0	1	0	1	0	44.1761732555381	0
1.35	43.9522726022176	0	1	0	1	0	43.9522726022176	0
1.36	43.7328867743563	0	1	0	1	0	43.7328867743563	0
1.37	43.5179258941844	0	1	0	1	0	43.5179258941844	0
1.38	43.3073026890846	0	1	0	1	0	43.3073026890846	0
1.39	43.100932397882	0	1	0	1	0	43.100932397882	0
1.4	42.8987326811495	0	1	0	1	0	42.8987326811495	0
1.41	42.7006235353302	0	1	0	1	0	42.7006235353302	0
1.42	42.5065272104886	0	1	0	1	0	42.5065272104886	0
1.43	42.3163681315125	0	1	0	1	0	42.3163681315125	0
1.44	42.1300728225984	0	1	0	1	0	42.1300728225984	0
1.45	41.9475698348617	0	1	0	1	0	41.9475698348617	0
1.46	41.7687896769211	0	1	0	1	0	41.7687896769211	0
1.47	41.5936647483176	0	1	0	1	0	41.5936647483176	0
1.48	41.4221292756315	0	1	0	1	0	41.4221292756315	0
1.49	41.2541192511725	0	1	0	1	0	41.2541192511725	0
1.5	41.0895723741219	0	1	0	1	0	41.0895723741219	0
1.51	40.928427994014	0	1	0	1	0	40.928427994014	0
1.52	40.7706270564479	0	1	0	1	0	40.7706270564479	0
1.53	40.6161120509288	0	1	0	1	0	40.6161120509288	0
1.54	40.4648269607405	0	1	0	1	0	40.4648269607405	0
1.55	40.3167172147601	0	1	0	1	0	40.3167172147601	0
1.56	40.1717296411238	0	1	0	1	0	40.1717296411238	0
1.57	40.0298124226651	0	1	0	1	0	40.0298124226651	0
1.58	39.8909150540447	0	1	0	1	0	39.8909150540447	0
1.59	39.7549883004974	0	1	0	1	0	39.7549883004974	0
1.6	39.6219841581277	0	1	0	1	0	39.6219841581277	0
1.61	39.491855815683	0	1	0	1	0	39.491855815683	0
1.62	39.3645576177444	0	1	0	1	0	39.3645576177444	0
1.63	39.2400450292712	0	1	0	1	0	39.2400450292712	0
1.64	39.1182746014433	0	1	0	1	0	39.1182746014433	0
1.65	38.9992039387454	0	1	0	1	0	38.9992039387454	0
1.66	38.8827916672406	0	1	0	1	0	38.8827916672406	0
1.67	38.7689974039847	0	1	0	1	0	38.7689974039847	0
1.68	38.6577817275323	0	1	0	1	0	38.6577817275323	0
1.69	38.5491061494898	0	1	0	1	0	38.5491061494898	0
1.7	38.4429330870727	0	1	0	1	0	38.4429330870727	0
1.71	38.3392258366263	0	1	0	1	0	38.3392258366263	0
1.72	38.2379485480691	0	1	0	1	0	38.2379485480691	0
1.73	38.1390662002231	0	1	0	1	0	38.1390662002231	0
1.74	38.0425445769951	0	1	0	1	0	38.0425445769951	0
1.75	37.9483502443739	0	1	0	1	0	37.9483502443739	0
1.76	37.8564505282121	0	1	0	1	0	37.8564505282121	0
1.77	37.7668134927613	0	1	0	1	0	37.7668134927613	0
1.78	37.6794079199302	0	1	0	1	0	37.6794079199302	0
1.79	37.5942032892387	0	1	0	1	0	37.5942032892387	0
1.8	37.5111697584393	0	1	0	1	0	37.5111697584393	0
1.81	37.4302781447818	0	1	0	1	0	37.4302781447818	0
1.82	37.3514999068953	0	1	0	1	0	37.3514999068953	0
1.83	37.2748071272637	0	1	0	1	0	37.2748071272637	0
1.84	37.2001724952737	0	1	0	1	0	37.2001724952737	0
1.85	37.1275692908116	0	1	0	1	0	37.1275692908116	0
1.86	37.0569713683897	0	1	0	1	0	37.0569713683897	0
1.87	36.9883531417824	0	1	0	1	0	36.9883531417824	0
1.88	36.9216895691516	0	1	0	1	0	36.9216895691516	0
1.89	36.8569561386452	0	1	0	1	0	36.8569561386452	0
1.9	36.7941288544501	0	1	0	1	0	36.7941288544501	0
1.91	36.7331842232836	0	1	0	1	0	36.7331842232836	0
1.92	36.674099241306	0	1	0	1	0	36.674099241306	0
1.93	36.6168513814413	0	1	0	1	0	36.6168513814413	0
1.94	36.5614185810893	0	1	0	1	0	36.5614185810893	0
1.95	36.5077792302159	0	1	0	1	0	36.5077792302159	0
1.96	36.4559121598082	0	1	0	1	0	36.4559121598082	0
1.97	36.4057966306808	0	1	0	1	0	36.4057966306808	0
1.98	36.357412322622	0	1	0	1	0	36.357412322622	0
1.99	36.3107393238663	0	1	0	1	0	36.3107393238663	0
2	36.2657581208837	0	1	0	1	0	36.2657581208837	0
2.01	36.222449588473	0	1	0	1	0	36.222449588473	0
2.02	36.18079498015	0	1	0	1	0	36.18079498015	0
2.03	36.1407759188193	0	1	0	1	0	36.1407759188193	0
2.04	36.1023743877207	0	1	0	1	0	36.1023743877207	0
2.05	36.0655727216405	0	1	0	1	0	36.0655727216405	0
2.06	36.0303535983789	0	1	0	1	0	36.0303535983789	0
2.07	35.9967000304646	0	1	0	1	0	35.9967000304646	0
2.08	35.9645953571084	0	1	0	1	0	35.9645953571084	0
2.09	35.934023236388	0	1	0	1	0	35.934023236388	0
2.1	35.9049676376556	0	1	0	1	0	35.9049676376556	0
2.11	35.8774128341621	0	1	0	1	0	35.8774128341621	0
2.12	35.8513433958896	0	1	0	1	0	35.8513433958896	0
2.13	35.8267441825855	0	1	0	1	0	35.8267441825855	0
2.14	35.8036003369928	0	1	0	1	0	35.8036003369928	0
2.15	35.7818972782685	0	1	0	1	0	35.7818972782685	0
2.16	35.7616206955853	0	1	0	1	0	35.7616206955853	0
2.17	35.7427565419098	0	1	0	1	0	35.7427565419098	0
2.18	35.7252910279526	0	1	0	1	0	35.7252910279526	0
2.19	35.7092106162831	0	1	0	1	0	35.7092106162831	0
2.2	35.694502015606	0	1	0	1	0	35.694502015606	0
2.21	35.6811521751926	0	1	0	1	0	35.6811521751926	0
2.22	35.6691482794621	0	1	0	1	0	35.6691482794621	0
2.23	35.6584777427098	0	1	0	1	0	35.6584777427098	0
2.24	35.6491282039758	0	1	0	1	0	35.6491282039758	0
2.25	35.6410875220505	0	1	0	1	0	35.6410875220505	0
2.26	35.6343437706128	0	1	0	1	0	35.6343437706128	0
2.27	35.6288852334974	0	1	0	1	0	35.6288852334974	0
2.28	35.6247004000854	0	1	0	1	0	35.6247004000854	0
2.29	35.6217779608171	0	1	0	1	0	35.6217779608171	0
2.3	35.6201068028204	0	1	0	1	0	35.6201068028204	0
2.31	35.6196760056542	0	1	0	1	0	35.6196760056542	0
2.32	35.6204748371607	0	1	0	1	0	35.6204748371607	0
2.33	35.6224927494253	0	1	0	1	0	35.6224927494253	0
2.34	35.6257193748394	0	1	0	1	0	35.6257193748394	0
2.35	35.6301445222646	0	1	0	1	0	35.6301445222646	0
2.36	35.6357581732935	0	1	0	1	0	35.6357581732935	0
2.37	35.6425504786058	0	1	0	1	0	35.6425504786058	0
2.38	35.6505117544159	0	1	0	1	0	35.6505117544159	0
2.39	35.6596324790101	0	1	0	1	0	35.6596324790101	0
2.4	35.6699032893697	0	1	0	1	0	35.6699032893697	0
2.41	35.6813149778791	0	1	0	1	0	35.6813149778791	0
2.42	35.6938584891143	0	1	0	1	0	35.6938584891143	0
2.43	35.7075249167122	0	1	0	1	0	35.7075249167122	0
2.44	35.7223055003154	0	1	0	1	0	35.7223055003154	0
2.45	35.7381916225927	0	1	0	1	0	35.7381916225927	0
2.46	35.7551748063323	0	1	0	1	0	35.7551748063323	0
2.47	35.773246711605	0	1	0	1	0	35.773246711605	0
2.48	35.7923991329967	0	1	0	1	0	35.7923991329967	0
2.49	35.8126239969072	0	1	0	1	0	35.8126239969072	0
2.5	35.8339133589139	0	1	0	1	0	35.8339133589139	0
2.51	35.8562594011983	0	1	0	1	0	35.8562594011983	0
2.52	35.8796544300347	0	1	0	1	0	35.8796544300347	0
2.53	35.9040908733368	0	1	0	1	0	35.9040908733368	0
2.54	35.9295612782644	0	1	0	1	0	35.9295612782644	0
2.55	35.9560583088839	0	1	0	1	0	35.9560583088839	0
2.56	35.9835747438862	0	1	0	1	0	35.9835747438862	0
2.57	36.0121034743558	0	1	0	1	0	36.0121034743558	0
2.58	36.0416375015932	0	1	0	1	0	36.0416375015932	0
2.59	36.0721699349867	0	1	0	1	0	36.0721699349867	0
2.6	36.1036939899341	0	1	0	1	0	36.1036939899341	0
2.61	36.1362029858117	0	1	0	1	0	36.1362029858117	0
2.62	36.1696903439903	0	1	0	1	0	36.1696903439903	0
2.63	36.2041495858956	0	1	0	1	0	36.2041495858956	0
2.64	36.2395743311136	0	1	0	1	0	36.2395743311136	0
2.65	36.2759582955386	0	1	0	1	0	36.2759582955386	0
2.66	36.3132952895626	0	1	0	1	0	36.3132952895626	0
2.67	36.3515792163057	0	1	0	1	0	36.3515792163057	0
2.68	36.3908040698864	0	1	0	1	0	36.3908040698864	0
2.69	36.4309639337299	0	1	0	1	0	36.4309639337299	0
2.7	36.4720529789145	0	1	0	1	0	36.4720529789145	0
2.71	36.5140654625539	0	1	0	1	0	36.5140654625539	0
2.72	36.5569957262163	0	1	0	1	0	36.5569957262163	0
2.73	36.6008381943773	0	1	0	1	0	36.6008381943773	0
2.74	36.6455873729069	0	1	0	1	0	36.6455873729069	0
2.75	36.6912378475899	0	1	0	1	0	36.6912378475899	0
2.76	36.7377842826778	0	1	0	1	0	36.7377842826778	0
2.77	36.7852214194727	0	1	0	1	0	36.7852214194727	0
2.78	36.8335440749414	0	1	0	1	0	36.8335440749414	0
2.79	36.8827471403595	0	1	0	1	0	36.8827471403595	0
2.8	36.9328255799842	0	1	0	1	0	36.9328255799842	0
2.81	36.9837744297561	0	1	0	1	0	36.9837744297561	0
2.82	37.0355887960278	0	1	0	1	0	37.0355887960278	0
2.83	37.0882638543201	0	1	0	1	0	37.0882638543201	0
2.84	37.1417948481043	0	1	0	1	0	37.1417948481043	0
2.85	37.19617708761	0	1	0	1	0	37.19617708761	0
2.86	37.2514059486578	0	1	0	1	0	37.2514059486578	0
2.87	37.307476871517	0	1	0	1	0	37.307476871517	0
2.88	37.3643853597864	0	1	0	1	0	37.3643853597864	0
2.89	37.4221269792988	0	1	0	1	0	37.4221269792988	0
2.9	37.4806973570479	0	1	0	1	0	37.4806973570479	0
2.91	37.5400921801373	0	1	0	1	0	37.5400921801373	0
2.92	37.6003071947516	0	1	0	1	0	37.6003071947516	0
2.93	37.6613382051478	0	1	0	1	0	37.6613382051478	0
2.94	37.7231810726679	0	1	0	1	0	37.7231810726679	0
2.95	37.7858317147715	0	1	0	1	0	37.7858317147715	0
2.96	37.8492861040872	0	1	0	1	0	37.8492861040872	0
2.97	37.9135402674846	0	1	0	1	0	37.9135402674846	0
2.98	37.9785902851641	0	1	0	1	0	37.9785902851641	0
2.99	38.0444322897644	0	1	0	1	0	38.0444322897644	0
3	38.1110624654893	0	1	0	1	0	38.1110624654893	0
3.01	38.178477047251	0	1	0	1	0	38.178477047251	0
3.02	38.2466723198301	0	1	0	1	0	38.2466723198301	0
3.03	38.3156446170532	0	1	0	1	0	38.3156446170532	0
3.04	38.385390320986	0	1	0	1	0	38.385390320986	0
3.05	38.4559058611423	0	1	0	1	0	38.4559058611423	0
3.06	38.5271877137094	0	1	0	1	0	38.5271877137094	0
3.07	38.599232400787	0	1	0	1	0	38.599232400787	0
3.08	38.6720364896425	0	1	0	1	0	38.6720364896425	0
3.09	38.74559659198	0	1	0	1	0	38.74559659198	0
3.1	38.8199093632236	0	1	0	1	0	38.8199093632236	0
3.11	38.8949715018143	0	1	0	1	0	38.8949715018143	0
3.12	38.9707797485209	0	1	0	1	0	38.9707797485209	0
3.13	39.0473308857637	0	1	0	1	0	39.0473308857637	0
3.14	39.1246217369512	0	1	0	1	0	39.1246217369512	0
3.15	39.2026491658297	0	1	0	1	0	39.2026491658297	0
3.16	39.2814100758447	0	1	0	1	0	39.2814100758447	0
3.17	39.3609014095153	0	1	0	1	0	39.3609014095153	0
3.18	39.441120147819	0	1	0	1	0	39.441120147819	0
3.19	39.5220633095899	0	1	0	1	0	39.5220633095899	0
3.2	39.6037279509263	0	1	0	1	0	39.6037279509263	0
3.21	39.6861111646107	0	1	0	1	0	39.6861111646107	0
3.22	39.7692100795402	0	1	0	1	0	39.7692100795402	0
3.23	39.8530218601673	0	1	0	1	0	39.8530218601673	0
3.24	39.9375437059512	0	1	0	1	0	39.9375437059512	0
3.25	40.0227728508195	0	1	0	1	0	40.0227728508195	0
3.26	40.1087065626392	0	1	0	1	0	40.1087065626392	0
3.27	40.1953421426977	0	1	0	1	0	40.1953421426977	0
3.28	40.2826769251939	0	1	0	1	0	40.2826769251939	0
3.29	40.3707082767374	0	1	0	1	0	40.3707082767374	0
3.3	40.4594335958578	0	1	0	1	0	40.4594335958578	0
3.31	40.5488503125223	0	1	0	1	0	40.5488503125223	0
3.32	40.6389558876624	0	1	0	1	0	40.6389558876624	0
3.33	40.729747812709	0	1	0	1	0	40.729747812709	0
3.34	40.8212236091356	0	1	0	1	0	40.8212236091356	0
3.35	40.9133808280102	0	1	0	1	0	40.9133808280102	0
3.36	41.0062170495547	0	1	0	1	0	41.0062170495547	0
3.37	41.0997298827123	0	1	0	1	0	41.0997298827123	0
3.38	41.1939169647228	0	1	0	1	0	41.1939169647228	0
3.39	41.2887759607053	0	1	0	1	0	41.2887759607053	0
3.4	41.3843045632479	0	1	0	1	0	41.3843045632479	0
3.41	41.4805004920052	0	1	0	1	0	41.4805004920052	0
3.42	41.5773614933024	0	1	0	1	0	41.5773614933024	0
3.43	41.6748853397469	0	1	0	1	0	41.6748853397469	0
3.44	41.7730698298457	0	1	0	1	0	41.7730698298457	0
3.45	41.8719127876305	0	1	0	1	0	41.8719127876305	0
3.46	41.9714120622888	0	1	0	1	0	41.9714120622888	0
3.47	42.0715655278011	0	1	0	1	0	42.0715655278011	0
3.48	42.172371082585	0	1	0	1	0	42.172371082585	0
3.49	42.2738266491451	0	1	0	1	0	42.2738266491451	0
3.5	42.3759301737287	0	1	0	1	0	42.3759301737287	0
3.51	42.4786796259878	0	1	0	1	0	42.4786796259878	0
3.52	42.5820729986463	0	1	0	1	0	42.5820729986463	0
3.53	42.6861083071738	0	1	0	1	0	42.6861083071738	0
3.54	42.7907835894636	0	1	0	1	0	42.7907835894636	0
3.55	42.8960969055174	0	1	0	1	0	42.8960969055174	0
3.56	43.0020463371348	0	1	0	1	0	43.0020463371348	0
3.57	43.1086299876076	0	1	0	1	0	43.1086299876076	0
3.58	43.21584598142	0	1	0	1	0	43.21584598142	0
3.59	43.3236924639532	0	1	0	1	0	43.3236924639532	0
3.6	43.4321676011954	0	1	0	1	0	43.4321676011954	0
3.61	43.5412695794562	0	1	0	1	0	43.5412695794562	0
3.62	43.6509966050859	0	1	0	1	0	43.6509966050859	0
3.63	43.7613469041998	0	1	0	1	0	43.7613469041998	0
3.64	43.8723187224061	0	1	0	1	0	43.8723187224061	0
3.65	43.9839103245394	0	1	0	1	0	43.9839103245394	0
3.66	44.0961199943978	0	1	0	1	0	44.0961199943978	0
3.67	44.2089460344848	0	1	0	1	0	44.2089460344848	0
3.68	44.3223867657545	0	1	0	1	0	44.3223867657545	0
3.69	44.4364405273626	0	1	0	1	0	44.4364405273626	0
3.7	44.5511056764193	0	1	0	1	0	44.5511056764193	0
3.71	44.6663805877484	0	1	0	1	0	44.6663805877484	0
3.72	44.7822636536484	0	1	0	1	0	44.7822636536484	0
3.73	44.8987532836587	0	1	0	1	0	44.8987532836587	0
3.74	45.0158479043289	0	1	0	1	0	45.0158479043289	0
3.75	45.1335459589922	0	1	0	1	0	45.1335459589922	0
3.76	45.2518459075418	0	1	0	1	0	45.2518459075418	0
3.77	45.3707462262119	0	1	0	1	0	45.3707462262119	0
3.78	45.4902454073611	0	1	0	1	0	45.4902454073611	0
3.79	45.6103419592596	0	1	0	1	0	45.6103419592596	0
3.8	45.7310344058802	0	1	0	1	0	45.7310344058802	0
3.81	45.852321286692	0	1	0	1	0	45.852321286692	0
3.82	45.9742011564577	0	1	0	1	0	45.9742011564577	0
3.83	46.0966725850336	0	1	0	1	0	46.0966725850336	0
3.84	46.2197341571738	0	1	0	1	0	46.2197341571738	0
3.85	46.3433844723357	0	1	0	1	0	46.3433844723357	0
3.86	46.4676221444905	0	1	0	1	0	46.4676221444905	0
3.87	46.5924458019351	0	1	0	1	0	46.5924458019351	0
3.88	46.7178540871077	0	1	0	1	0	46.7178540871077	0
3.89	46.843845656406	0	1	0	1	0	46.843845656406	0
3.9	46.9704191800084	0	1	0	1	0	46.9704191800084	0
3.91	47.0975733416972	0	1	0	1	0	47.0975733416972	0
3.92	47.225306838686	0	1	0	1	0	47.225306838686	0
3.93	47.353618381448	0	1	0	1	0	47.353618381448	0
3.94	47.482506693548	0	1	0	1	0	47.482506693548	0
3.95	47.611970511477	0	1	0	1	0	47.611970511477	0
3.96	47.7420085844884	0	1	0	1	0	47.7420085844884	0
3.97	47.8726196744379	0	1	0	1	0	47.8726196744379	0
3.98	48.0038025556245	0	1	0	1	0	48.0038025556245	0
3.99	48.1355560146353	0	1	0	1	0	48.1355560146353	0
4	48.2678788501913	0	1	0	1	0	48.2678788501913	0
4.01	48.4007698729964	0	1	0	1	0	48.4007698729964	0
4.02	48.5342279055883	0	1	0	1	0	48.5342279055883	0
4.03	48.6682517821916	0	1	0	1	0	48.6682517821916	0
4.04	48.8028403485732	0	1	0	1	0	48.8028403485732	0
4.05	48.9379924619001	0	1	0	1	0	48.9379924619001	0
4.06	49.0737069905984	0	1	0	1	0	49.0737069905984	0
4.07	49.2099828142156	0	1	0	1	0	49.2099828142156	0
4.08	49.3468188232838	0	1	0	1	0	49.3468188232838	0
4.09	49.4842139191859	0	1	0	1	0	49.4842139191859	0
4.1	49.6221670140226	0	1	0	1	0	49.6221670140226	0
4.11	49.7606770304829	0	1	0	1	0	49.7606770304829	0
4.12	49.8997429017149	0	1	0	1	0	49.8997429017149	0
4.13	50.0393635711993	0	1	0	1	0	50.0393635711993	0
4.14	50.1795379926249	0	1	0	1	0	50.1795379926249	0
4.15	50.3202651297654	0	1	0	1	0	50.3202651297654	0
4.16	50.4615439563581	0	1	0	1	0	50.4615439563581	0
4.17	50.6033734559847	0	1	0	1	0	50.6033734559847	0
4.18	50.7457526219534	0	1	0	1	0	50.7457526219534	0
4.19	50.8886804571825	0	1	0	1	0	50.8886804571825	0
4.2	51.0321559740868	0	1	0	1	0	51.0321559740868	0
4.21	51.176178194464	0	1	0	1	0	51.176178194464	0
4.22	51.3207461493839	0	1	0	1	0	51.3207461493839	0
4.23	51.4658588790788	0	1	0	1	0	51.4658588790788	0
4.24	51.6115154328355	0	1	0	1	0	51.6115154328355	0
4.25	51.7577148688886	0	1	0	1	0	51.7577148688886	0
4.26	51.9044562543155	0	1	0	1	0	51.9044562543155	0
4.27	52.0517386649331	0	1	0	1	0	52.0517386649331	0
4.28	52.1995611851954	0	1	0	1	0	52.1995611851954	0
4.29	52.347922908093	0	1	0	1	0	52.347922908093	0
4.3	52.4968229350537	0	1	0	1	0	52.4968229350537	0
4.31	52.6462603758448	0	1	0	1	0	52.6462603758448	0
4.32	52.7962343484766	0	1	0	1	0	52.7962343484766	0
4.33	52.946743979107	0	1	0	1	0	52.946743979107	0
4.34	53.0977884019476	0	1	0	1	0	53.0977884019476	0
4.35	53.2493667591715	0	1	0	1	0	53.2493667591715	0
4.36	53.4014782008218	0	1	0	1	0	53.4014782008218	0
4.37	53.5541218847213	0	1	0	1	0	53.5541218847213	0
4.38	53.707296976384	0	1	0	1	0	53.707296976384	0
4.39	53.8610026489276	0	1	0	1	0	53.8610026489276	0
4.4	54.0152380829867	0	1	0	1	0	54.0152380829867	0
4.41	54.1700024666277	0	1	0	1	0	54.1700024666277	0
4.42	54.3252949952652	0	1	0	1	0	54.3252949952652	0
4.43	54.4811148715783	0	1	0	1	0	54.4811148715783	0
4.44	54.6374613054294	0	1	0	1	0	54.6374613054294	0
4.45	54.7943335137831	0	1	0	1	0	54.7943335137831	0
4.46	54.9517307206269	0	1	0	1	0	54.9517307206269	0
4.47	55.1096521568923	0	1	0	1	0	55.1096521568923	0
4.48	55.2680970603776	0	1	0	1	0	55.2680970603776	0
4.49	55.4270646756714	0	1	0	1	0	55.4270646756714	0
4.5	55.5865542540769	0	1	0	1	0	55.5865542540769	0
4.51	55.7465650535376	0	1	0	1	0	55.7465650535376	0
4.52	55.9070963385641	0	1	0	1	0	55.9070963385641	0
4.53	56.0681473801612	0	1	0	1	0	56.0681473801612	0
4.54	56.2297174557566	0	1	0	1	0	56.2297174557566	0
4.55	56.3918058491303	0	1	0	1	0	56.3918058491303	0
4.56	56.5544118503449	0	1	0	1	0	56.5544118503449	0
4.57	56.7175347556771	0	1	0	1	0	56.7175347556771	0
4.58	56.8811738675492	0	1	0	1	0	56.8811738675492	0
4.59	57.0453284944632	0	1	0	1	0	57.0453284944632	0
4.6	57.2099979509335	0	1	0	1	0	57.2099979509335	0
4.61	57.3751815574229	0	1	0	1	0	57.3751815574229	0
4.62	57.5408786402772	0	1	0	1	0	57.5408786402772	0
4.63	57.7070885316624	0	1	0	1	0	57.7070885316624	0
4.64	57.8738105695015	0	1	0	1	0	57.8738105695015	0
4.65	58.0410440974128	0	1	0	1	0	58.0410440974128	0
4.66	58.2087884646489	0	1	0	1	0	58.2087884646489	0
4.67	58.3770430260361	0	1	0	1	0	58.3770430260361	0
4.68	58.5458071419152	0	1	0	1	0	58.5458071419152	0
4.69	58.7150801780823	0	1	0	1	0	58.7150801780823	0
4.7	58.8848615057312	0	1	0	1	0	58.8848615057312	0
4.71	59.0551505013957	0	1	0	1	0	59.0551505013957	0
4.72	59.2259465468932	0	1	0	1	0	59.2259465468932	0
4.73	59.3972490292691	0	1	0	1	0	59.3972490292691	0
4.74	59.5690573407411	0	1	0	1	0	59.5690573407411	0
4.75	59.7413708786452	0	1	0	1	0	59.7413708786452	0
4.76	59.914189045382	0	1	0	1	0	59.914189045382	0
4.77	60.087511248363	0	1	0	1	0	60.087511248363	0
4.78	60.2613368999591	0	1	0	1	0	60.2613368999591	0
4.79	60.4356654174478	0	1	0	1	0	60.4356654174478	0
4.8	60.6104962229631	0	1	0	1	0	60.6104962229631	0
4.81	60.7858287434441	0	1	0	1	0	60.7858287434441	0
4.82	60.961662410586	0	1	0	1	0	60.961662410586	0
4.83	61.1379966607903	0	1	0	1	0	61.1379966607903	0
4.84	61.3148309351161	0	1	0	1	0	61.3148309351161	0
4.85	61.4921646792327	0	1	0	1	0	61.4921646792327	0
4.86	61.6699973433717	0	1	0	1	0	61.6699973433717	0
4.87	61.84832838228	0	1	0	1	0	61.84832838228	0
4.88	62.027157255174	0	1	0	1	0	62.027157255174	0
4.89	62.2064834256938	0	1	0	1	0	62.2064834256938	0
4.9	62.3863063618576	0	1	0	1	0	62.3863063618576	0
4.91	62.5666255360178	0	1	0	1	0	62.5666255360178	0
4.92	62.7474404248164	0	1	0	1	0	62.7474404248164	0
4.93	62.9287505091419	0	1	0	1	0	62.9287505091419	0
