# GHZ S RI R 50
1	50.761711723391	0	1	0	1	0	50.761711723391	0
1.01	50.3324796758964	0	1	0	1	0	50.3324796758964	0
1.02	49.9127641361701	0	1	0	1	0	49.9127641361701	0
1.03	49.502298711618	0	1	0	1	0	49.502298711618	0
1.04	49.100827255515	0	1	0	1	0	49.100827255515	0
1.05	48.7081033791065	0	1	0	1	0	48.7081033791065	0
1.06	48.3238899913267	0	1	0	1	0	48.3238899913267	0
1.07	47.9479588643273	0	1	0	1	0	47.9479588643273	0
1.08	47.5800902231431	0	1	0	1	0	47.5800902231431	0
1.09	47.2200723579455	0	1	0	1	0	47.2200723579455	0
1.1	46.867701257445	0	1	0	1	0	46.867701257445	0
1.11	46.5227802621101	0	1	0	1	0	46.5227802621101	0
1.12	46.1851197359643	0	1	0	1	0	46.1851197359643	0
1.13	45.8545367558088	0	1	0	1	0	45.8545367558088	0
1.14	45.5308548168028	0	1	0	1	0	45.5308548168028	0
1.15	45.2139035534042	0	1	0	1	0	45.2139035534042	0
1.16	44.9035184747449	0	1	0	1	0	44.9035184747449	0
1.17	44.5995407135759	0	1	0	1	0	44.5995407135759	0
1.18	44.3018167879792	0	1	0	1	0	44.3018167879792	0
1.19	44.0101983750925	0	1	0	1	0	44.0101983750925	0
1.2	43.7245420961489	0	1	0	1	0	43.7245420961489	0
1.21	43.4447093121755	0	1	0	1	0	43.4447093121755	0
1.22	43.1705659297397	0	1	0	1	0	43.1705659297397	0
1.23	42.9019822161707	0	1	0	1	0	42.9019822161707	0
1.24	42.6388326237226	0	1	0	1	0	42.6388326237226	0
1.25	42.3809956221773	0	1	0	1	0	42.3809956221773	0
1.26	42.1283535394192	0	1	0	1	0	42.1283535394192	0
1.27	41.8807924095406	0	1	0	1	0	41.8807924095406	0
1.28	41.6382018280688	0	1	0	1	0	41.6382018280688	0
1.29	41.4004748139254	0	1	0	1	0	41.4004748139254	0
1.3	41.1675076777575	0	1	0	1	0	41.1675076777575	0
1.31	40.9391998962994	0	1	0	1	0	40.9391998962994	0
1.32	40.7154539924448	0	1	0	1	0	40.7154539924448	0
1.33	40.4961754207299	0	1	0	1	0	40.4961754207299	0
1.34	40.2812724579435	0	1	0	1	0	40.2812724579435	0
1.35	40.0706560985991	0	1	0	1	0	40.0706560985991	0
1.36	39.8642399550185	0	1	0	1	0	39.8642399550185	0
1.37	39.6619401617919	0	1	0	1	0	39.6619401617919	0
1.38	39.4636752843905	0	1	0	1	0	39.4636752843905	0
1.39	39.2693662317254	0	1	0	1	0	39.2693662317254	0
1.4	39.0789361724531	0	1	0	1	0	39.0789361724531	0
1.41	38.8923104548426	0	1	0	1	0	38.8923104548426	0
1.42	38.7094165300286	0	1	0	1	0	38.7094165300286	0
1.43	38.5301838784847	0	1	0	1	0	38.5301838784847	0
1.44	38.3545439395602	0	1	0	1	0	38.3545439395602	0
1.45	38.1824300439327	0	1	0	1	0	38.1824300439327	0
1.46	38.0137773488366	0	1	0	1	0	38.0137773488366	0
1.47	37.8485227759354	0	1	0	1	0	37.8485227759354	0
1.48	37.6866049517123	0	1	0	1	0	37.6866049517123	0
1.49	37.5279641502618	0	1	0	1	0	37.5279641502618	0
1.5	37.3725422383692	0	1	0	1	0	37.3725422383692	0
1.51	37.2202826227724	0	1	0	1	0	37.2202826227724	0
1.52	37.071130199506	0	1	0	1	0	37.071130199506	0
1.53	36.9250313052308	0	1	0	1	0	36.9250313052308	0
1.54	36.7819336704606	0	1	0	1	0	36.7819336704606	0
1.55	36.6417863745994	0	1	0	1	0	36.6417863745994	0
1.56	36.5045398027074	0	1	0	1	0	36.5045398027074	0
1.57	36.3701456039195	0	1	0	1	0	36.3701456039195	0
1.58	36.2385566514434	0	1	0	1	0	36.2385566514434	0
1.59	36.1097270040663	0	1	0	1	0	36.1097270040663	0
1.6	35.9836118691059	0	1	0	1	0	35.9836118691059	0
1.61	35.8601675667414	0	1	0	1	0	35.8601675667414	0
1.62	35.7393514956662	0	1	0	1	0	35.7393514956662	0
1.63	35.6211221000045	0	1	0	1	0	35.6211221000045	0
1.64	35.5054388374384	0	1	0	1	0	35.5054388374384	0
1.65	35.3922621484941	0	1	0	1	0	35.3922621484941	0
1.66	35.2815534269383	0	1	0	1	0	35.2815534269383	0
1.67	35.1732749912376	0	1	0	1	0	35.1732749912376	0
1.68	35.0673900570382	0	1	0	1	0	35.0673900570382	0
1.69	34.9638627106218	0	1	0	1	0	34.9638627106218	0
1.7	34.8626578832987	0	1	0	1	0	34.8626578832987	0
1.71	34.7637413266995	0	1	0	1	0	34.7637413266995	0
1.72	34.6670795889286	0	1	0	1	0	34.6670795889286	0
1.73	34.5726399915445	0	1	0	1	0	34.5726399915445	0
1.74	34.4803906073343	0	1	0	1	0	34.4803906073343	0
1.75	34.39030023885	0	1	0	1	0	34.39030023885	0
1.76	34.3023383976763	0	1	0	1	0	34.3023383976763	0
1.77	34.2164752844019	0	1	0	1	0	34.2164752844019	0
1.78	34.132681769265	0	1	0	1	0	34.132681769265	0
1.79	34.0509293734484	0	1	0	1	0	34.0509293734484	0
1.8	33.9711902509973	0	1	0	1	0	33.9711902509973	0
1.81	33.8934371713373	0	1	0	1	0	33.8934371713373	0
1.82	33.817643502368	0	1	0	1	0	33.817643502368	0
1.83	33.7437831941114	0	1	0	1	0	33.7437831941114	0
1.84	33.6718307628936	0	1	0	1	0	33.6718307628936	0
1.85	33.6017612760388	0	1	0	1	0	33.6017612760388	0
1.86	33.533550337058	0	1	0	1	0	33.533550337058	0
1.87	33.4671740713119	0	1	0	1	0	33.4671740713119	0
1.88	33.4026091121327	0	1	0	1	0	33.4026091121327	0
1.89	33.3398325873848	0	1	0	1	0	33.3398325873848	0
1.9	33.2788221064516	0	1	0	1	0	33.2788221064516	0
1.91	33.2195557476298	0	1	0	1	0	33.2195557476298	0
1.92	33.1620120459182	0	1	0	1	0	33.1620120459182	0
1.93	33.1061699811861	0	1	0	1	0	33.1061699811861	0
1.94	33.0520089667076	0	1	0	1	0	33.0520089667076	0
1.95	32.9995088380487	0	1	0	1	0	32.9995088380487	0
1.96	32.9486498422942	0	1	0	1	0	32.9486498422942	0
1.97	32.8994126276037	0	1	0	1	0	32.8994126276037	0
1.98	32.8517782330827	0	1	0	1	0	32.8517782330827	0
1.99	32.8057280789605	0	1	0	1	0	32.8057280789605	0
2	32.7612439570615	0	1	0	1	0	32.7612439570615	0
2.01	32.7183080215622	0	1	0	1	0	32.7183080215622	0
2.02	32.6769027800215	0	1	0	1	0	32.6769027800215	0
2.03	32.637011084677	0	1	0	1	0	32.637011084677	0
2.04	32.598616123997	0	1	0	1	0	32.598616123997	0
2.05	32.5617014144796	0	1	0	1	0	32.5617014144796	0
2.06	32.526250792691	0	1	0	1	0	32.526250792691	0
2.07	32.4922484075342	0	1	0	1	0	32.4922484075342	0
2.08	32.459678712741	0	1	0	1	0	32.459678712741	0
2.09	32.4285264595794	0	1	0	1	0	32.4285264595794	0
2.1	32.3987766897696	0	1	0	1	0	32.3987766897696	0
2.11	32.3704147286009	0	1	0	1	0	32.3704147286009	0
2.12	32.3434261782441	0	1	0	1	0	32.3434261782441	0
2.13	32.3177969112515	0	1	0	1	0	32.3177969112515	0
2.14	32.2935130642401	0	1	0	1	0	32.2935130642401	0
2.15	32.2705610317502	0	1	0	1	0	32.2705610317502	0
2.16	32.2489274602752	0	1	0	1	0	32.2489274602752	0
2.17	32.2285992424558	0	1	0	1	0	32.2285992424558	0
2.18	32.2095635114349	0	1	0	1	0	32.2095635114349	0
2.19	32.1918076353666	0	1	0	1	0	32.1918076353666	0
2.2	32.1753192120746	0	1	0	1	0	32.1753192120746	0
2.21	32.1600860638567	0	1	0	1	0	32.1600860638567	0
2.22	32.1460962324286	0	1	0	1	0	32.1460962324286	0
2.23	32.1333379740043	0	1	0	1	0	32.1333379740043	0
2.24	32.1217997545085	0	1	0	1	0	32.1217997545085	0
2.25	32.1114702449159	0	1	0	1	0	32.1114702449159	0
2.26	32.102338316715	0	1	0	1	0	32.102338316715	0
2.27	32.0943930374914	0	1	0	1	0	32.0943930374914	0
2.28	32.0876236666276	0	1	0	1	0	32.0876236666276	0
2.29	32.0820196511149	0	1	0	1	0	32.0820196511149	0
2.3	32.0775706214754	0	1	0	1	0	32.0775706214754	0
2.31	32.074266387789	0	1	0	1	0	32.074266387789	0
2.32	32.0720969358242	0	1	0	1	0	32.0720969358242	0
2.33	32.0710524232673	0	1	0	1	0	32.0710524232673	0
2.34	32.0711231760496	0	1	0	1	0	32.0711231760496	0
2.35	32.0722996847672	0	1	0	1	0	32.0722996847672	0
2.36	32.0745726011926	0	1	0	1	0	32.0745726011926	0
2.37	32.0779327348742	0	1	0	1	0	32.0779327348742	0
2.38	32.0823710498219	0	1	0	1	0	32.0823710498219	0
2.39	32.0878786612755	0	1	0	1	0	32.0878786612755	0
2.4	32.0944468325542	0	1	0	1	0	32.0944468325542	0
2.41	32.1020669719843	0	1	0	1	0	32.1020669719843	0
2.42	32.1107306299031	0	1	0	1	0	32.1107306299031	0
2.43	32.1204294957373	0	1	0	1	0	32.1204294957373	0
2.44	32.1311553951522	0	1	0	1	0	32.1311553951522	0
2.45	32.1429002872718	0	1	0	1	0	32.1429002872718	0
2.46	32.155656261966	0	1	0	1	0	32.155656261966	0
2.47	32.1694155372041	0	1	0	1	0	32.1694155372041	0
2.48	32.1841704564718	0	1	0	1	0	32.1841704564718	0
2.49	32.1999134862511	0	1	0	1	0	32.1999134862511	0
2.5	32.2166372135604	0	1	0	1	0	32.2166372135604	0
2.51	32.2343343435531	0	1	0	1	0	32.2343343435531	0
2.52	32.2529976971739	0	1	0	1	0	32.2529976971739	0
2.53	32.2726202088704	0	1	0	1	0	32.2726202088704	0
2.54	32.2931949243587	0	1	0	1	0	32.2931949243587	0
2.55	32.3147149984416	0	1	0	1	0	32.3147149984416	0
2.56	32.3371736928782	0	1	0	1	0	32.3371736928782	0
2.57	32.3605643743031	0	1	0	1	0	32.3605643743031	0
2.58	32.3848805121934	0	1	0	1	0	32.3848805121934	0
2.59	32.410115676884	0	1	0	1	0	32.410115676884	0
2.6	32.4362635376277	0	1	0	1	0	32.4362635376277	0
2.61	32.4633178607002	0	1	0	1	0	32.4633178607002	0
2.62	32.4912725075484	0	1	0	1	0	32.4912725075484	0
2.63	32.5201214329814	0	1	0	1	0	32.5201214329814	0
2.64	32.5498586834022	0	1	0	1	0	32.5498586834022	0
2.65	32.5804783950792	0	1	0	1	0	32.5804783950792	0
2.66	32.6119747924573	0	1	0	1	0	32.6119747924573	0
2.67	32.6443421865066	0	1	0	1	0	32.6443421865066	0
2.68	32.677574973108	0	1	0	1	0	32.677574973108	0
2.69	32.7116676314752	0	1	0	1	0	32.7116676314752	0
2.7	32.7466147226112	0	1	0	1	0	32.7466147226112	0
2.71	32.7824108877993	0	1	0	1	0	32.7824108877993	0
2.72	32.8190508471277	0	1	0	1	0	32.8190508471277	0
2.73	32.8565293980458	0	1	0	1	0	32.8565293980458	0
2.74	32.8948414139526	0	1	0	1	0	32.8948414139526	0
2.75	32.9339818428159	0	1	0	1	0	32.9339818428159	0
2.76	32.9739457058215	0	1	0	1	0	32.9739457058215	0
2.77	33.0147280960511	0	1	0	1	0	33.0147280960511	0
2.78	33.05632417719	0	1	0	1	0	33.05632417719	0
2.79	33.0987291822608	0	1	0	1	0	33.0987291822608	0
2.8	33.1419384123862	0	1	0	1	0	33.1419384123862	0
2.81	33.1859472355768	0	1	0	1	0	33.1859472355768	0
2.82	33.2307510855448	0	1	0	1	0	33.2307510855448	0
2.83	33.2763454605441	0	1	0	1	0	33.2763454605441	0
2.84	33.3227259222331	0	1	0	1	0	33.3227259222331	0
2.85	33.3698880945629	0	1	0	1	0	33.3698880945629	0
2.86	33.4178276626878	0	1	0	1	0	33.4178276626878	0
2.87	33.4665403718998	0	1	0	1	0	33.4665403718998	0
2.88	33.5160220265837	0	1	0	1	0	33.5160220265837	0
2.89	33.5662684891952	0	1	0	1	0	33.5662684891952	0
2.9	33.6172756792595	0	1	0	1	0	33.6172756792595	0
2.91	33.6690395723909	0	1	0	1	0	33.6690395723909	0
2.92	33.7215561993324	0	1	0	1	0	33.7215561993324	0
2.93	33.7748216450145	0	1	0	1	0	33.7748216450145	0
2.94	33.8288320476341	0	1	0	1	0	33.8288320476341	0
2.95	33.8835835977517	0	1	0	1	0	33.8835835977517	0
2.96	33.9390725374063	0	1	0	1	0	33.9390725374063	0
2.97	33.9952951592497	0	1	0	1	0	33.9952951592497	0
2.98	34.0522478056962	0	1	0	1	0	34.0522478056962	0
2.99	34.1099268680916	0	1	0	1	0	34.1099268680916	0
3	34.1683287858965	0	1	0	1	0	34.1683287858965	0
3.01	34.2274500458881	0	1	0	1	0	34.2274500458881	0
3.02	34.2872871813762	0	1	0	1	0	34.2872871813762	0
3.03	34.3478367714353	0	1	0	1	0	34.3478367714353	0
3.04	34.4090954401524	0	1	0	1	0	34.4090954401524	0
3.05	34.4710598558885	0	1	0	1	0	34.4710598558885	0
3.06	34.5337267305556	0	1	0	1	0	34.5337267305556	0
3.07	34.5970928189072	0	1	0	1	0	34.5970928189072	0
3.08	34.6611549178428	0	1	0	1	0	34.6611549178428	0
3.09	34.7259098657261	0	1	0	1	0	34.7259098657261	0
3.1	34.7913545417159	0	1	0	1	0	34.7913545417159	0
3.11	34.8574858651107	0	1	0	1	0	34.8574858651107	0
3.12	34.9243007947049	0	1	0	1	0	34.9243007947049	0
3.13	34.9917963281585	0	1	0	1	0	34.9917963281585	0
3.14	35.0599695013775	0	1	0	1	0	35.0599695013775	0
3.15	35.1288173879074	0	1	0	1	0	35.1288173879074	0
3.16	35.1983370983373	0	1	0	1	0	35.1983370983373	0
3.17	35.268525779716	0	1	0	1	0	35.268525779716	0
3.18	35.3393806149781	0	1	0	1	0	35.3393806149781	0
3.19	35.4108988223823	0	1	0	1	0	35.4108988223823	0
3.2	35.4830776549587	0	1	0	1	0	35.4830776549587	0
3.21	35.5559143999678	0	1	0	1	0	35.5559143999678	0
3.22	35.6294063783686	0	1	0	1	0	35.6294063783686	0
3.23	35.7035509442972	0	1	0	1	0	35.7035509442972	0
3.24	35.7783454845546	0	1	0	1	0	35.7783454845546	0
3.25	35.8537874181042	0	1	0	1	0	35.8537874181042	0
3.26	35.9298741955787	0	1	0	1	0	35.9298741955787	0
3.27	36.0066032987956	0	1	0	1	0	36.0066032987956	0
3.28	36.0839722402821	0	1	0	1	0	36.0839722402821	0
3.29	36.161978562808	0	1	0	1	0	36.161978562808	0
3.3	36.2406198389278	0	1	0	1	0	36.2406198389278	0
3.31	36.3198936705308	0	1	0	1	0	36.3198936705308	0
3.32	36.3997976883991	0	1	0	1	0	36.3997976883991	0
3.33	36.4803295517739	0	1	0	1	0	36.4803295517739	0
3.34	36.5614869479294	0	1	0	1	0	36.5614869479294	0
3.35	36.6432675917545	0	1	0	1	0	36.6432675917545	0
3.36	36.7256692253418	0	1	0	1	0	36.7256692253418	0
3.37	36.8086896175839	0	1	0	1	0	36.8086896175839	0
3.38	36.8923265637771	0	1	0	1	0	36.8923265637771	0
3.39	36.9765778852319	0	1	0	1	0	36.9765778852319	0
3.4	37.0614414288904	0	1	0	1	0	37.0614414288904	0
3.41	37.1469150669507	0	1	0	1	0	37.1469150669507	0
3.42	37.2329966964972	0	1	0	1	0	37.2329966964972	0
3.43	37.3196842391382	0	1	0	1	0	37.3196842391382	0
3.44	37.4069756406494	0	1	0	1	0	37.4069756406494	0
3.45	37.4948688706237	0	1	0	1	0	37.4948688706237	0
3.46	37.5833619221265	0	1	0	1	0	37.5833619221265	0
3.47	37.6724528113584	0	1	0	1	0	37.6724528113584	0
3.48	37.762139577322	0	1	0	1	0	37.762139577322	0
3.49	37.8524202814955	0	1	0	1	0	37.8524202814955	0
3.5	37.9432930075118	0	1	0	1	0	37.9432930075118	0
3.51	38.0347558608426	0	1	0	1	0	38.0347558608426	0
3.52	38.1268069684883	0	1	0	1	0	38.1268069684883	0
3.53	38.2194444786734	0	1	0	1	0	38.2194444786734	0
3.54	38.3126665605459	0	1	0	1	0	38.3126665605459	0
3.55	38.4064714038837	0	1	0	1	0	38.4064714038837	0
3.56	38.5008572188037	0	1	0	1	0	38.5008572188037	0
3.57	38.595822235478	0	1	0	1	0	38.595822235478	0
3.58	38.6913647038531	0	1	0	1	0	38.6913647038531	0
3.59	38.7874828933746	0	1	0	1	0	38.7874828933746	0
3.6	38.8841750927166	0	1	0	1	0	38.8841750927166	0
3.61	38.9814396095153	0	1	0	1	0	38.9814396095153	0
3.62	39.079274770107	0	1	0	1	0	39.079274770107	0
3.63	39.1776789192707	0	1	0	1	0	39.1776789192707	0
3.64	39.2766504199743	0	1	0	1	0	39.2766504199743	0
3.65	39.3761876531261	0	1	0	1	0	39.3761876531261	0
3.66	39.4762890173293	0	1	0	1	0	39.4762890173293	0
3.67	39.576952928641	0	1	0	1	0	39.576952928641	0
3.68	39.6781778203351	0	1	0	1	0	39.6781778203351	0
3.69	39.7799621426689	0	1	0	1	0	39.7799621426689	0
3.7	39.8823043626539	0	1	0	1	0	39.8823043626539	0
3.71	39.9852029638293	0	1	0	1	0	39.9852029638293	0
3.72	40.088656446041	0	1	0	1	0	40.088656446041	0
3.73	40.1926633252217	0	1	0	1	0	40.1926633252217	0
3.74	40.2972221331769	0	1	0	1	0	40.2972221331769	0
3.75	40.4023314173727	0	1	0	1	0	40.4023314173727	0
3.76	40.5079897407277	0	1	0	1	0	40.5079897407277	0
3.77	40.6141956814079	0	1	0	1	0	40.6141956814079	0
3.78	40.7209478326255	0	1	0	1	0	40.7209478326255	0
3.79	40.8282448024398	0	1	0	1	0	40.8282448024398	0
3.8	40.9360852135622	0	1	0	1	0	40.9360852135622	0
3.81	41.0444677031637	0	1	0	1	0	41.0444677031637	0
3.82	41.1533909226859	0	1	0	1	0	41.1533909226859	0
3.83	41.2628535376545	0	1	0	1	0	41.2628535376545	0
3.84	41.3728542274961	0	1	0	1	0	41.3728542274961	0
3.85	41.4833916853573	0	1	0	1	0	41.4833916853573	0
3.86	41.5944646179275	0	1	0	1	0	41.5944646179275	0
3.87	41.7060717452634	0	1	0	1	0	41.7060717452634	0
3.88	41.8182118006171	0	1	0	1	0	41.8182118006171	0
3.89	41.9308835302665	0	1	0	1	0	41.9308835302665	0
3.9	42.0440856933479	0	1	0	1	0	42.0440856933479	0
3.91	42.1578170616922	0	1	0	1	0	42.1578170616922	0
3.92	42.2720764196624	0	1	0	1	0	42.2720764196624	0
3.93	42.3868625639945	0	1	0	1	0	42.3868625639945	0
3.94	42.5021743036403	0	1	0	1	0	42.5021743036403	0
3.95	42.6180104596129	0	1	0	1	0	42.6180104596129	0
3.96	42.7343698648343	0	1	0	1	0	42.7343698648343	0
3.97	42.8512513639857	0	1	0	1	0	42.8512513639857	0
3.98	42.9686538133591	0	1	0	1	0	42.9686538133591	0
3.99	43.0865760807128	0	1	0	1	0	43.0865760807128	0
4	43.205017045127	0	1	0	1	0	43.205017045127	0
4.01	43.3239755968635	0	1	0	1	0	43.3239755968635	0
4.02	43.4434506372261	0	1	0	1	0	43.4434506372261	0
4.03	43.5634410784239	0	1	0	1	0	43.5634410784239	0
4.04	43.683945843436	0	1	0	1	0	43.683945843436	0
4.05	43.8049638658789	0	1	0	1	0	43.8049638658789	0
4.06	43.9264940898753	0	1	0	1	0	43.9264940898753	0
4.07	44.0485354699252	0	1	0	1	0	44.0485354699252	0
4.08	44.1710869707783	0	1	0	1	0	44.1710869707783	0
4.09	44.2941475673094	0	1	0	1	0	44.2941475673094	0
4.1	44.4177162443941	0	1	0	1	0	44.4177162443941	0
4.11	44.5417919967879	0	1	0	1	0	44.5417919967879	0
4.12	44.6663738290057	0	1	0	1	0	44.6663738290057	0
4.13	44.791460755204	0	1	0	1	0	44.791460755204	0
4.14	44.9170517990645	0	1	0	1	0	44.9170517990645	0
4.15	45.043145993679	0	1	0	1	0	45.043145993679	0
4.16	45.1697423814366	0	1	0	1	0	45.1697423814366	0
4.17	45.296840013912	0	1	0	1	0	45.296840013912	0
4.18	45.4244379517559	0	1	0	1	0	45.4244379517559	0
4.19	45.5525352645865	0	1	0	1	0	45.5525352645865	0
4.2	45.6811310308825	0	1	0	1	0	45.6811310308825	0
4.21	45.8102243378787	0	1	0	1	0	45.8102243378787	0
4.22	45.9398142814611	0	1	0	1	0	45.9398142814611	0
4.23	46.0698999660657	0	1	0	1	0	46.0698999660657	0
4.24	46.200480504577	0	1	0	1	0	46.200480504577	0
4.25	46.3315550182289	0	1	0	1	0	46.3315550182289	0
4.26	46.4631226365065	0	1	0	1	0	46.4631226365065	0
4.27	46.5951824970497	0	1	0	1	0	46.5951824970497	0
4.28	46.727733745558	0	1	0	1	0	46.727733745558	0
4.29	46.860775535696	0	1	0	1	0	46.860775535696	0
4.3	46.9943070290017	0	1	0	1	0	46.9943070290017	0
4.31	47.1283273947941	0	1	0	1	0	47.1283273947941	0
4.32	47.2628358100841	0	1	0	1	0	47.2628358100841	0
4.33	47.3978314594852	0	1	0	1	0	47.3978314594852	0
4.34	47.5333135351259	0	1	0	1	0	47.5333135351259	0
4.35	47.6692812365633	0	1	0	1	0	47.6692812365633	0
4.36	47.8057337706983	0	1	0	1	0	47.8057337706983	0
4.37	47.942670351691	0	1	0	1	0	47.942670351691	0
4.38	48.0800902008784	0	1	0	1	0	48.0800902008784	0
4.39	48.2179925466921	0	1	0	1	0	48.2179925466921	0
4.4	48.3563766245781	0	1	0	1	0	48.3563766245781	0
4.41	48.4952416769171	0	1	0	1	0	48.4952416769171	0
4.42	48.6345869529462	0	1	0	1	0	48.6345869529462	0
4.43	48.7744117086812	0	1	0	1	0	48.7744117086812	0
4.44	48.9147152068406	0	1	0	1	0	48.9147152068406	0
4.45	49.0554967167701	0	1	0	1	0	49.0554967167701	0
4.46	49.1967555143684	0	1	0	1	0	49.1967555143684	0
4.47	49.3384908820138	0	1	0	1	0	49.3384908820138	0
4.48	49.4807021084918	0	1	0	1	0	49.4807021084918	0
4.49	49.6233884889242	0	1	0	1	0	49.6233884889242	0
4.5	49.7665493246983	0	1	0	1	0	49.7665493246983	0
4.51	49.9101839233972	0	1	0	1	0	49.9101839233972	0
4.52	50.054291598732	0	1	0	1	0	50.054291598732	0
4.53	50.1988716704735	0	1	0	1	0	50.1988716704735	0
4.54	50.3439234643858	0	1	0	1	0	50.3439234643858	0
4.55	50.4894463121603	0	1	0	1	0	50.4894463121603	0
4.56	50.6354395513509	0	1	0	1	0	50.6354395513509	0
4.57	50.7819025253094	0	1	0	1	0	50.7819025253094	0
4.58	50.9288345831229	0	1	0	1	0	50.9288345831229	0
4.59	51.0762350795507	0	1	0	1	0	51.0762350795507	0
4.6	51.224103374963	0	1	0	1	0	51.224103374963	0
4.61	51.3724388352797	0	1	0	1	0	51.3724388352797	0
4.62	51.521240831911	0	1	0	1	0	51.521240831911	0
4.63	51.6705087416973	0	1	0	1	0	51.6705087416973	0
4.64	51.8202419468513	0	1	0	1	0	51.8202419468513	0
4.65	51.9704398348997	0	1	0	1	0	51.9704398348997	0
4.66	52.1211017986269	0	1	0	1	0	52.1211017986269	0
4.67	52.272227236018	0	1	0	1	0	52.272227236018	0
4.68	52.4238155502035	0	1	0	1	0	52.4238155502035	0
4.69	52.5758661494047	0	1	0	1	0	52.5758661494047	0
4.7	52.7283784468792	0	1	0	1	0	52.7283784468792	0
4.71	52.8813518608675	0	1	0	1	0	52.8813518608675	0
4.72	53.0347858145402	0	1	0	1	0	53.0347858145402	0
4.73	53.1886797359462	0	1	0	1	0	53.1886797359462	0
4.74	53.3430330579607	0	1	0	1	0	53.3430330579607	0
4.75	53.497845218235	0	1	0	1	0	53.497845218235	0
4.76	53.6531156591457	0	1	0	1	0	53.6531156591457	0
4.77	53.8088438277458	0	1	0	1	0	53.8088438277458	0
4.78	53.9650291757151	0	1	0	1	0	53.9650291757151	0
4.79	54.1216711593127	0	1	0	1	0	54.1216711593127	0
4.8	54.2787692393285	0	1	0	1	0	54.2787692393285	0
4.81	54.4363228810366	0	1	0	1	0	54.4363228810366	0
4.82	54.5943315541489	0	1	0	1	0	54.5943315541489	0
4.83	54.7527947327685	0	1	0	1	0	54.7527947327685	0
4.84	54.9117118953451	0	1	0	1	0	54.9117118953451	0
4.85	55.0710825246297	0	1	0	1	0	55.0710825246297	0
4.86	55.2309061076304	0	1	0	1	0	55.2309061076304	0
4.87	55.391182135569	0	1	0	1	0	55.391182135569	0
4.88	55.5519101038375	0	1	0	1	0	55.5519101038375	0
4.89	55.7130895119555	0	1	0	1	0	55.7130895119555	0
4.9	55.8747198635283	0	1	0	1	0	55.8747198635283	0
4.91	56.0368006662051	0	1	0	1	0	56.0368006662051	0
4.92	56.1993314316379	0	1	0	1	0	56.1993314316379	0
4.93	56.362311675441	0	1	0	1	0	56.362311675441	0
