# GHZ S RI R 50
1	63.386631587108	0	1	0	1	0	63.386631587108	0
1.01	62.8648778583779	0	1	0	1	0	62.8648778583779	0
1.02	62.3547336709503	0	1	0	1	0	62.3547336709503	0
1.03	61.8558744044985	0	1	0	1	0	61.8558744044985	0
1.04	61.3679879240929	0	1	0	1	0	61.3679879240929	0
1.05	60.8907739856584	0	1	0	1	0	60.8907739856584	0
1.06	60.423943675085	0	1	0	1	0	60.423943675085	0
1.07	59.9672188787901	0	1	0	1	0	59.9672188787901	0
1.08	59.5203317836942	0	1	0	1	0	59.5203317836942	0
1.09	59.0830244047209	0	1	0	1	0	59.0830244047209	0
1.1	58.6550481380689	0	1	0	1	0	58.6550481380689	0
1.11	58.2361633386329	0	1	0	1	0	58.2361633386329	0
1.12	57.826138920061	0	1	0	1	0	57.826138920061	0
1.13	57.4247519760494	0	1	0	1	0	57.4247519760494	0
1.14	57.031787421568	0	1	0	1	0	57.031787421568	0
1.15	56.6470376528051	0	1	0	1	0	56.6470376528051	0
1.16	56.2703022247012	0	1	0	1	0	56.2703022247012	0
1.17	55.9013875450193	0	1	0	1	0	55.9013875450193	0
1.18	55.5401065839712	0	1	0	1	0	55.5401065839712	0
1.19	55.1862785984842	0	1	0	1	0	55.1862785984842	0
1.2	54.8397288702547	0	1	0	1	0	54.8397288702547	0
1.21	54.5002884567908	0	1	0	1	0	54.5002884567908	0
1.22	54.1677939546987	0	1	0	1	0	54.1677939546987	0
1.23	53.842087274516	0	1	0	1	0	53.842087274516	0
1.24	53.5230154264405	0	1	0	1	0	53.5230154264405	0
1.25	53.2104303163438	0	1	0	1	0	53.2104303163438	0
1.26	52.904188551498	0	1	0	1	0	52.904188551498	0
1.27	52.604151255482	0	1	0	1	0	52.604151255482	0
1.28	52.3101838917626	0	1	0	1	0	52.3101838917626	0
1.29	52.0221560954822	0	1	0	1	0	52.0221560954822	0
1.3	51.7399415130094	0	1	0	1	0	51.7399415130094	0
1.31	51.4634176488393	0	1	0	1	0	51.4634176488393	0
1.32	51.1924657194516	0	1	0	1	0	51.1924657194516	0
1.33	50.9269705137629	0	1	0	1	0	50.9269705137629	0
1.34	50.6668202598266	0	1	0	1	0	50.6668202598266	0
1.35	50.4119064974576	0	1	0	1	0	50.4119064974576	0
1.36	50.1621239564759	0	1	0	1	0	50.1621239564759	0
1.37	49.9173704402837	0	1	0	1	0	49.9173704402837	0
1.38	49.6775467145034	0	1	0	1	0	49.6775467145034	0
1.39	49.4425564004229	0	1	0	1	0	49.4425564004229	0
1.4	49.2123058730074	0	1	0	1	0	49.2123058730074	0
1.41	48.9867041632518	0	1	0	1	0	48.9867041632518	0
1.42	48.7656628646579	0	1	0	1	0	48.7656628646579	0
1.43	48.5490960436368	0	1	0	1	0	48.5490960436368	0
1.44	48.3369201536434	0	1	0	1	0	48.3369201536434	0
1.45	48.1290539528652	0	1	0	1	0	48.1290539528652	0
1.46	47.9254184252927	0	1	0	1	0	47.9254184252927	0
1.47	47.7259367050117	0	1	0	1	0	47.7259367050117	0
1.48	47.5305340035653	0	1	0	1	0	47.5305340035653	0
1.49	47.3391375402405	0	1	0	1	0	47.3391375402405	0
1.5	47.1516764751431	0	1	0	1	0	47.1516764751431	0
1.51	46.9680818449326	0	1	0	1	0	46.9680818449326	0
1.52	46.7882865010932	0	1	0	1	0	46.7882865010932	0
1.53	46.6122250506256	0	1	0	1	0	46.6122250506256	0
1.54	46.4398337990503	0	1	0	1	0	46.4398337990503	0
1.55	46.2710506956162	0	1	0	1	0	46.2710506956162	0
1.56	46.1058152806169	0	1	0	1	0	46.1058152806169	0
1.57	45.9440686347211	0	1	0	1	0	45.9440686347211	0
1.58	45.7857533302257	0	1	0	1	0	45.7857533302257	0
1.59	45.6308133841499	0	1	0	1	0	45.6308133841499	0
1.6	45.4791942130875	0	1	0	1	0	45.4791942130875	0
1.61	45.3308425897416	0	1	0	1	0	45.3308425897416	0
1.62	45.1857066010697	0	1	0	1	0	45.1857066010697	0
1.63	45.0437356079688	0	1	0	1	0	45.0437356079688	0
1.64	44.9048802064362	0	1	0	1	0	44.9048802064362	0
1.65	44.7690921901417	0	1	0	1	0	44.7690921901417	0
1.66	44.6363245143538	0	1	0	1	0	44.6363245143538	0
1.67	44.5065312611607	0	1	0	1	0	44.5065312611607	0
1.68	44.3796676059341	0	1	0	1	0	44.3796676059341	0
1.69	44.2556897849838	0	1	0	1	0	44.2556897849838	0
1.7	44.1345550643535	0	1	0	1	0	44.1345550643535	0
1.71	44.0162217097116	0	1	0	1	0	44.0162217097116	0
1.72	43.9006489572923	0	1	0	1	0	43.9006489572923	0
1.73	43.7877969858446	0	1	0	1	0	43.7877969858446	0
1.74	43.6776268895487	0	1	0	1	0	43.6776268895487	0
1.75	43.5701006518604	0	1	0	1	0	43.5701006518604	0
1.76	43.4651811202482	0	1	0	1	0	43.4651811202482	0
1.77	43.3628319817856	0	1	0	1	0	43.3628319817856	0
1.78	43.2630177395671	0	1	0	1	0	43.2630177395671	0
1.79	43.1657036899139	0	1	0	1	0	43.1657036899139	0
1.8	43.0708559003402	0	1	0	1	0	43.0708559003402	0
1.81	42.9784411882495	0	1	0	1	0	42.9784411882495	0
1.82	42.888427100333	0	1	0	1	0	42.888427100333	0
1.83	42.8007818926438	0	1	0	1	0	42.8007818926438	0
1.84	42.7154745113209	0	1	0	1	0	42.7154745113209	0
1.85	42.6324745739381	0	1	0	1	0	42.6324745739381	0
1.86	42.5517523514546	0	1	0	1	0	42.5517523514546	0
1.87	42.4732787507452	0	1	0	1	0	42.4732787507452	0
1.88	42.3970252976871	0	1	0	1	0	42.3970252976871	0
1.89	42.3229641207845	0	1	0	1	0	42.3229641207845	0
1.9	42.25106793531	0	1	0	1	0	42.25106793531	0
1.91	42.181310027944	0	1	0	1	0	42.181310027944	0
1.92	42.1136642418945	0	1	0	1	0	42.1136642418945	0
1.93	42.0481049624791	0	1	0	1	0	42.0481049624791	0
1.94	41.9846071031532	0	1	0	1	0	41.9846071031532	0
1.95	41.923146091968	0	1	0	1	0	41.923146091968	0
1.96	41.8636978584431	0	1	0	1	0	41.8636978584431	0
1.97	41.8062388208386	0	1	0	1	0	41.8062388208386	0
1.98	41.7507458738137	0	1	0	1	0	41.7507458738137	0
1.99	41.6971963764563	0	1	0	1	0	41.6971963764563	0
2	41.6455681406728	0	1	0	1	0	41.6455681406728	0
2.01	41.5958394199233	0	1	0	1	0	41.5958394199233	0
2.02	41.5479888982929	0	1	0	1	0	41.5479888982929	0
2.03	41.5019956798845	0	1	0	1	0	41.5019956798845	0
2.04	41.4578392785244	0	1	0	1	0	41.4578392785244	0
2.05	41.4154996077693	0	1	0	1	0	41.4154996077693	0
2.06	41.3749569712038	0	1	0	1	0	41.3749569712038	0
2.07	41.3361920530197	0	1	0	1	0	41.3361920530197	0
2.08	41.2991859088664	0	1	0	1	0	41.2991859088664	0
2.09	41.2639199569649	0	1	0	1	0	41.2639199569649	0
2.1	41.2303759694746	0	1	0	1	0	41.2303759694746	0
2.11	41.1985360641065	0	1	0	1	0	41.1985360641065	0
2.12	41.1683826959733	0	1	0	1	0	41.1683826959733	0
2.13	41.1398986496692	0	1	0	1	0	41.1398986496692	0
2.14	41.1130670315714	0	1	0	1	0	41.1130670315714	0
2.15	41.0878712623574	0	1	0	1	0	41.0878712623574	0
2.16	41.0642950697291	0	1	0	1	0	41.0642950697291	0
2.17	41.0423224813384	0	1	0	1	0	41.0423224813384	0
2.18	41.021937817908	0	1	0	1	0	41.021937817908	0
2.19	41.0031256865402	0	1	0	1	0	41.0031256865402	0
2.2	40.9858709742078	0	1	0	1	0	40.9858709742078	0
2.21	40.9701588414228	0	1	0	1	0	40.9701588414228	0
2.22	40.9559747160755	0	1	0	1	0	40.9559747160755	0
2.23	40.943304287439	0	1	0	1	0	40.943304287439	0
2.24	40.9321335003353	0	1	0	1	0	40.9321335003353	0
2.25	40.9224485494563	0	1	0	1	0	40.9224485494563	0
2.26	40.9142358738354	0	1	0	1	0	40.9142358738354	0
2.27	40.9074821514659	0	1	0	1	0	40.9074821514659	0
2.28	40.9021742940606	0	1	0	1	0	40.9021742940606	0
2.29	40.8982994419484	0	1	0	1	0	40.8982994419484	0
2.3	40.8958449591051	0	1	0	1	0	40.8958449591051	0
2.31	40.8947984283116	0	1	0	1	0	40.8947984283116	0
2.32	40.8951476464391	0	1	0	1	0	40.8951476464391	0
2.33	40.8968806198546	0	1	0	1	0	40.8968806198546	0
2.34	40.8999855599442	0	1	0	1	0	40.8999855599442	0
2.35	40.9044508787516	0	1	0	1	0	40.9044508787516	0
2.36	40.9102651847263	0	1	0	1	0	40.9102651847263	0
2.37	40.9174172785803	0	1	0	1	0	40.9174172785803	0
2.38	40.9258961492489	0	1	0	1	0	40.9258961492489	0
2.39	40.9356909699532	0	1	0	1	0	40.9356909699532	0
2.4	40.9467910943604	0	1	0	1	0	40.9467910943604	0
2.41	40.9591860528404	0	1	0	1	0	40.9591860528404	0
2.42	40.9728655488147	0	1	0	1	0	40.9728655488147	0
2.43	40.9878194551961	0	1	0	1	0	40.9878194551961	0
2.44	41.004037810915	0	1	0	1	0	41.004037810915	0
2.45	41.0215108175315	0	1	0	1	0	41.0215108175315	0
2.46	41.04022883593	0	1	0	1	0	41.04022883593	0
2.47	41.060182383094	0	1	0	1	0	41.060182383094	0
2.48	41.0813621289587	0	1	0	1	0	41.0813621289587	0
2.49	41.10375889334	0	1	0	1	0	41.10375889334	0
2.5	41.1273636429368	0	1	0	1	0	41.1273636429368	0
2.51	41.1521674884047	0	1	0	1	0	41.1521674884047	0
2.52	41.1781616815004	0	1	0	1	0	41.1781616815004	0
2.53	41.2053376122924	0	1	0	1	0	41.2053376122924	0
2.54	41.2336868064389	0	1	0	1	0	41.2336868064389	0
2.55	41.2632009225289	0	1	0	1	0	41.2632009225289	0
2.56	41.2938717494859	0	1	0	1	0	41.2938717494859	0
2.57	41.3256912040322	0	1	0	1	0	41.3256912040322	0
2.58	41.3586513282123	0	1	0	1	0	41.3586513282123	0
2.59	41.3927442869737	0	1	0	1	0	41.3927442869737	0
2.6	41.4279623658027	0	1	0	1	0	41.4279623658027	0
2.61	41.4642979684161	0	1	0	1	0	41.4642979684161	0
2.62	41.5017436145044	0	1	0	1	0	41.5017436145044	0
2.63	41.540291937527	0	1	0	1	0	41.540291937527	0
2.64	41.5799356825574	0	1	0	1	0	41.5799356825574	0
2.65	41.6206677041778	0	1	0	1	0	41.6206677041778	0
2.66	41.6624809644199	0	1	0	1	0	41.6624809644199	0
2.67	41.7053685307535	0	1	0	1	0	41.7053685307535	0
2.68	41.7493235741188	0	1	0	1	0	41.7493235741188	0
2.69	41.7943393670032	0	1	0	1	0	41.7943393670032	0
2.7	41.8404092815612	0	1	0	1	0	41.8404092815612	0
2.71	41.8875267877753	0	1	0	1	0	41.8875267877753	0
2.72	41.9356854516574	0	1	0	1	0	41.9356854516574	0
2.73	41.9848789334906	0	1	0	1	0	41.9848789334906	0
2.74	42.0351009861084	0	1	0	1	0	42.0351009861084	0
2.75	42.0863454532123	0	1	0	1	0	42.0863454532123	0
2.76	42.1386062677254	0	1	0	1	0	42.1386062677254	0
2.77	42.1918774501821	0	1	0	1	0	42.1918774501821	0
2.78	42.2461531071523	0	1	0	1	0	42.2461531071523	0
2.79	42.3014274296995	0	1	0	1	0	42.3014274296995	0
2.8	42.3576946918718	0	1	0	1	0	42.3576946918718	0
2.81	42.414949249226	0	1	0	1	0	42.414949249226	0
2.82	42.4731855373813	0	1	0	1	0	42.4731855373813	0
2.83	42.532398070606	0	1	0	1	0	42.532398070606	0
2.84	42.5925814404318	0	1	0	1	0	42.5925814404318	0
2.85	42.6537303142988	0	1	0	1	0	42.6537303142988	0
2.86	42.7158394342286	0	1	0	1	0	42.7158394342286	0
2.87	42.7789036155244	0	1	0	1	0	42.7789036155244	0
2.88	42.8429177454994	0	1	0	1	0	42.8429177454994	0
2.89	42.9078767822303	0	1	0	1	0	42.9078767822303	0
2.9	42.9737757533378	0	1	0	1	0	42.9737757533378	0
2.91	43.0406097547914	0	1	0	1	0	43.0406097547914	0
2.92	43.1083739497391	0	1	0	1	0	43.1083739497391	0
2.93	43.1770635673609	0	1	0	1	0	43.1770635673609	0
2.94	43.2466739017462	0	1	0	1	0	43.2466739017462	0
2.95	43.317200310793	0	1	0	1	0	43.317200310793	0
2.96	43.3886382151306	0	1	0	1	0	43.3886382151306	0
2.97	43.4609830970635	0	1	0	1	0	43.4609830970635	0
2.98	43.534230499536	0	1	0	1	0	43.534230499536	0
2.99	43.6083760251188	0	1	0	1	0	43.6083760251188	0
3	43.683415335015	0	1	0	1	0	43.683415335015	0
3.01	43.7593441480862	0	1	0	1	0	43.7593441480862	0
3.02	43.8361582398976	0	1	0	1	0	43.8361582398976	0
3.03	43.9138534417827	0	1	0	1	0	43.9138534417827	0
3.04	43.9924256399258	0	1	0	1	0	43.9924256399258	0
3.05	44.0718707744628	0	1	0	1	0	44.0718707744628	0
3.06	44.1521848385999	0	1	0	1	0	44.1521848385999	0
3.07	44.233363877749	0	1	0	1	0	44.233363877749	0
3.08	44.3154039886802	0	1	0	1	0	44.3154039886802	0
3.09	44.3983013186911	0	1	0	1	0	44.3983013186911	0
3.1	44.4820520647912	0	1	0	1	0	44.4820520647912	0
3.11	44.5666524729034	0	1	0	1	0	44.5666524729034	0
3.12	44.6520988370797	0	1	0	1	0	44.6520988370797	0
3.13	44.7383874987323	0	1	0	1	0	44.7383874987323	0
3.14	44.8255148458798	0	1	0	1	0	44.8255148458798	0
3.15	44.9134773124073	0	1	0	1	0	44.9134773124073	0
3.16	45.0022713773403	0	1	0	1	0	45.0022713773403	0
3.17	45.0918935641333	0	1	0	1	0	45.0918935641333	0
3.18	45.1823404399707	0	1	0	1	0	45.1823404399707	0
3.19	45.2736086150817	0	1	0	1	0	45.2736086150817	0
3.2	45.3656947420678	0	1	0	1	0	45.3656947420678	0
3.21	45.4585955152423	0	1	0	1	0	45.4585955152423	0
3.22	45.5523076699832	0	1	0	1	0	45.5523076699832	0
3.23	45.6468279820971	0	1	0	1	0	45.6468279820971	0
3.24	45.7421532671956	0	1	0	1	0	45.7421532671956	0
3.25	45.8382803800826	0	1	0	1	0	45.8382803800826	0
3.26	45.9352062141536	0	1	0	1	0	45.9352062141536	0
3.27	46.0329277008051	0	1	0	1	0	46.0329277008051	0
3.28	46.1314418088558	0	1	0	1	0	46.1314418088558	0
3.29	46.2307455439775	0	1	0	1	0	46.2307455439775	0
3.3	46.3308359481371	0	1	0	1	0	46.3308359481371	0
3.31	46.431710099048	0	1	0	1	0	46.431710099048	0
3.32	46.5333651096318	0	1	0	1	0	46.5333651096318	0
3.33	46.6357981274898	0	1	0	1	0	46.6357981274898	0
3.34	46.7390063343838	0	1	0	1	0	46.7390063343838	0
3.35	46.8429869457262	0	1	0	1	0	46.8429869457262	0
3.36	46.9477372100792	0	1	0	1	0	46.9477372100792	0
3.37	47.0532544086631	0	1	0	1	0	47.0532544086631	0
3.38	47.1595358548729	0	1	0	1	0	47.1595358548729	0
3.39	47.2665788938041	0	1	0	1	0	47.2665788938041	0
3.4	47.3743809017865	0	1	0	1	0	47.3743809017865	0
3.41	47.4829392859259	0	1	0	1	0	47.4829392859259	0
3.42	47.5922514836544	0	1	0	1	0	47.5922514836544	0
3.43	47.7023149622883	0	1	0	1	0	47.7023149622883	0
3.44	47.8131272185937	0	1	0	1	0	47.8131272185937	0
3.45	47.9246857783596	0	1	0	1	0	47.9246857783596	0
3.46	48.0369881959788	0	1	0	1	0	48.0369881959788	0
3.47	48.1500320540354	0	1	0	1	0	48.1500320540354	0
3.48	48.2638149628998	0	1	0	1	0	48.2638149628998	0
3.49	48.378334560331	0	1	0	1	0	48.378334560331	0
3.5	48.4935885110848	0	1	0	1	0	48.4935885110848	0
3.51	48.6095745065294	0	1	0	1	0	48.6095745065294	0
3.52	48.7262902642678	0	1	0	1	0	48.7262902642678	0
3.53	48.8437335277655	0	1	0	1	0	48.8437335277655	0
3.54	48.9619020659857	0	1	0	1	0	48.9619020659857	0
3.55	49.0807936730301	0	1	0	1	0	49.0807936730301	0
3.56	49.2004061677856	0	1	0	1	0	49.2004061677856	0
3.57	49.3207373935776	0	1	0	1	0	49.3207373935776	0
3.58	49.4417852178283	0	1	0	1	0	49.4417852178283	0
3.59	49.5635475317211	0	1	0	1	0	49.5635475317211	0
3.6	49.6860222498708	0	1	0	1	0	49.6860222498708	0
3.61	49.809207309999	0	1	0	1	0	49.809207309999	0
3.62	49.9331006726148	0	1	0	1	0	49.9331006726148	0
3.63	50.0577003207012	0	1	0	1	0	50.0577003207012	0
3.64	50.183004259406	0	1	0	1	0	50.183004259406	0
3.65	50.3090105157385	0	1	0	1	0	50.3090105157385	0
3.66	50.4357171382709	0	1	0	1	0	50.4357171382709	0
3.67	50.563122196844	0	1	0	1	0	50.563122196844	0
3.68	50.691223782279	0	1	0	1	0	50.691223782279	0
3.69	50.8200200060924	0	1	0	1	0	50.8200200060924	0
3.7	50.9495090002171	0	1	0	1	0	50.9495090002171	0
3.71	51.0796889167267	0	1	0	1	0	51.0796889167267	0
3.72	51.2105579275651	0	1	0	1	0	51.2105579275651	0
3.73	51.3421142242797	0	1	0	1	0	51.3421142242797	0
3.74	51.47435601776	0	1	0	1	0	51.47435601776	0
3.75	51.6072815379793	0	1	0	1	0	51.6072815379793	0
3.76	51.7408890337407	0	1	0	1	0	51.7408890337407	0
3.77	51.875176772428	0	1	0	1	0	51.875176772428	0
3.78	52.0101430397592	0	1	0	1	0	52.0101430397592	0
3.79	52.1457861395453	0	1	0	1	0	52.1457861395453	0
3.8	52.2821043934518	0	1	0	1	0	52.2821043934518	0
3.81	52.4190961407644	0	1	0	1	0	52.4190961407644	0
3.82	52.5567597381587	0	1	0	1	0	52.5567597381587	0
3.83	52.6950935594728	0	1	0	1	0	52.6950935594728	0
3.84	52.8340959954839	0	1	0	1	0	52.8340959954839	0
3.85	52.9737654536887	0	1	0	1	0	52.9737654536887	0
3.86	53.1141003580862	0	1	0	1	0	53.1141003580862	0
3.87	53.2550991489651	0	1	0	1	0	53.2550991489651	0
3.88	53.3967602826933	0	1	0	1	0	53.3967602826933	0
3.89	53.5390822315118	0	1	0	1	0	53.5390822315118	0
3.9	53.6820634833308	0	1	0	1	0	53.6820634833308	0
3.91	53.8257025415294	0	1	0	1	0	53.8257025415294	0
3.92	53.9699979247585	0	1	0	1	0	53.9699979247585	0
3.93	54.1149481667461	0	1	0	1	0	54.1149481667461	0
3.94	54.2605518161065	0	1	0	1	0	54.2605518161065	0
3.95	54.4068074361513	0	1	0	1	0	54.4068074361513	0
3.96	54.5537136047043	0	1	0	1	0	54.5537136047043	0
3.97	54.7012689139184	0	1	0	1	0	54.7012689139184	0
3.98	54.8494719700959	0	1	0	1	0	54.8494719700959	0
3.99	54.9983213935108	0	1	0	1	0	54.9983213935108	0
4	55.1478158182345	0	1	0	1	0	55.1478158182345	0
4.01	55.2979538919635	0	1	0	1	0	55.2979538919635	0
4.02	55.4487342758502	0	1	0	1	0	55.4487342758502	0
4.03	55.6001556443357	0	1	0	1	0	55.6001556443357	0
4.04	55.7522166849855	0	1	0	1	0	55.7522166849855	0
4.05	55.9049160983273	0	1	0	1	0	55.9049160983273	0
4.06	56.0582525976918	0	1	0	1	0	56.0582525976918	0
4.07	56.2122249090547	0	1	0	1	0	56.2122249090547	0
4.08	56.3668317708823	0	1	0	1	0	56.3668317708823	0
4.09	56.5220719339788	0	1	0	1	0	56.5220719339788	0
4.1	56.6779441613354	0	1	0	1	0	56.6779441613354	0
4.11	56.8344472279825	0	1	0	1	0	56.8344472279825	0
4.12	56.9915799208433	0	1	0	1	0	56.9915799208433	0
4.13	57.1493410385901	0	1	0	1	0	57.1493410385901	0
4.14	57.307729391502	0	1	0	1	0	57.307729391502	0
4.15	57.4667438013254	0	1	0	1	0	57.4667438013254	0
4.16	57.6263831011361	0	1	0	1	0	57.6263831011361	0
4.17	57.7866461352034	0	1	0	1	0	57.7866461352034	0
4.18	57.9475317588562	0	1	0	1	0	57.9475317588562	0
4.19	58.109038838351	0	1	0	1	0	58.109038838351	0
4.2	58.2711662507419	0	1	0	1	0	58.2711662507419	0
4.21	58.4339128837524	0	1	0	1	0	58.4339128837524	0
4.22	58.5972776356489	0	1	0	1	0	58.5972776356489	0
4.23	58.7612594151158	0	1	0	1	0	58.7612594151158	0
4.24	58.9258571411332	0	1	0	1	0	58.9258571411332	0
4.25	59.0910697428556	0	1	0	1	0	59.0910697428556	0
4.26	59.2568961594922	0	1	0	1	0	59.2568961594922	0
4.27	59.4233353401893	0	1	0	1	0	59.4233353401893	0
4.28	59.5903862439144	0	1	0	1	0	59.5903862439144	0
4.29	59.7580478393416	0	1	0	1	0	59.7580478393416	0
4.3	59.9263191047386	0	1	0	1	0	59.9263191047386	0
4.31	60.0951990278556	0	1	0	1	0	60.0951990278556	0
4.32	60.2646866058156	0	1	0	1	0	60.2646866058156	0
4.33	60.4347808450059	0	1	0	1	0	60.4347808450059	0
4.34	60.6054807609715	0	1	0	1	0	60.6054807609715	0
4.35	60.77678537831	0	1	0	1	0	60.77678537831	0
4.36	60.9486937305676	0	1	0	1	0	60.9486937305676	0
4.37	61.1212048601367	0	1	0	1	0	61.1212048601367	0
4.38	61.294317818155	0	1	0	1	0	61.294317818155	0
4.39	61.4680316644059	0	1	0	1	0	61.4680316644059	0
4.4	61.6423454672202	0	1	0	1	0	61.6423454672202	0
4.41	61.8172583033792	0	1	0	1	0	61.8172583033792	0
4.42	61.9927692580192	0	1	0	1	0	61.9927692580192	0
4.43	62.168877424537	0	1	0	1	0	62.168877424537	0
4.44	62.3455819044971	0	1	0	1	0	62.3455819044971	0
4.45	62.5228818075397	0	1	0	1	0	62.5228818075397	0
4.46	62.7007762512904	0	1	0	1	0	62.7007762512904	0
4.47	62.8792643612708	0	1	0	1	0	62.8792643612708	0
4.48	63.0583452708102	0	1	0	1	0	63.0583452708102	0
4.49	63.2380181209589	0	1	0	1	0	63.2380181209589	0
4.5	63.4182820604023	0	1	0	1	0	63.4182820604023	0
4.51	63.5991362453763	0	1	0	1	0	63.5991362453763	0
4.52	63.7805798395836	0	1	0	1	0	63.7805798395836	0
4.53	63.9626120141115	0	1	0	1	0	63.9626120141115	0
4.54	64.1452319473506	0	1	0	1	0	64.1452319473506	0
4.55	64.3284388249143	0	1	0	1	0	64.3284388249143	0
4.56	64.5122318395597	0	1	0	1	0	64.5122318395597	0
4.57	64.6966101911098	0	1	0	1	0	64.6966101911098	0
4.58	64.8815730863756	0	1	0	1	0	64.8815730863756	0
4.59	65.0671197390806	0	1	0	1	0	65.0671197390806	0
4.6	65.2532493697858	0	1	0	1	0	65.2532493697858	0
4.61	65.4399612058147	0	1	0	1	0	65.4399612058147	0
4.62	65.627254481181	0	1	0	1	0	65.627254481181	0
4.63	65.8151284365159	0	1	0	1	0	65.8151284365159	0
4.64	66.0035823189968	0	1	0	1	0	66.0035823189968	0
4.65	66.1926153822771	0	1	0	1	0	66.1926153822771	0
4.66	66.3822268864166	0	1	0	1	0	66.3822268864166	0
4.67	66.5724160978129	0	1	0	1	0	66.5724160978129	0
4.68	66.7631822891336	0	1	0	1	0	66.7631822891336	0
4.69	66.9545247392497	0	1	0	1	0	66.9545247392497	0
4.7	67.1464427331695	0	1	0	1	0	67.1464427331695	0
4.71	67.3389355619732	0	1	0	1	0	67.3389355619732	0
4.72	67.5320025227491	0	1	0	1	0	67.5320025227491	0
4.73	67.7256429185294	0	1	0	1	0	67.7256429185294	0
4.74	67.9198560582283	0	1	0	1	0	67.9198560582283	0
4.75	68.1146412565794	0	1	0	1	0	68.1146412565794	0
4.76	68.309997834075	0	1	0	1	0	68.309997834075	0
4.77	68.5059251169054	0	1	0	1	0	68.5059251169054	0
4.78	68.7024224368995	0	1	0	1	0	68.7024224368995	0
4.79	68.8994891314662	0	1	0	1	0	68.8994891314662	0
4.8	69.0971245435356	0	1	0	1	0	69.0971245435356	0
4.81	69.2953280215022	0	1	0	1	0	69.2953280215022	0
4.82	69.494098919168	0	1	0	1	0	69.494098919168	0
4.83	69.6934365956866	0	1	0	1	0	69.6934365956866	0
4.84	69.8933404155078	0	1	0	1	0	69.8933404155078	0
4.85	70.0938097483228	0	1	0	1	0	70.0938097483228	0
4.86	70.294843969011	0	1	0	1	0	70.294843969011	0
4.87	70.496442457586	0	1	0	1	0	70.496442457586	0
4.88	70.6986045991431	0	1	0	1	0	70.6986045991431	0
4.89	70.9013297838079	0	1	0	1	0	70.9013297838079	0
4.9	71.1046174066841	0	1	0	1	0	71.1046174066841	0
4.91	71.3084668678036	0	1	0	1	0	71.3084668678036	0
4.92	71.5128775720761	0	1	0	1	0	71.5128775720761	0
4.93	71.7178489292394	0	1	0	1	0	71.7178489292394	0
