# GHZ S RI R 50
1	51.9837320523018	0	1	0	1	0	51.9837320523018	0
1.01	51.5469793531549	0	1	0	1	0	51.5469793531549	0
1.02	51.1197222678629	0	1	0	1	0	51.1197222678629	0
1.03	50.7016933616681	0	1	0	1	0	50.7016933616681	0
1.04	50.2926354857653	0	1	0	1	0	50.2926354857653	0
1.05	49.892301287494	0	1	0	1	0	49.892301287494	0
1.06	49.5004527482564	0	1	0	1	0	49.5004527482564	0
1.07	49.1168607473464	0	1	0	1	0	49.1168607473464	0
1.08	48.7413046500097	0	1	0	1	0	48.7413046500097	0
1.09	48.3735719181805	0	1	0	1	0	48.3735719181805	0
1.1	48.0134577424497	0	1	0	1	0	48.0134577424497	0
1.11	47.6607646939277	0	1	0	1	0	47.6607646939277	0
1.12	47.3153023947563	0	1	0	1	0	47.3153023947563	0
1.13	46.976887206117	0	1	0	1	0	46.976887206117	0
1.14	46.6453419326582	0	1	0	1	0	46.6453419326582	0
1.15	46.3204955423451	0	1	0	1	0	46.3204955423451	0
1.16	46.0021829007993	0	1	0	1	0	46.0021829007993	0
1.17	45.690244519262	0	1	0	1	0	45.690244519262	0
1.18	45.3845263153732	0	1	0	1	0	45.3845263153732	0
1.19	45.0848793860116	0	1	0	1	0	45.0848793860116	0
1.2	44.7911597914937	0	1	0	1	0	44.7911597914937	0
1.21	44.5032283504722	0	1	0	1	0	44.5032283504722	0
1.22	44.2209504449231	0	1	0	1	0	44.2209504449231	0
1.23	43.9441958346439	0	1	0	1	0	43.9441958346439	0
1.24	43.6728384807293	0	1	0	1	0	43.6728384807293	0
1.25	43.4067563775187	0	1	0	1	0	43.4067563775187	0
1.26	43.1458313925472	0	1	0	1	0	43.1458313925472	0
1.27	42.8899491140575	0	1	0	1	0	42.8899491140575	0
1.28	42.6389987056597	0	1	0	1	0	42.6389987056597	0
1.29	42.392872767751	0	1	0	1	0	42.392872767751	0
1.3	42.1514672053321	0	1	0	1	0	42.1514672053321	0
1.31	41.9146811018766	0	1	0	1	0	41.9146811018766	0
1.32	41.682416598935	0	1	0	1	0	41.682416598935	0
1.33	41.4545787811688	0	1	0	1	0	41.4545787811688	0
1.34	41.2310755665332	0	1	0	1	0	41.2310755665332	0
1.35	41.0118176013405	0	1	0	1	0	41.0118176013405	0
1.36	40.7967181599525	0	1	0	1	0	40.7967181599525	0
1.37	40.5856930488663	0	1	0	1	0	40.5856930488663	0
1.38	40.3786605149706	0	1	0	1	0	40.3786605149706	0
1.39	40.1755411577615	0	1	0	1	0	40.1755411577615	0
1.4	39.976257845321	0	1	0	1	0	39.976257845321	0
1.41	39.7807356338705	0	1	0	1	0	39.7807356338705	0
1.42	39.5889016907239	0	1	0	1	0	39.5889016907239	0
1.43	39.400685220473	0	1	0	1	0	39.400685220473	0
1.44	39.2160173942485	0	1	0	1	0	39.2160173942485	0
1.45	39.0348312819089	0	1	0	1	0	39.0348312819089	0
1.46	38.8570617870149	0	1	0	1	0	38.8570617870149	0
1.47	38.682645584459	0	1	0	1	0	38.682645584459	0
1.48	38.5115210606232	0	1	0	1	0	38.5115210606232	0
1.49	38.3436282559461	0	1	0	1	0	38.3436282559461	0
1.5	38.1789088097882	0	1	0	1	0	38.1789088097882	0
1.51	38.017305907487	0	1	0	1	0	38.017305907487	0
1.52	37.8587642295028	0	1	0	1	0	37.8587642295028	0
1.53	37.7032299025584	0	1	0	1	0	37.7032299025584	0
1.54	37.5506504526825	0	1	0	1	0	37.5506504526825	0
1.55	37.4009747600707	0	1	0	1	0	37.4009747600707	0
1.56	37.2541530156829	0	1	0	1	0	37.2541530156829	0
1.57	37.1101366794991	0	1	0	1	0	37.1101366794991	0
1.58	36.9688784403606	0	1	0	1	0	36.9688784403606	0
1.59	36.8303321773265	0	1	0	1	0	36.8303321773265	0
1.6	36.6944529224794	0	1	0	1	0	36.6944529224794	0
1.61	36.5611968251173	0	1	0	1	0	36.5611968251173	0
1.62	36.4305211172716	0	1	0	1	0	36.4305211172716	0
1.63	36.3023840804942	0	1	0	1	0	36.3023840804942	0
1.64	36.1767450138604	0	1	0	1	0	36.1767450138604	0
1.65	36.0535642031344	0	1	0	1	0	36.0535642031344	0
1.66	35.93280289105	0	1	0	1	0	35.93280289105	0
1.67	35.8144232486588	0	1	0	1	0	35.8144232486588	0
1.68	35.6983883477016	0	1	0	1	0	35.6983883477016	0
1.69	35.5846621339608	0	1	0	1	0	35.5846621339608	0
1.7	35.4732094015533	0	1	0	1	0	35.4732094015533	0
1.71	35.3639957681257	0	1	0	1	0	35.3639957681257	0
1.72	35.2569876509138	0	1	0	1	0	35.2569876509138	0
1.73	35.1521522436338	0	1	0	1	0	35.1521522436338	0
1.74	35.0494574941692	0	1	0	1	0	35.0494574941692	0
1.75	34.9488720830234	0	1	0	1	0	34.9488720830234	0
1.76	34.8503654025066	0	1	0	1	0	34.8503654025066	0
1.77	34.7539075366279	0	1	0	1	0	34.7539075366279	0
1.78	34.6594692416662	0	1	0	1	0	34.6594692416662	0
1.79	34.5670219273912	0	1	0	1	0	34.5670219273912	0
1.8	34.476537638911	0	1	0	1	0	34.476537638911	0
1.81	34.3879890391216	0	1	0	1	0	34.3879890391216	0
1.82	34.3013493917343	0	1	0	1	0	34.3013493917343	0
1.83	34.2165925448601	0	1	0	1	0	34.2165925448601	0
1.84	34.1336929151294	0	1	0	1	0	34.1336929151294	0
1.85	34.0526254723266	0	1	0	1	0	34.0526254723266	0
1.86	33.9733657245203	0	1	0	1	0	33.9733657245203	0
1.87	33.8958897036705	0	1	0	1	0	33.8958897036705	0
1.88	33.8201739516957	0	1	0	1	0	33.8201739516957	0
1.89	33.7461955069817	0	1	0	1	0	33.7461955069817	0
1.9	33.6739318913165	0	1	0	1	0	33.6739318913165	0
1.91	33.6033610972364	0	1	0	1	0	33.6033610972364	0
1.92	33.5344615757661	0	1	0	1	0	33.5344615757661	0
1.93	33.4672122245414	0	1	0	1	0	33.4672122245414	0
1.94	33.4015923762984	0	1	0	1	0	33.4015923762984	0
1.95	33.3375817877171	0	1	0	1	0	33.3375817877171	0
1.96	33.2751606286063	0	1	0	1	0	33.2751606286063	0
1.97	33.2143094714185	0	1	0	1	0	33.2143094714185	0
1.98	33.1550092810817	0	1	0	1	0	33.1550092810817	0
1.99	33.0972414051387	0	1	0	1	0	33.0972414051387	0
2	33.0409875641811	0	1	0	1	0	33.0409875641811	0
2.01	32.9862298425699	0	1	0	1	0	32.9862298425699	0
2.02	32.9329506794316	0	1	0	1	0	32.9329506794316	0
2.03	32.8811328599192	0	1	0	1	0	32.8811328599192	0
2.04	32.8307595067322	0	1	0	1	0	32.8307595067322	0
2.05	32.7818140718829	0	1	0	1	0	32.7818140718829	0
2.06	32.734280328704	0	1	0	1	0	32.734280328704	0
2.07	32.6881423640869	0	1	0	1	0	32.6881423640869	0
2.08	32.6433845709444	0	1	0	1	0	32.6433845709444	0
2.09	32.5999916408894	0	1	0	1	0	32.5999916408894	0
2.1	32.5579485571232	0	1	0	1	0	32.5579485571232	0
2.11	32.5172405875258	0	1	0	1	0	32.5172405875258	0
2.12	32.4778532779415	0	1	0	1	0	32.4778532779415	0
2.13	32.4397724456545	0	1	0	1	0	32.4397724456545	0
2.14	32.4029841730462	0	1	0	1	0	32.4029841730462	0
2.15	32.3674748014306	0	1	0	1	0	32.3674748014306	0
2.16	32.3332309250602	0	1	0	1	0	32.3332309250602	0
2.17	32.3002393852982	0	1	0	1	0	32.3002393852982	0
2.18	32.2684872649506	0	1	0	1	0	32.2684872649506	0
2.19	32.2379618827538	0	1	0	1	0	32.2379618827538	0
2.2	32.2086507880128	0	1	0	1	0	32.2086507880128	0
2.21	32.1805417553844	0	1	0	1	0	32.1805417553844	0
2.22	32.153622779802	0	1	0	1	0	32.153622779802	0
2.23	32.1278820715364	0	1	0	1	0	32.1278820715364	0
2.24	32.1033080513892	0	1	0	1	0	32.1033080513892	0
2.25	32.0798893460146	0	1	0	1	0	32.0798893460146	0
2.26	32.057614783365	0	1	0	1	0	32.057614783365	0
2.27	32.0364733882568	0	1	0	1	0	32.0364733882568	0
2.28	32.0164543780537	0	1	0	1	0	32.0164543780537	0
2.29	31.9975471584624	0	1	0	1	0	31.9975471584624	0
2.3	31.9797413194379	0	1	0	1	0	31.9797413194379	0
2.31	31.9630266311961	0	1	0	1	0	31.9630266311961	0
2.32	31.9473930403284	0	1	0	1	0	31.9473930403284	0
2.33	31.9328306660166	0	1	0	1	0	31.9328306660166	0
2.34	31.9193297963457	0	1	0	1	0	31.9193297963457	0
2.35	31.9068808847098	0	1	0	1	0	31.9068808847098	0
2.36	31.8954745463099	0	1	0	1	0	31.8954745463099	0
2.37	31.8851015547401	0	1	0	1	0	31.8851015547401	0
2.38	31.8757528386603	0	1	0	1	0	31.8757528386603	0
2.39	31.867419478552	0	1	0	1	0	31.867419478552	0
2.4	31.8600927035552	0	1	0	1	0	31.8600927035552	0
2.41	31.8537638883845	0	1	0	1	0	31.8537638883845	0
2.42	31.848424550321	0	1	0	1	0	31.848424550321	0
2.43	31.8440663462792	0	1	0	1	0	31.8440663462792	0
2.44	31.8406810699455	0	1	0	1	0	31.8406810699455	0
2.45	31.8382606489869	0	1	0	1	0	31.8382606489869	0
2.46	31.8367971423277	0	1	0	1	0	31.8367971423277	0
2.47	31.8362827374928	0	1	0	1	0	31.8362827374928	0
2.48	31.8367097480147	0	1	0	1	0	31.8367097480147	0
2.49	31.8380706109034	0	1	0	1	0	31.8380706109034	0
2.5	31.8403578841764	0	1	0	1	0	31.8403578841764	0
2.51	31.843564244449	0	1	0	1	0	31.843564244449	0
2.52	31.8476824845803	0	1	0	1	0	31.8476824845803	0
2.53	31.8527055113766	0	1	0	1	0	31.8527055113766	0
2.54	31.8586263433477	0	1	0	1	0	31.8586263433477	0
2.55	31.8654381085174	0	1	0	1	0	31.8654381085174	0
2.56	31.8731340422837	0	1	0	1	0	31.8731340422837	0
2.57	31.8817074853305	0	1	0	1	0	31.8817074853305	0
2.58	31.8911518815869	0	1	0	1	0	31.8911518815869	0
2.59	31.9014607762339	0	1	0	1	0	31.9014607762339	0
2.6	31.9126278137575	0	1	0	1	0	31.9126278137575	0
2.61	31.9246467360463	0	1	0	1	0	31.9246467360463	0
2.62	31.9375113805326	0	1	0	1	0	31.9375113805326	0
2.63	31.9512156783756	0	1	0	1	0	31.9512156783756	0
2.64	31.9657536526871	0	1	0	1	0	31.9657536526871	0
2.65	31.9811194167959	0	1	0	1	0	31.9811194167959	0
2.66	31.997307172552	0	1	0	1	0	31.997307172552	0
2.67	32.0143112086694	0	1	0	1	0	32.0143112086694	0
2.68	32.0321258991049	0	1	0	1	0	32.0321258991049	0
2.69	32.050745701474	0	1	0	1	0	32.050745701474	0
2.7	32.0701651555018	0	1	0	1	0	32.0701651555018	0
2.71	32.0903788815075	0	1	0	1	0	32.0903788815075	0
2.72	32.1113815789236	0	1	0	1	0	32.1113815789236	0
2.73	32.1331680248464	0	1	0	1	0	32.1331680248464	0
2.74	32.1557330726191	0	1	0	1	0	32.1557330726191	0
2.75	32.1790716504451	0	1	0	1	0	32.1790716504451	0
2.76	32.2031787600323	0	1	0	1	0	32.2031787600323	0
2.77	32.2280494752663	0	1	0	1	0	32.2280494752663	0
2.78	32.2536789409116	0	1	0	1	0	32.2536789409116	0
2.79	32.2800623713421	0	1	0	1	0	32.2800623713421	0
2.8	32.3071950492977	0	1	0	1	0	32.3071950492977	0
2.81	32.335072324668	0	1	0	1	0	32.335072324668	0
2.82	32.3636896133015	0	1	0	1	0	32.3636896133015	0
2.83	32.3930423958404	0	1	0	1	0	32.3930423958404	0
2.84	32.4231262165798	0	1	0	1	0	32.4231262165798	0
2.85	32.4539366823511	0	1	0	1	0	32.4539366823511	0
2.86	32.4854694614286	0	1	0	1	0	32.4854694614286	0
2.87	32.517720282459	0	1	0	1	0	32.517720282459	0
2.88	32.5506849334133	0	1	0	1	0	32.5506849334133	0
2.89	32.5843592605607	0	1	0	1	0	32.5843592605607	0
2.9	32.618739167463	0	1	0	1	0	32.618739167463	0
2.91	32.6538206139906	0	1	0	1	0	32.6538206139906	0
2.92	32.6895996153581	0	1	0	1	0	32.6895996153581	0
2.93	32.7260722411799	0	1	0	1	0	32.7260722411799	0
2.94	32.763234614545	0	1	0	1	0	32.763234614545	0
2.95	32.8010829111106	0	1	0	1	0	32.8010829111106	0
2.96	32.8396133582145	0	1	0	1	0	32.8396133582145	0
2.97	32.8788222340044	0	1	0	1	0	32.8788222340044	0
2.98	32.918705866586	0	1	0	1	0	32.918705866586	0
2.99	32.9592606331872	0	1	0	1	0	32.9592606331872	0
3	33.0004829593397	0	1	0	1	0	33.0004829593397	0
3.01	33.0423693180762	0	1	0	1	0	33.0423693180762	0
3.02	33.0849162291443	0	1	0	1	0	33.0849162291443	0
3.03	33.1281202582357	0	1	0	1	0	33.1281202582357	0
3.04	33.1719780162302	0	1	0	1	0	33.1719780162302	0
3.05	33.2164861584549	0	1	0	1	0	33.2164861584549	0
3.06	33.2616413839585	0	1	0	1	0	33.2616413839585	0
3.07	33.3074404347986	0	1	0	1	0	33.3074404347986	0
3.08	33.3538800953437	0	1	0	1	0	33.3538800953437	0
3.09	33.4009571915888	0	1	0	1	0	33.4009571915888	0
3.1	33.4486685904836	0	1	0	1	0	33.4486685904836	0
3.11	33.4970111992744	0	1	0	1	0	33.4970111992744	0
3.12	33.5459819648581	0	1	0	1	0	33.5459819648581	0
3.13	33.595577873149	0	1	0	1	0	33.595577873149	0
3.14	33.6457959484573	0	1	0	1	0	33.6457959484573	0
3.15	33.6966332528797	0	1	0	1	0	33.6966332528797	0
3.16	33.7480868857017	0	1	0	1	0	33.7480868857017	0
3.17	33.8001539828107	0	1	0	1	0	33.8001539828107	0
3.18	33.8528317161209	0	1	0	1	0	33.8528317161209	0
3.19	33.9061172930082	0	1	0	1	0	33.9061172930082	0
3.2	33.9600079557563	0	1	0	1	0	33.9600079557563	0
3.21	34.0145009810131	0	1	0	1	0	34.0145009810131	0
3.22	34.0695936792568	0	1	0	1	0	34.0695936792568	0
3.23	34.1252833942725	0	1	0	1	0	34.1252833942725	0
3.24	34.1815675026381	0	1	0	1	0	34.1815675026381	0
3.25	34.2384434132196	0	1	0	1	0	34.2384434132196	0
3.26	34.2959085666762	0	1	0	1	0	34.2959085666762	0
3.27	34.353960434974	0	1	0	1	0	34.353960434974	0
3.28	34.4125965209087	0	1	0	1	0	34.4125965209087	0
3.29	34.4718143576373	0	1	0	1	0	34.4718143576373	0
3.3	34.5316115082178	0	1	0	1	0	34.5316115082178	0
3.31	34.5919855651576	0	1	0	1	0	34.5919855651576	0
3.32	34.6529341499703	0	1	0	1	0	34.6529341499703	0
3.33	34.7144549127396	0	1	0	1	0	34.7144549127396	0
3.34	34.776545531692	0	1	0	1	0	34.776545531692	0
3.35	34.8392037127768	0	1	0	1	0	34.8392037127768	0
3.36	34.9024271892533	0	1	0	1	0	34.9024271892533	0
3.37	34.9662137212858	0	1	0	1	0	34.9662137212858	0
3.38	35.0305610955455	0	1	0	1	0	35.0305610955455	0
3.39	35.0954671248195	0	1	0	1	0	35.0954671248195	0
3.4	35.1609296476269	0	1	0	1	0	35.1609296476269	0
3.41	35.2269465278415	0	1	0	1	0	35.2269465278415	0
3.42	35.2935156543209	0	1	0	1	0	35.2935156543209	0
3.43	35.3606349405424	0	1	0	1	0	35.3606349405424	0
3.44	35.4283023242454	0	1	0	1	0	35.4283023242454	0
3.45	35.4965157670793	0	1	0	1	0	35.4965157670793	0
3.46	35.5652732542585	0	1	0	1	0	35.5652732542585	0
3.47	35.6345727942223	0	1	0	1	0	35.6345727942223	0
3.48	35.7044124183019	0	1	0	1	0	35.7044124183019	0
3.49	35.7747901803916	0	1	0	1	0	35.7747901803916	0
3.5	35.8457041566273	0	1	0	1	0	35.8457041566273	0
3.51	35.917152445069	0	1	0	1	0	35.917152445069	0
3.52	35.9891331653898	0	1	0	1	0	35.9891331653898	0
3.53	36.0616444585696	0	1	0	1	0	36.0616444585696	0
3.54	36.134684486594	0	1	0	1	0	36.134684486594	0
3.55	36.208251432159	0	1	0	1	0	36.208251432159	0
3.56	36.2823434983794	0	1	0	1	0	36.2823434983794	0
3.57	36.3569589085033	0	1	0	1	0	36.3569589085033	0
3.58	36.4320959056307	0	1	0	1	0	36.4320959056307	0
3.59	36.5077527524372	0	1	0	1	0	36.5077527524372	0
3.6	36.5839277309021	0	1	0	1	0	36.5839277309021	0
3.61	36.6606191420406	0	1	0	1	0	36.6606191420406	0
3.62	36.7378253056415	0	1	0	1	0	36.7378253056415	0
3.63	36.8155445600081	0	1	0	1	0	36.8155445600081	0
3.64	36.8937752617045	0	1	0	1	0	36.8937752617045	0
3.65	36.9725157853046	0	1	0	1	0	36.9725157853046	0
3.66	37.0517645231467	0	1	0	1	0	37.0517645231467	0
3.67	37.1315198850914	0	1	0	1	0	37.1315198850914	0
3.68	37.2117802982833	0	1	0	1	0	37.2117802982833	0
3.69	37.292544206917	0	1	0	1	0	37.292544206917	0
3.7	37.3738100720065	0	1	0	1	0	37.3738100720065	0
3.71	37.4555763711588	0	1	0	1	0	37.4555763711588	0
3.72	37.5378415983506	0	1	0	1	0	37.5378415983506	0
3.73	37.6206042637089	0	1	0	1	0	37.6206042637089	0
3.74	37.7038628932955	0	1	0	1	0	37.7038628932955	0
3.75	37.7876160288939	0	1	0	1	0	37.7876160288939	0
3.76	37.8718622278006	0	1	0	1	0	37.8718622278006	0
3.77	37.9566000626193	0	1	0	1	0	37.9566000626193	0
3.78	38.0418281210586	0	1	0	1	0	38.0418281210586	0
3.79	38.1275450057324	0	1	0	1	0	38.1275450057324	0
3.8	38.2137493339638	0	1	0	1	0	38.2137493339638	0
3.81	38.3004397375924	0	1	0	1	0	38.3004397375924	0
3.82	38.387614862784	0	1	0	1	0	38.387614862784	0
3.83	38.4752733698438	0	1	0	1	0	38.4752733698438	0
3.84	38.5634139330319	0	1	0	1	0	38.5634139330319	0
3.85	38.6520352403824	0	1	0	1	0	38.6520352403824	0
3.86	38.7411359935251	0	1	0	1	0	38.7411359935251	0
3.87	38.8307149075095	0	1	0	1	0	38.8307149075095	0
3.88	38.9207707106318	0	1	0	1	0	38.9207707106318	0
3.89	39.0113021442654	0	1	0	1	0	39.0113021442654	0
3.9	39.102307962692	0	1	0	1	0	39.102307962692	0
3.91	39.1937869329378	0	1	0	1	0	39.1937869329378	0
3.92	39.2857378346101	0	1	0	1	0	39.2857378346101	0
3.93	39.3781594597375	0	1	0	1	0	39.3781594597375	0
3.94	39.4710506126123	0	1	0	1	0	39.4710506126123	0
3.95	39.5644101096353	0	1	0	1	0	39.5644101096353	0
3.96	39.6582367791627	0	1	0	1	0	39.6582367791627	0
3.97	39.7525294613558	0	1	0	1	0	39.7525294613558	0
3.98	39.8472870080325	0	1	0	1	0	39.8472870080325	0
3.99	39.9425082825214	0	1	0	1	0	39.9425082825214	0
4	40.0381921595176	0	1	0	1	0	40.0381921595176	0
4.01	40.1343375249416	0	1	0	1	0	40.1343375249416	0
4.02	40.2309432757987	0	1	0	1	0	40.2309432757987	0
4.03	40.3280083200425	0	1	0	1	0	40.3280083200425	0
4.04	40.4255315764388	0	1	0	1	0	40.4255315764388	0
4.05	40.5235119744321	0	1	0	1	0	40.5235119744321	0
4.06	40.6219484540144	0	1	0	1	0	40.6219484540144	0
4.07	40.7208399655956	0	1	0	1	0	40.7208399655956	0
4.08	40.8201854698754	0	1	0	1	0	40.8201854698754	0
4.09	40.919983937718	0	1	0	1	0	40.919983937718	0
4.1	41.0202343500279	0	1	0	1	0	41.0202343500279	0
4.11	41.1209356976277	0	1	0	1	0	41.1209356976277	0
4.12	41.2220869811382	0	1	0	1	0	41.2220869811382	0
4.13	41.3236872108589	0	1	0	1	0	41.3236872108589	0
4.14	41.425735406652	0	1	0	1	0	41.425735406652	0
4.15	41.5282305978267	0	1	0	1	0	41.5282305978267	0
4.16	41.6311718230257	0	1	0	1	0	41.6311718230257	0
4.17	41.7345581301135	0	1	0	1	0	41.7345581301135	0
4.18	41.8383885760658	0	1	0	1	0	41.8383885760658	0
4.19	41.9426622268611	0	1	0	1	0	41.9426622268611	0
4.2	42.047378157373	0	1	0	1	0	42.047378157373	0
4.21	42.1525354512653	0	1	0	1	0	42.1525354512653	0
4.22	42.2581332008871	0	1	0	1	0	42.2581332008871	0
4.23	42.3641705071709	0	1	0	1	0	42.3641705071709	0
4.24	42.4706464795305	0	1	0	1	0	42.4706464795305	0
4.25	42.5775602357621	0	1	0	1	0	42.5775602357621	0
4.26	42.6849109019451	0	1	0	1	0	42.6849109019451	0
4.27	42.792697612346	0	1	0	1	0	42.792697612346	0
4.28	42.9009195093217	0	1	0	1	0	42.9009195093217	0
4.29	43.0095757432263	0	1	0	1	0	43.0095757432263	0
4.3	43.1186654723173	0	1	0	1	0	43.1186654723173	0
4.31	43.2281878626642	0	1	0	1	0	43.2281878626642	0
4.32	43.3381420880581	0	1	0	1	0	43.3381420880581	0
4.33	43.4485273299226	0	1	0	1	0	43.4485273299226	0
4.34	43.5593427772257	0	1	0	1	0	43.5593427772257	0
4.35	43.6705876263933	0	1	0	1	0	43.6705876263933	0
4.36	43.7822610812232	0	1	0	1	0	43.7822610812232	0
4.37	43.8943623528015	0	1	0	1	0	43.8943623528015	0
4.38	44.0068906594187	0	1	0	1	0	44.0068906594187	0
4.39	44.1198452264881	0	1	0	1	0	44.1198452264881	0
4.4	44.2332252864647	0	1	0	1	0	44.2332252864647	0
4.41	44.3470300787652	0	1	0	1	0	44.3470300787652	0
4.42	44.4612588496896	0	1	0	1	0	44.4612588496896	0
4.43	44.5759108523432	0	1	0	1	0	44.5759108523432	0
4.44	44.6909853465602	0	1	0	1	0	44.6909853465602	0
4.45	44.8064815988277	0	1	0	1	0	44.8064815988277	0
4.46	44.9223988822117	0	1	0	1	0	44.9223988822117	0
4.47	45.0387364762831	0	1	0	1	0	45.0387364762831	0
4.48	45.1554936670452	0	1	0	1	0	45.1554936670452	0
4.49	45.2726697468619	0	1	0	1	0	45.2726697468619	0
4.5	45.3902640143875	0	1	0	1	0	45.3902640143875	0
4.51	45.5082757744965	0	1	0	1	0	45.5082757744965	0
4.52	45.626704338215	0	1	0	1	0	45.626704338215	0
4.53	45.7455490226526	0	1	0	1	0	45.7455490226526	0
4.54	45.8648091509358	0	1	0	1	0	45.8648091509358	0
4.55	45.9844840521414	0	1	0	1	0	45.9844840521414	0
4.56	46.1045730612318	0	1	0	1	0	46.1045730612318	0
4.57	46.2250755189899	0	1	0	1	0	46.2250755189899	0
4.58	46.3459907719562	0	1	0	1	0	46.3459907719562	0
4.59	46.4673181723659	0	1	0	1	0	46.4673181723659	0
4.6	46.5890570780868	0	1	0	1	0	46.5890570780868	0
4.61	46.7112068525583	0	1	0	1	0	46.7112068525583	0
4.62	46.8337668647313	0	1	0	1	0	46.8337668647313	0
4.63	46.9567364890084	0	1	0	1	0	46.9567364890084	0
4.64	47.0801151051854	0	1	0	1	0	47.0801151051854	0
4.65	47.2039020983931	0	1	0	1	0	47.2039020983931	0
4.66	47.3280968590402	0	1	0	1	0	47.3280968590402	0
4.67	47.4526987827566	0	1	0	1	0	47.4526987827566	0
4.68	47.577707270338	0	1	0	1	0	47.577707270338	0
4.69	47.7031217276904	0	1	0	1	0	47.7031217276904	0
4.7	47.828941565776	0	1	0	1	0	47.828941565776	0
4.71	47.9551662005593	0	1	0	1	0	47.9551662005593	0
4.72	48.0817950529546	0	1	0	1	0	48.0817950529546	0
4.73	48.2088275487728	0	1	0	1	0	48.2088275487728	0
4.74	48.3362631186708	0	1	0	1	0	48.3362631186708	0
4.75	48.4641011980997	0	1	0	1	0	48.4641011980997	0
4.76	48.5923412272547	0	1	0	1	0	48.5923412272547	0
4.77	48.7209826510255	0	1	0	1	0	48.7209826510255	0
4.78	48.850024918947	0	1	0	1	0	48.850024918947	0
4.79	48.9794674851508	0	1	0	1	0	48.9794674851508	0
4.8	49.1093098083176	0	1	0	1	0	49.1093098083176	0
4.81	49.2395513516296	0	1	0	1	0	49.2395513516296	0
4.82	49.3701915827239	0	1	0	1	0	49.3701915827239	0
4.83	49.5012299736465	0	1	0	1	0	49.5012299736465	0
4.84	49.6326660008065	0	1	0	1	0	49.6326660008065	0
4.85	49.7644991449314	0	1	0	1	0	49.7644991449314	0
4.86	49.8967288910225	0	1	0	1	0	49.8967288910225	0
4.87	50.0293547283111	0	1	0	1	0	50.0293547283111	0
4.88	50.1623761502152	0	1	0	1	0	50.1623761502152	0
4.89	50.2957926542964	0	1	0	1	0	50.2957926542964	0
4.9	50.429603742218	0	1	0	1	0	50.429603742218	0
4.91	50.5638089197031	0	1	0	1	0	50.5638089197031	0
4.92	50.6984076964932	0	1	0	1	0	50.6984076964932	0
4.93	50.8333995863077	0	1	0	1	0	50.8333995863077	0
