# GHZ S RI R 50
1	53.6262998737203	0	1	0	1	0	53.6262998737203	0
1.01	53.1861556096986	0	1	0	1	0	53.1861556096986	0
1.02	52.7557913221803	0	1	0	1	0	52.7557913221803	0
1.03	52.3349334301018	0	1	0	1	0	52.3349334301018	0
1.04	51.9233188747481	0	1	0	1	0	51.9233188747481	0
1.05	51.5206946186884	0	1	0	1	0	51.5206946186884	0
1.06	51.1268171730744	0	1	0	1	0	51.1268171730744	0
1.07	50.7414521514446	0	1	0	1	0	50.7414521514446	0
1.08	50.3643738483174	0	1	0	1	0	50.3643738483174	0
1.09	49.9953648409814	0	1	0	1	0	49.9953648409814	0
1.1	49.6342156130055	0	1	0	1	0	49.6342156130055	0
1.11	49.2807241981003	0	1	0	1	0	49.2807241981003	0
1.12	48.934695843058	0	1	0	1	0	48.934695843058	0
1.13	48.59594268859	0	1	0	1	0	48.59594268859	0
1.14	48.2642834669613	0	1	0	1	0	48.2642834669613	0
1.15	47.9395432154018	0	1	0	1	0	47.9395432154018	0
1.16	47.6215530043404	0	1	0	1	0	47.6215530043404	0
1.17	47.3101496795759	0	1	0	1	0	47.3101496795759	0
1.18	47.005175617558	0	1	0	1	0	47.005175617558	0
1.19	46.7064784930069	0	1	0	1	0	46.7064784930069	0
1.2	46.4139110581522	0	1	0	1	0	46.4139110581522	0
1.21	46.1273309329185	0	1	0	1	0	46.1273309329185	0
1.22	45.8466004054295	0	1	0	1	0	45.8466004054295	0
1.23	45.5715862422438	0	1	0	1	0	45.5715862422438	0
1.24	45.3021595077731	0	1	0	1	0	45.3021595077731	0
1.25	45.0381953923678	0	1	0	1	0	45.0381953923678	0
1.26	44.7795730485896	0	1	0	1	0	44.7795730485896	0
1.27	44.5261754352185	0	1	0	1	0	44.5261754352185	0
1.28	44.2778891685727	0	1	0	1	0	44.2778891685727	0
1.29	44.0346043807436	0	1	0	1	0	44.0346043807436	0
1.3	43.7962145843734	0	1	0	1	0	43.7962145843734	0
1.31	43.562616543627	0	1	0	1	0	43.562616543627	0
1.32	43.3337101510275	0	1	0	1	0	43.3337101510275	0
1.33	43.1093983098496	0	1	0	1	0	43.1093983098496	0
1.34	42.8895868217775	0	1	0	1	0	42.8895868217775	0
1.35	42.6741842795567	0	1	0	1	0	42.6741842795567	0
1.36	42.4631019643813	0	1	0	1	0	42.4631019643813	0
1.37	42.2562537477754	0	1	0	1	0	42.2562537477754	0
1.38	42.053555997741	0	1	0	1	0	42.053555997741	0
1.39	41.8549274889558	0	1	0	1	0	41.8549274889558	0
1.4	41.6602893168215	0	1	0	1	0	41.6602893168215	0
1.41	41.4695648151678	0	1	0	1	0	41.4695648151678	0
1.42	41.2826794774349	0	1	0	1	0	41.2826794774349	0
1.43	41.0995608811627	0	1	0	1	0	41.0995608811627	0
1.44	40.9201386156258	0	1	0	1	0	40.9201386156258	0
1.45	40.7443442124641	0	1	0	1	0	40.7443442124641	0
1.46	40.5721110791625	0	1	0	1	0	40.5721110791625	0
1.47	40.4033744352475	0	1	0	1	0	40.4033744352475	0
1.48	40.238071251069	0	1	0	1	0	40.238071251069	0
1.49	40.0761401890481	0	1	0	1	0	40.0761401890481	0
1.5	39.9175215472747	0	1	0	1	0	39.9175215472747	0
1.51	39.7621572053461	0	1	0	1	0	39.7621572053461	0
1.52	39.6099905723442	0	1	0	1	0	39.6099905723442	0
1.53	39.4609665368517	0	1	0	1	0	39.4609665368517	0
1.54	39.3150314189169	0	1	0	1	0	39.3150314189169	0
1.55	39.172132923877	0	1	0	1	0	39.172132923877	0
1.56	39.0322200979581	0	1	0	1	0	39.0322200979581	0
1.57	38.8952432855717	0	1	0	1	0	38.8952432855717	0
1.58	38.7611540882326	0	1	0	1	0	38.7611540882326	0
1.59	38.6299053250277	0	1	0	1	0	38.6299053250277	0
1.6	38.5014509945667	0	1	0	1	0	38.5014509945667	0
1.61	38.375746238351	0	1	0	1	0	38.375746238351	0
1.62	38.2527473054992	0	1	0	1	0	38.2527473054992	0
1.63	38.1324115187713	0	1	0	1	0	38.1324115187713	0
1.64	38.0146972418353	0	1	0	1	0	38.0146972418353	0
1.65	37.899563847725	0	1	0	1	0	37.899563847725	0
1.66	37.7869716884374	0	1	0	1	0	37.7869716884374	0
1.67	37.6768820656221	0	1	0	1	0	37.6768820656221	0
1.68	37.5692572023179	0	1	0	1	0	37.5692572023179	0
1.69	37.464060215693	0	1	0	1	0	37.464060215693	0
1.7	37.361255090747	0	1	0	1	0	37.361255090747	0
1.71	37.2608066549354	0	1	0	1	0	37.2608066549354	0
1.72	37.1626805536801	0	1	0	1	0	37.1626805536801	0
1.73	37.0668432267284	0	1	0	1	0	37.0668432267284	0
1.74	36.9732618853277	0	1	0	1	0	36.9732618853277	0
1.75	36.8819044901825	0	1	0	1	0	36.8819044901825	0
1.76	36.7927397301633	0	1	0	1	0	36.7927397301633	0
1.77	36.7057370017364	0	1	0	1	0	36.7057370017364	0
1.78	36.6208663890885	0	1	0	1	0	36.6208663890885	0
1.79	36.5380986449155	0	1	0	1	0	36.5380986449155	0
1.8	36.4574051718538	0	1	0	1	0	36.4574051718538	0
1.81	36.3787580045256	0	1	0	1	0	36.3787580045256	0
1.82	36.3021297921768	0	1	0	1	0	36.3021297921768	0
1.83	36.227493781884	0	1	0	1	0	36.227493781884	0
1.84	36.1548238023091	0	1	0	1	0	36.1548238023091	0
1.85	36.0840942479806	0	1	0	1	0	36.0840942479806	0
1.86	36.0152800640826	0	1	0	1	0	36.0152800640826	0
1.87	35.9483567317309	0	1	0	1	0	35.9483567317309	0
1.88	35.8833002537198	0	1	0	1	0	35.8833002537198	0
1.89	35.8200871407207	0	1	0	1	0	35.8200871407207	0
1.9	35.7586943979175	0	1	0	1	0	35.7586943979175	0
1.91	35.6990995120608	0	1	0	1	0	35.6990995120608	0
1.92	35.6412804389273	0	1	0	1	0	35.6412804389273	0
1.93	35.5852155911686	0	1	0	1	0	35.5852155911686	0
1.94	35.5308838265365	0	1	0	1	0	35.5308838265365	0
1.95	35.4782644364698	0	1	0	1	0	35.4782644364698	0
1.96	35.427337135031	0	1	0	1	0	35.427337135031	0
1.97	35.3780820481799	0	1	0	1	0	35.3780820481799	0
1.98	35.330479703372	0	1	0	1	0	35.330479703372	0
1.99	35.2845110194708	0	1	0	1	0	35.2845110194708	0
2	35.2401572969623	0	1	0	1	0	35.2401572969623	0
2.01	35.1974002084624	0	1	0	1	0	35.1974002084624	0
2.02	35.1562217895054	0	1	0	1	0	35.1562217895054	0
2.03	35.1166044296052	0	1	0	1	0	35.1166044296052	0
2.04	35.0785308635794	0	1	0	1	0	35.0785308635794	0
2.05	35.0419841631272	0	1	0	1	0	35.0419841631272	0
2.06	35.0069477286525	0	1	0	1	0	35.0069477286525	0
2.07	34.9734052813246	0	1	0	1	0	34.9734052813246	0
2.08	34.941340855367	0	1	0	1	0	34.941340855367	0
2.09	34.9107387905686	0	1	0	1	0	34.9107387905686	0
2.1	34.8815837250078	0	1	0	1	0	34.8815837250078	0
2.11	34.8538605879842	0	1	0	1	0	34.8538605879842	0
2.12	34.8275545931505	0	1	0	1	0	34.8275545931505	0
2.13	34.8026512318371	0	1	0	1	0	34.8026512318371	0
2.14	34.7791362665645	0	1	0	1	0	34.7791362665645	0
2.15	34.7569957247365	0	1	0	1	0	34.7569957247365	0
2.16	34.7362158925089	0	1	0	1	0	34.7362158925089	0
2.17	34.716783308827	0	1	0	1	0	34.716783308827	0
2.18	34.698684759628	0	1	0	1	0	34.698684759628	0
2.19	34.681907272202	0	1	0	1	0	34.681907272202	0
2.2	34.6664381097064	0	1	0	1	0	34.6664381097064	0
2.21	34.6522647658296	0	1	0	1	0	34.6522647658296	0
2.22	34.6393749595992	0	1	0	1	0	34.6393749595992	0
2.23	34.6277566303291	0	1	0	1	0	34.6277566303291	0
2.24	34.6173979327027	0	1	0	1	0	34.6173979327027	0
2.25	34.6082872319867	0	1	0	1	0	34.6082872319867	0
2.26	34.6004130993724	0	1	0	1	0	34.6004130993724	0
2.27	34.5937643074397	0	1	0	1	0	34.5937643074397	0
2.28	34.5883298257409	0	1	0	1	0	34.5883298257409	0
2.29	34.5840988164997	0	1	0	1	0	34.5840988164997	0
2.3	34.5810606304232	0	1	0	1	0	34.5810606304232	0
2.31	34.5792048026213	0	1	0	1	0	34.5792048026213	0
2.32	34.5785210486336	0	1	0	1	0	34.5785210486336	0
2.33	34.5789992605567	0	1	0	1	0	34.5789992605567	0
2.34	34.5806295032717	0	1	0	1	0	34.5806295032717	0
2.35	34.5834020107684	0	1	0	1	0	34.5834020107684	0
2.36	34.5873071825622	0	1	0	1	0	34.5873071825622	0
2.37	34.5923355802017	0	1	0	1	0	34.5923355802017	0
2.38	34.5984779238652	0	1	0	1	0	34.5984779238652	0
2.39	34.6057250890418	0	1	0	1	0	34.6057250890418	0
2.4	34.6140681032956	0	1	0	1	0	34.6140681032956	0
2.41	34.6234981431111	0	1	0	1	0	34.6234981431111	0
2.42	34.6340065308157	0	1	0	1	0	34.6340065308157	0
2.43	34.6455847315793	0	1	0	1	0	34.6455847315793	0
2.44	34.6582243504872	0	1	0	1	0	34.6582243504872	0
2.45	34.6719171296842	0	1	0	1	0	34.6719171296842	0
2.46	34.6866549455895	0	1	0	1	0	34.6866549455895	0
2.47	34.702429806178	0	1	0	1	0	34.702429806178	0
2.48	34.7192338483285	0	1	0	1	0	34.7192338483285	0
2.49	34.7370593352346	0	1	0	1	0	34.7370593352346	0
2.5	34.7558986538793	0	1	0	1	0	34.7558986538793	0
2.51	34.7757443125682	0	1	0	1	0	34.7757443125682	0
2.52	34.7965889385228	0	1	0	1	0	34.7965889385228	0
2.53	34.8184252755303	0	1	0	1	0	34.8184252755303	0
2.54	34.841246181649	0	1	0	1	0	34.841246181649	0
2.55	34.8650446269675	0	1	0	1	0	34.8650446269675	0
2.56	34.889813691417	0	1	0	1	0	34.889813691417	0
2.57	34.9155465626338	0	1	0	1	0	34.9155465626338	0
2.58	34.9422365338725	0	1	0	1	0	34.9422365338725	0
2.59	34.9698770019665	0	1	0	1	0	34.9698770019665	0
2.6	34.9984614653366	0	1	0	1	0	34.9984614653366	0
2.61	35.0279835220445	0	1	0	1	0	35.0279835220445	0
2.62	35.0584368678917	0	1	0	1	0	35.0584368678917	0
2.63	35.0898152945606	0	1	0	1	0	35.0898152945606	0
2.64	35.1221126877994	0	1	0	1	0	35.1221126877994	0
2.65	35.1553230256467	0	1	0	1	0	35.1553230256467	0
2.66	35.1894403766971	0	1	0	1	0	35.1894403766971	0
2.67	35.2244588984049	0	1	0	1	0	35.2244588984049	0
2.68	35.2603728354268	0	1	0	1	0	35.2603728354268	0
2.69	35.2971765180008	0	1	0	1	0	35.2971765180008	0
2.7	35.3348643603613	0	1	0	1	0	35.3348643603613	0
2.71	35.3734308591895	0	1	0	1	0	35.3734308591895	0
2.72	35.4128705920976	0	1	0	1	0	35.4128705920976	0
2.73	35.453178216147	0	1	0	1	0	35.453178216147	0
2.74	35.4943484663979	0	1	0	1	0	35.4943484663979	0
2.75	35.5363761544916	0	1	0	1	0	35.5363761544916	0
2.76	35.579256167263	0	1	0	1	0	35.579256167263	0
2.77	35.6229834653832	0	1	0	1	0	35.6229834653832	0
2.78	35.6675530820319	0	1	0	1	0	35.6675530820319	0
2.79	35.7129601215973	0	1	0	1	0	35.7129601215973	0
2.8	35.7591997584054	0	1	0	1	0	35.7591997584054	0
2.81	35.8062672354745	0	1	0	1	0	35.8062672354745	0
2.82	35.8541578632983	0	1	0	1	0	35.8541578632983	0
2.83	35.902867018653	0	1	0	1	0	35.902867018653	0
2.84	35.9523901434307	0	1	0	1	0	35.9523901434307	0
2.85	36.0027227434971	0	1	0	1	0	36.0027227434971	0
2.86	36.0538603875727	0	1	0	1	0	36.0538603875727	0
2.87	36.105798706138	0	1	0	1	0	36.105798706138	0
2.88	36.1585333903615	0	1	0	1	0	36.1585333903615	0
2.89	36.2120601910492	0	1	0	1	0	36.2120601910492	0
2.9	36.2663749176169	0	1	0	1	0	36.2663749176169	0
2.91	36.3214734370829	0	1	0	1	0	36.3214734370829	0
2.92	36.3773516730816	0	1	0	1	0	36.3773516730816	0
2.93	36.4340056048976	0	1	0	1	0	36.4340056048976	0
2.94	36.4914312665188	0	1	0	1	0	36.4914312665188	0
2.95	36.5496247457098	0	1	0	1	0	36.5496247457098	0
2.96	36.6085821831033	0	1	0	1	0	36.6085821831033	0
2.97	36.6682997713098	0	1	0	1	0	36.6682997713098	0
2.98	36.7287737540458	0	1	0	1	0	36.7287737540458	0
2.99	36.790000425279	0	1	0	1	0	36.790000425279	0
3	36.8519761283911	0	1	0	1	0	36.8519761283911	0
3.01	36.9146972553565	0	1	0	1	0	36.9146972553565	0
3.02	36.9781602459381	0	1	0	1	0	36.9781602459381	0
3.03	37.0423615868985	0	1	0	1	0	37.0423615868985	0
3.04	37.1072978112274	0	1	0	1	0	37.1072978112274	0
3.05	37.1729654973833	0	1	0	1	0	37.1729654973833	0
3.06	37.2393612685507	0	1	0	1	0	37.2393612685507	0
3.07	37.3064817919117	0	1	0	1	0	37.3064817919117	0
3.08	37.3743237779319	0	1	0	1	0	37.3743237779319	0
3.09	37.4428839796597	0	1	0	1	0	37.4428839796597	0
3.1	37.5121591920398	0	1	0	1	0	37.5121591920398	0
3.11	37.5821462512392	0	1	0	1	0	37.5821462512392	0
3.12	37.6528420339873	0	1	0	1	0	37.6528420339873	0
3.13	37.724243456927	0	1	0	1	0	37.724243456927	0
3.14	37.7963474759801	0	1	0	1	0	37.7963474759801	0
3.15	37.8691510857231	0	1	0	1	0	37.8691510857231	0
3.16	37.9426513187758	0	1	0	1	0	37.9426513187758	0
3.17	38.0168452452014	0	1	0	1	0	38.0168452452014	0
3.18	38.0917299719177	0	1	0	1	0	38.0917299719177	0
3.19	38.1673026421193	0	1	0	1	0	38.1673026421193	0
3.2	38.2435604347108	0	1	0	1	0	38.2435604347108	0
3.21	38.3205005637507	0	1	0	1	0	38.3205005637507	0
3.22	38.3981202779056	0	1	0	1	0	38.3981202779056	0
3.23	38.4764168599141	0	1	0	1	0	38.4764168599141	0
3.24	38.5553876260615	0	1	0	1	0	38.5553876260615	0
3.25	38.6350299256632	0	1	0	1	0	38.6350299256632	0
3.26	38.7153411405584	0	1	0	1	0	38.7153411405584	0
3.27	38.7963186846129	0	1	0	1	0	38.7963186846129	0
3.28	38.8779600032305	0	1	0	1	0	38.8779600032305	0
3.29	38.960262572874	0	1	0	1	0	38.960262572874	0
3.3	39.0432239005946	0	1	0	1	0	39.0432239005946	0
3.31	39.1268415235697	0	1	0	1	0	39.1268415235697	0
3.32	39.2111130086492	0	1	0	1	0	39.2111130086492	0
3.33	39.2960359519102	0	1	0	1	0	39.2960359519102	0
3.34	39.381607978219	0	1	0	1	0	39.381607978219	0
3.35	39.4678267408022	0	1	0	1	0	39.4678267408022	0
3.36	39.5546899208236	0	1	0	1	0	39.5546899208236	0
3.37	39.6421952269707	0	1	0	1	0	39.6421952269707	0
3.38	39.730340395047	0	1	0	1	0	39.730340395047	0
3.39	39.8191231875721	0	1	0	1	0	39.8191231875721	0
3.4	39.9085413933889	0	1	0	1	0	39.9085413933889	0
3.41	39.9985928272778	0	1	0	1	0	39.9985928272778	0
3.42	40.0892753295772	0	1	0	1	0	40.0892753295772	0
3.43	40.1805867658111	0	1	0	1	0	40.1805867658111	0
3.44	40.2725250263228	0	1	0	1	0	40.2725250263228	0
3.45	40.3650880259157	0	1	0	1	0	40.3650880259157	0
3.46	40.4582737034994	0	1	0	1	0	40.4582737034994	0
3.47	40.5520800217422	0	1	0	1	0	40.5520800217422	0
3.48	40.6465049667305	0	1	0	1	0	40.6465049667305	0
3.49	40.7415465476324	0	1	0	1	0	40.7415465476324	0
3.5	40.8372027963686	0	1	0	1	0	40.8372027963686	0
3.51	40.9334717672879	0	1	0	1	0	40.9334717672879	0
3.52	41.0303515368488	0	1	0	1	0	41.0303515368488	0
3.53	41.1278402033064	0	1	0	1	0	41.1278402033064	0
3.54	41.2259358864043	0	1	0	1	0	41.2259358864043	0
3.55	41.3246367270723	0	1	0	1	0	41.3246367270723	0
3.56	41.4239408871285	0	1	0	1	0	41.4239408871285	0
3.57	41.5238465489867	0	1	0	1	0	41.5238465489867	0
3.58	41.6243519153692	0	1	0	1	0	41.6243519153692	0
3.59	41.7254552090237	0	1	0	1	0	41.7254552090237	0
3.6	41.8271546724448	0	1	0	1	0	41.8271546724448	0
3.61	41.9294485676012	0	1	0	1	0	41.9294485676012	0
3.62	42.0323351756662	0	1	0	1	0	42.0323351756662	0
3.63	42.1358127967535	0	1	0	1	0	42.1358127967535	0
3.64	42.2398797496565	0	1	0	1	0	42.2398797496565	0
3.65	42.3445343715932	0	1	0	1	0	42.3445343715932	0
3.66	42.4497750179539	0	1	0	1	0	42.4497750179539	0
3.67	42.5556000620538	0	1	0	1	0	42.5556000620538	0
3.68	42.6620078948894	0	1	0	1	0	42.6620078948894	0
3.69	42.7689969248991	0	1	0	1	0	42.7689969248991	0
3.7	42.8765655777273	0	1	0	1	0	42.8765655777273	0
3.71	42.9847122959926	0	1	0	1	0	42.9847122959926	0
3.72	43.0934355390596	0	1	0	1	0	43.0934355390596	0
3.73	43.2027337828145	0	1	0	1	0	43.2027337828145	0
3.74	43.3126055194442	0	1	0	1	0	43.3126055194442	0
3.75	43.4230492572188	0	1	0	1	0	43.4230492572188	0
3.76	43.5340635202781	0	1	0	1	0	43.5340635202781	0
3.77	43.6456468484207	0	1	0	1	0	43.6456468484207	0
3.78	43.7577977968973	0	1	0	1	0	43.7577977968973	0
3.79	43.8705149362062	0	1	0	1	0	43.8705149362062	0
3.8	43.9837968518935	0	1	0	1	0	43.9837968518935	0
3.81	44.097642144355	0	1	0	1	0	44.097642144355	0
3.82	44.2120494286422	0	1	0	1	0	44.2120494286422	0
3.83	44.3270173342705	0	1	0	1	0	44.3270173342705	0
3.84	44.4425445050315	0	1	0	1	0	44.4425445050315	0
3.85	44.5586295988072	0	1	0	1	0	44.5586295988072	0
3.86	44.6752712873874	0	1	0	1	0	44.6752712873874	0
3.87	44.7924682562905	0	1	0	1	0	44.7924682562905	0
3.88	44.9102192045858	0	1	0	1	0	44.9102192045858	0
3.89	45.0285228447202	0	1	0	1	0	45.0285228447202	0
3.9	45.147377902346	0	1	0	1	0	45.147377902346	0
3.91	45.2667831161525	0	1	0	1	0	45.2667831161525	0
3.92	45.3867372376993	0	1	0	1	0	45.3867372376993	0
3.93	45.507239031253	0	1	0	1	0	45.507239031253	0
3.94	45.6282872736256	0	1	0	1	0	45.6282872736256	0
3.95	45.7498807540158	0	1	0	1	0	45.7498807540158	0
3.96	45.8720182738527	0	1	0	1	0	45.8720182738527	0
3.97	45.9946986466415	0	1	0	1	0	45.9946986466415	0
3.98	46.1179206978122	0	1	0	1	0	46.1179206978122	0
3.99	46.2416832645698	0	1	0	1	0	46.2416832645698	0
4	46.3659851957472	0	1	0	1	0	46.3659851957472	0
4.01	46.4908253516605	0	1	0	1	0	46.4908253516605	0
4.02	46.6162026039657	0	1	0	1	0	46.6162026039657	0
4.03	46.7421158355183	0	1	0	1	0	46.7421158355183	0
4.04	46.8685639402348	0	1	0	1	0	46.8685639402348	0
4.05	46.9955458229557	0	1	0	1	0	46.9955458229557	0
4.06	47.1230603993114	0	1	0	1	0	47.1230603993114	0
4.07	47.2511065955896	0	1	0	1	0	47.2511065955896	0
4.08	47.3796833486043	0	1	0	1	0	47.3796833486043	0
4.09	47.5087896055678	0	1	0	1	0	47.5087896055678	0
4.1	47.6384243239632	0	1	0	1	0	47.6384243239632	0
4.11	47.7685864714198	0	1	0	1	0	47.7685864714198	0
4.12	47.89927502559	0	1	0	1	0	47.89927502559	0
4.13	48.0304889740278	0	1	0	1	0	48.0304889740278	0
4.14	48.1622273140694	0	1	0	1	0	48.1622273140694	0
4.15	48.294489052715	0	1	0	1	0	48.294489052715	0
4.16	48.427273206513	0	1	0	1	0	48.427273206513	0
4.17	48.5605788014456	0	1	0	1	0	48.5605788014456	0
4.18	48.6944048728154	0	1	0	1	0	48.6944048728154	0
4.19	48.8287504651347	0	1	0	1	0	48.8287504651347	0
4.2	48.9636146320157	0	1	0	1	0	48.9636146320157	0
4.21	49.0989964360623	0	1	0	1	0	49.0989964360623	0
4.22	49.2348949487638	0	1	0	1	0	49.2348949487638	0
4.23	49.3713092503896	0	1	0	1	0	49.3713092503896	0
4.24	49.5082384298859	0	1	0	1	0	49.5082384298859	0
4.25	49.6456815847736	0	1	0	1	0	49.6456815847736	0
4.26	49.7836378210474	0	1	0	1	0	49.7836378210474	0
4.27	49.9221062530768	0	1	0	1	0	49.9221062530768	0
4.28	50.0610860035084	0	1	0	1	0	50.0610860035084	0
4.29	50.200576203169	0	1	0	1	0	50.200576203169	0
4.3	50.3405759909708	0	1	0	1	0	50.3405759909708	0
4.31	50.4810845138178	0	1	0	1	0	50.4810845138178	0
4.32	50.6221009265126	0	1	0	1	0	50.6221009265126	0
4.33	50.763624391666	0	1	0	1	0	50.763624391666	0
4.34	50.9056540796064	0	1	0	1	0	50.9056540796064	0
4.35	51.0481891682915	0	1	0	1	0	51.0481891682915	0
4.36	51.1912288432208	0	1	0	1	0	51.1912288432208	0
4.37	51.3347722973489	0	1	0	1	0	51.3347722973489	0
4.38	51.4788187310008	0	1	0	1	0	51.4788187310008	0
4.39	51.623367351788	0	1	0	1	0	51.623367351788	0
4.4	51.7684173745252	0	1	0	1	0	51.7684173745252	0
4.41	51.9139680211492	0	1	0	1	0	51.9139680211492	0
4.42	52.0600185206381	0	1	0	1	0	52.0600185206381	0
4.43	52.2065681089317	0	1	0	1	0	52.2065681089317	0
4.44	52.3536160288533	0	1	0	1	0	52.3536160288533	0
4.45	52.5011615300323	0	1	0	1	0	52.5011615300323	0
4.46	52.6492038688279	0	1	0	1	0	52.6492038688279	0
4.47	52.7977423082536	0	1	0	1	0	52.7977423082536	0
4.48	52.9467761179034	0	1	0	1	0	52.9467761179034	0
4.49	53.0963045738781	0	1	0	1	0	53.0963045738781	0
4.5	53.2463269587133	0	1	0	1	0	53.2463269587133	0
4.51	53.3968425613077	0	1	0	1	0	53.3968425613077	0
4.52	53.5478506768532	0	1	0	1	0	53.5478506768532	0
4.53	53.6993506067649	0	1	0	1	0	53.6993506067649	0
4.54	53.851341658613	0	1	0	1	0	53.851341658613	0
4.55	54.003823146055	0	1	0	1	0	54.003823146055	0
4.56	54.1567943887689	0	1	0	1	0	54.1567943887689	0
4.57	54.3102547123874	0	1	0	1	0	54.3102547123874	0
4.58	54.4642034484328	0	1	0	1	0	54.4642034484328	0
4.59	54.618639934253	0	1	0	1	0	54.618639934253	0
4.6	54.7735635129581	0	1	0	1	0	54.7735635129581	0
4.61	54.9289735333579	0	1	0	1	0	54.9289735333579	0
4.62	55.0848693499	0	1	0	1	0	55.0848693499	0
4.63	55.2412503226094	0	1	0	1	0	55.2412503226094	0
4.64	55.398115817028	0	1	0	1	0	55.398115817028	0
4.65	55.5554652041555	0	1	0	1	0	55.5554652041555	0
4.66	55.7132978603906	0	1	0	1	0	55.7132978603906	0
4.67	55.8716131674734	0	1	0	1	0	55.8716131674734	0
4.68	56.0304105124283	0	1	0	1	0	56.0304105124283	0
4.69	56.1896892875076	0	1	0	1	0	56.1896892875076	0
4.7	56.349448890136	0	1	0	1	0	56.349448890136	0
4.71	56.5096887228555	0	1	0	1	0	56.5096887228555	0
4.72	56.6704081932713	0	1	0	1	0	56.6704081932713	0
4.73	56.8316067139985	0	1	0	1	0	56.8316067139985	0
4.74	56.9932837026087	0	1	0	1	0	56.9932837026087	0
4.75	57.1554385815784	0	1	0	1	0	57.1554385815784	0
4.76	57.3180707782372	0	1	0	1	0	57.3180707782372	0
4.77	57.4811797247169	0	1	0	1	0	57.4811797247169	0
4.78	57.6447648579014	0	1	0	1	0	57.6447648579014	0
4.79	57.808825619377	0	1	0	1	0	57.808825619377	0
4.8	57.9733614553834	0	1	0	1	0	57.9733614553834	0
4.81	58.1383718167655	0	1	0	1	0	58.1383718167655	0
4.82	58.3038561589253	0	1	0	1	0	58.3038561589253	0
4.83	58.4698139417752	0	1	0	1	0	58.4698139417752	0
4.84	58.6362446296909	0	1	0	1	0	58.6362446296909	0
4.85	58.8031476914658	0	1	0	1	0	58.8031476914658	0
4.86	58.9705226002652	0	1	0	1	0	58.9705226002652	0
4.87	59.1383688335818	0	1	0	1	0	59.1383688335818	0
4.88	59.3066858731908	0	1	0	1	0	59.3066858731908	0
4.89	59.4754732051068	0	1	0	1	0	59.4754732051068	0
4.9	59.6447303195401	0	1	0	1	0	59.6447303195401	0
4.91	59.814456710854	0	1	0	1	0	59.814456710854	0
4.92	59.9846518775227	0	1	0	1	0	59.9846518775227	0
4.93	60.1553153220895	0	1	0	1	0	60.1553153220895	0
