# GHZ S RI R 50
1	59.5593814110444	0	1	0	1	0	59.5593814110444	0
1.01	59.0741856706411	0	1	0	1	0	59.0741856706411	0
1.02	58.5997287762952	0	1	0	1	0	58.5997287762952	0
1.03	58.1357099590423	0	1	0	1	0	58.1357099590423	0
1.04	57.6818400179549	0	1	0	1	0	57.6818400179549	0
1.05	57.2378407692836	0	1	0	1	0	57.2378407692836	0
1.06	56.8034445267792	0	1	0	1	0	56.8034445267792	0
1.07	56.3783936111551	0	1	0	1	0	56.3783936111551	0
1.08	55.9624398868016	0	1	0	1	0	55.9624398868016	0
1.09	55.5553443240034	0	1	0	1	0	55.5553443240034	0
1.1	55.1568765850346	0	1	0	1	0	55.1568765850346	0
1.11	54.7668146326279	0	1	0	1	0	54.7668146326279	0
1.12	54.3849443594185	0	1	0	1	0	54.3849443594185	0
1.13	54.0110592370633	0	1	0	1	0	54.0110592370633	0
1.14	53.6449599838277	0	1	0	1	0	53.6449599838277	0
1.15	53.2864542495158	0	1	0	1	0	53.2864542495158	0
1.16	52.9353563166969	0	1	0	1	0	52.9353563166969	0
1.17	52.5914868172544	0	1	0	1	0	52.5914868172544	0
1.18	52.2546724633466	0	1	0	1	0	52.2546724633466	0
1.19	51.9247457919334	0	1	0	1	0	51.9247457919334	0
1.2	51.6015449220759	0	1	0	1	0	51.6015449220759	0
1.21	51.2849133242713	0	1	0	1	0	51.2849133242713	0
1.22	50.9746996011316	0	1	0	1	0	50.9746996011316	0
1.23	50.670757278761	0	1	0	1	0	50.670757278761	0
1.24	50.3729446082283	0	1	0	1	0	50.3729446082283	0
1.25	50.0811243765678	0	1	0	1	0	50.0811243765678	0
1.26	49.7951637267813	0	1	0	1	0	49.7951637267813	0
1.27	49.5149339863428	0	1	0	1	0	49.5149339863428	0
1.28	49.2403105037426	0	1	0	1	0	49.2403105037426	0
1.29	48.9711724926345	0	1	0	1	0	48.9711724926345	0
1.3	48.7074028831748	0	1	0	1	0	48.7074028831748	0
1.31	48.4488881801717	0	1	0	1	0	48.4488881801717	0
1.32	48.1955183276818	0	1	0	1	0	48.1955183276818	0
1.33	47.9471865797148	0	1	0	1	0	47.9471865797148	0
1.34	47.7037893767276	0	1	0	1	0	47.7037893767276	0
1.35	47.4652262276083	0	1	0	1	0	47.4652262276083	0
1.36	47.2313995968659	0	1	0	1	0	47.2313995968659	0
1.37	47.002214796761	0	1	0	1	0	47.002214796761	0
1.38	46.7775798841261	0	1	0	1	0	46.7775798841261	0
1.39	46.5574055616406	0	1	0	1	0	46.5574055616406	0
1.4	46.3416050833356	0	1	0	1	0	46.3416050833356	0
1.41	46.130094164121	0	1	0	1	0	46.130094164121	0
1.42	45.9227908931344	0	1	0	1	0	45.9227908931344	0
1.43	45.7196156507265	0	1	0	1	0	45.7196156507265	0
1.44	45.5204910289048	0	1	0	1	0	45.5204910289048	0
1.45	45.3253417550697	0	1	0	1	0	45.3253417550697	0
1.46	45.1340946188847	0	1	0	1	0	45.1340946188847	0
1.47	44.9466784021312	0	1	0	1	0	44.9466784021312	0
1.48	44.7630238114074	0	1	0	1	0	44.7630238114074	0
1.49	44.583063413537	0	1	0	1	0	44.583063413537	0
1.5	44.4067315735618	0	1	0	1	0	44.4067315735618	0
1.51	44.2339643951979	0	1	0	1	0	44.2339643951979	0
1.52	44.0646996636425	0	1	0	1	0	44.0646996636425	0
1.53	43.8988767906238	0	1	0	1	0	43.8988767906238	0
1.54	43.7364367615912	0	1	0	1	0	43.7364367615912	0
1.55	43.5773220849502	0	1	0	1	0	43.5773220849502	0
1.56	43.42147674325	0	1	0	1	0	43.42147674325	0
1.57	43.2688461462356	0	1	0	1	0	43.2688461462356	0
1.58	43.1193770856842	0	1	0	1	0	43.1193770856842	0
1.59	42.9730176919443	0	1	0	1	0	42.9730176919443	0
1.6	42.8297173921058	0	1	0	1	0	42.8297173921058	0
1.61	42.6894268697286	0	1	0	1	0	42.6894268697286	0
1.62	42.5520980260622	0	1	0	1	0	42.5520980260622	0
1.63	42.4176839426937	0	1	0	1	0	42.4176839426937	0
1.64	42.2861388455617	0	1	0	1	0	42.2861388455617	0
1.65	42.1574180702789	0	1	0	1	0	42.1574180702789	0
1.66	42.0314780287085	0	1	0	1	0	42.0314780287085	0
1.67	41.9082761767408	0	1	0	1	0	41.9082761767408	0
1.68	41.7877709832212	0	1	0	1	0	41.7877709832212	0
1.69	41.6699218999808	0	1	0	1	0	41.6699218999808	0
1.7	41.5546893329255	0	1	0	1	0	41.5546893329255	0
1.71	41.4420346141386	0	1	0	1	0	41.4420346141386	0
1.72	41.3319199749576	0	1	0	1	0	41.3319199749576	0
1.73	41.2243085199835	0	1	0	1	0	41.2243085199835	0
1.74	41.1191642019877	0	1	0	1	0	41.1191642019877	0
1.75	41.0164517976781	0	1	0	1	0	41.0164517976781	0
1.76	40.916136884292	0	1	0	1	0	40.916136884292	0
1.77	40.8181858169821	0	1	0	1	0	40.8181858169821	0
1.78	40.7225657069654	0	1	0	1	0	40.7225657069654	0
1.79	40.6292444004035	0	1	0	1	0	40.6292444004035	0
1.8	40.5381904579879	0	1	0	1	0	40.5381904579879	0
1.81	40.4493731352013	0	1	0	1	0	40.4493731352013	0
1.82	40.3627623632302	0	1	0	1	0	40.3627623632302	0
1.83	40.2783287305029	0	1	0	1	0	40.2783287305029	0
1.84	40.1960434648297	0	1	0	1	0	40.1960434648297	0
1.85	40.1158784161221	0	1	0	1	0	40.1158784161221	0
1.86	40.0378060396702	0	1	0	1	0	40.0378060396702	0
1.87	39.9617993799556	0	1	0	1	0	39.9617993799556	0
1.88	39.8878320549814	0	1	0	1	0	39.8878320549814	0
1.89	39.8158782411001	0	1	0	1	0	39.8158782411001	0
1.9	39.7459126583198	0	1	0	1	0	39.7459126583198	0
1.91	39.6779105560726	0	1	0	1	0	39.6779105560726	0
1.92	39.6118476994272	0	1	0	1	0	39.6118476994272	0
1.93	39.547700355731	0	1	0	1	0	39.547700355731	0
1.94	39.4854452816641	0	1	0	1	0	39.4854452816641	0
1.95	39.4250597106931	0	1	0	1	0	39.4250597106931	0
1.96	39.3665213409072	0	1	0	1	0	39.3665213409072	0
1.97	39.3098083232267	0	1	0	1	0	39.3098083232267	0
1.98	39.2548992499673	0	1	0	1	0	39.2548992499673	0
1.99	39.2017731437497	0	1	0	1	0	39.2017731437497	0
2	39.1504094467426	0	1	0	1	0	39.1504094467426	0
2.01	39.1007880102255	0	1	0	1	0	39.1007880102255	0
2.02	39.0528890844625	0	1	0	1	0	39.0528890844625	0
2.03	39.006693308875	0	1	0	1	0	39.006693308875	0
2.04	38.9621817025038	0	1	0	1	0	38.9621817025038	0
2.05	38.9193356547497	0	1	0	1	0	38.9193356547497	0
2.06	38.8781369163844	0	1	0	1	0	38.8781369163844	0
2.07	38.8385675908217	0	1	0	1	0	38.8385675908217	0
2.08	38.8006101256405	0	1	0	1	0	38.8006101256405	0
2.09	38.7642473043512	0	1	0	1	0	38.7642473043512	0
2.1	38.7294622383974	0	1	0	1	0	38.7294622383974	0
2.11	38.6962383593848	0	1	0	1	0	38.6962383593848	0
2.12	38.6645594115305	0	1	0	1	0	38.6645594115305	0
2.13	38.6344094443243	0	1	0	1	0	38.6344094443243	0
2.14	38.6057728053964	0	1	0	1	0	38.6057728053964	0
2.15	38.5786341335841	0	1	0	1	0	38.5786341335841	0
2.16	38.5529783521905	0	1	0	1	0	38.5529783521905	0
2.17	38.5287906624301	0	1	0	1	0	38.5287906624301	0
2.18	38.5060565370549	0	1	0	1	0	38.5060565370549	0
2.19	38.4847617141548	0	1	0	1	0	38.4847617141548	0
2.2	38.4648921911268	0	1	0	1	0	38.4648921911268	0
2.21	38.4464342188092	0	1	0	1	0	38.4464342188092	0
2.22	38.4293742957725	0	1	0	1	0	38.4293742957725	0
2.23	38.4136991627657	0	1	0	1	0	38.4136991627657	0
2.24	38.3993957973097	0	1	0	1	0	38.3993957973097	0
2.25	38.3864514084364	0	1	0	1	0	38.3864514084364	0
2.26	38.3748534315666	0	1	0	1	0	38.3748534315666	0
2.27	38.3645895235232	0	1	0	1	0	38.3645895235232	0
2.28	38.3556475576761	0	1	0	1	0	38.3556475576761	0
2.29	38.3480156192141	0	1	0	1	0	38.3480156192141	0
2.3	38.3416820005402	0	1	0	1	0	38.3416820005402	0
2.31	38.3366351967861	0	1	0	1	0	38.3366351967861	0
2.32	38.3328639014436	0	1	0	1	0	38.3328639014436	0
2.33	38.3303570021073	0	1	0	1	0	38.3303570021073	0
2.34	38.3291035763278	0	1	0	1	0	38.3291035763278	0
2.35	38.3290928875696	0	1	0	1	0	38.3290928875696	0
2.36	38.3303143812723	0	1	0	1	0	38.3303143812723	0
2.37	38.3327576810115	0	1	0	1	0	38.3327576810115	0
2.38	38.3364125847567	0	1	0	1	0	38.3364125847567	0
2.39	38.3412690612225	0	1	0	1	0	38.3412690612225	0
2.4	38.3473172463118	0	1	0	1	0	38.3473172463118	0
2.41	38.3545474396466	0	1	0	1	0	38.3545474396466	0
2.42	38.362950101186	0	1	0	1	0	38.362950101186	0
2.43	38.3725158479268	0	1	0	1	0	38.3725158479268	0
2.44	38.3832354506855	0	1	0	1	0	38.3832354506855	0
2.45	38.395099830959	0	1	0	1	0	38.395099830959	0
2.46	38.4081000578623	0	1	0	1	0	38.4081000578623	0
2.47	38.42222734514	0	1	0	1	0	38.42222734514	0
2.48	38.4374730482507	0	1	0	1	0	38.4374730482507	0
2.49	38.4538286615209	0	1	0	1	0	38.4538286615209	0
2.5	38.4712858153681	0	1	0	1	0	38.4712858153681	0
2.51	38.4898362735893	0	1	0	1	0	38.4898362735893	0
2.52	38.5094719307151	0	1	0	1	0	38.5094719307151	0
2.53	38.5301848094259	0	1	0	1	0	38.5301848094259	0
2.54	38.5519670580289	0	1	0	1	0	38.5519670580289	0
2.55	38.5748109479954	0	1	0	1	0	38.5748109479954	0
2.56	38.5987088715547	0	1	0	1	0	38.5987088715547	0
2.57	38.6236533393451	0	1	0	1	0	38.6236533393451	0
2.58	38.6496369781192	0	1	0	1	0	38.6496369781192	0
2.59	38.6766525285018	0	1	0	1	0	38.6766525285018	0
2.6	38.7046928428006	0	1	0	1	0	38.7046928428006	0
2.61	38.7337508828666	0	1	0	1	0	38.7337508828666	0
2.62	38.7638197180032	0	1	0	1	0	38.7638197180032	0
2.63	38.7948925229238	0	1	0	1	0	38.7948925229238	0
2.64	38.8269625757551	0	1	0	1	0	38.8269625757551	0
2.65	38.8600232560862	0	1	0	1	0	38.8600232560862	0
2.66	38.8940680430611	0	1	0	1	0	38.8940680430611	0
2.67	38.9290905135147	0	1	0	1	0	38.9290905135147	0
2.68	38.9650843401499	0	1	0	1	0	38.9650843401499	0
2.69	39.0020432897557	0	1	0	1	0	39.0020432897557	0
2.7	39.0399612214653	0	1	0	1	0	39.0399612214653	0
2.71	39.0788320850517	0	1	0	1	0	39.0788320850517	0
2.72	39.118649919262	0	1	0	1	0	39.118649919262	0
2.73	39.1594088501874	0	1	0	1	0	39.1594088501874	0
2.74	39.2011030896701	0	1	0	1	0	39.2011030896701	0
2.75	39.2437269337431	0	1	0	1	0	39.2437269337431	0
2.76	39.287274761106	0	1	0	1	0	39.287274761106	0
2.77	39.3317410316322	0	1	0	1	0	39.3317410316322	0
2.78	39.3771202849093	0	1	0	1	0	39.3771202849093	0
2.79	39.4234071388103	0	1	0	1	0	39.4234071388103	0
2.8	39.4705962880956	0	1	0	1	0	39.4705962880956	0
2.81	39.5186825030454	0	1	0	1	0	39.5186825030454	0
2.82	39.5676606281199	0	1	0	1	0	39.5676606281199	0
2.83	39.6175255806494	0	1	0	1	0	39.6175255806494	0
2.84	39.668272349551	0	1	0	1	0	39.668272349551	0
2.85	39.7198959940727	0	1	0	1	0	39.7198959940727	0
2.86	39.7723916425641	0	1	0	1	0	39.7723916425641	0
2.87	39.8257544912723	0	1	0	1	0	39.8257544912723	0
2.88	39.8799798031631	0	1	0	1	0	39.8799798031631	0
2.89	39.9350629067669	0	1	0	1	0	39.9350629067669	0
2.9	39.9909991950482	0	1	0	1	0	39.9909991950482	0
2.91	40.0477841242982	0	1	0	1	0	40.0477841242982	0
2.92	40.105413213051	0	1	0	1	0	40.105413213051	0
2.93	40.163882041021	0	1	0	1	0	40.163882041021	0
2.94	40.2231862480624	0	1	0	1	0	40.2231862480624	0
2.95	40.2833215331502	0	1	0	1	0	40.2833215331502	0
2.96	40.3442836533813	0	1	0	1	0	40.3442836533813	0
2.97	40.4060684229962	0	1	0	1	0	40.4060684229962	0
2.98	40.4686717124197	0	1	0	1	0	40.4686717124197	0
2.99	40.5320894473223	0	1	0	1	0	40.5320894473223	0
3	40.5963176076985	0	1	0	1	0	40.5963176076985	0
3.01	40.6613522269649	0	1	0	1	0	40.6613522269649	0
3.02	40.7271893910756	0	1	0	1	0	40.7271893910756	0
3.03	40.7938252376555	0	1	0	1	0	40.7938252376555	0
3.04	40.8612559551498	0	1	0	1	0	40.8612559551498	0
3.05	40.9294777819917	0	1	0	1	0	40.9294777819917	0
3.06	40.9984870057851	0	1	0	1	0	40.9984870057851	0
3.07	41.0682799625037	0	1	0	1	0	41.0682799625037	0
3.08	41.1388530357061	0	1	0	1	0	41.1388530357061	0
3.09	41.2102026557658	0	1	0	1	0	41.2102026557658	0
3.1	41.2823252991158	0	1	0	1	0	41.2823252991158	0
3.11	41.3552174875083	0	1	0	1	0	41.3552174875083	0
3.12	41.4288757872885	0	1	0	1	0	41.4288757872885	0
3.13	41.5032968086822	0	1	0	1	0	41.5032968086822	0
3.14	41.5784772050969	0	1	0	1	0	41.5784772050969	0
3.15	41.6544136724367	0	1	0	1	0	41.6544136724367	0
3.16	41.7311029484296	0	1	0	1	0	41.7311029484296	0
3.17	41.8085418119678	0	1	0	1	0	41.8085418119678	0
3.18	41.8867270824608	0	1	0	1	0	41.8867270824608	0
3.19	41.9656556191999	0	1	0	1	0	41.9656556191999	0
3.2	42.0453243207354	0	1	0	1	0	42.0453243207354	0
3.21	42.125730124265	0	1	0	1	0	42.125730124265	0
3.22	42.2068700050334	0	1	0	1	0	42.2068700050334	0
3.23	42.2887409757438	0	1	0	1	0	42.2887409757438	0
3.24	42.3713400859796	0	1	0	1	0	42.3713400859796	0
3.25	42.4546644216368	0	1	0	1	0	42.4546644216368	0
3.26	42.5387111043675	0	1	0	1	0	42.5387111043675	0
3.27	42.6234772910328	0	1	0	1	0	42.6234772910328	0
3.28	42.7089601731663	0	1	0	1	0	42.7089601731663	0
3.29	42.7951569764472	0	1	0	1	0	42.7951569764472	0
3.3	42.8820649601826	0	1	0	1	0	42.8820649601826	0
3.31	42.9696814167999	0	1	0	1	0	42.9696814167999	0
3.32	43.0580036713478	0	1	0	1	0	43.0580036713478	0
3.33	43.1470290810066	0	1	0	1	0	43.1470290810066	0
3.34	43.2367550346071	0	1	0	1	0	43.2367550346071	0
3.35	43.3271789521582	0	1	0	1	0	43.3271789521582	0
3.36	43.4182982843831	0	1	0	1	0	43.4182982843831	0
3.37	43.5101105122634	0	1	0	1	0	43.5101105122634	0
3.38	43.6026131465916	0	1	0	1	0	43.6026131465916	0
3.39	43.6958037275312	0	1	0	1	0	43.6958037275312	0
3.4	43.7896798241853	0	1	0	1	0	43.7896798241853	0
3.41	43.8842390341716	0	1	0	1	0	43.8842390341716	0
3.42	43.979478983206	0	1	0	1	0	43.979478983206	0
3.43	44.0753973246928	0	1	0	1	0	44.0753973246928	0
3.44	44.1719917393224	0	1	0	1	0	44.1719917393224	0
3.45	44.2692599346755	0	1	0	1	0	44.2692599346755	0
3.46	44.367199644835	0	1	0	1	0	44.367199644835	0
3.47	44.4658086300038	0	1	0	1	0	44.4658086300038	0
3.48	44.5650846761295	0	1	0	1	0	44.5650846761295	0
3.49	44.6650255945358	0	1	0	1	0	44.6650255945358	0
3.5	44.7656292215598	0	1	0	1	0	44.7656292215598	0
3.51	44.8668934181957	0	1	0	1	0	44.8668934181957	0
3.52	44.9688160697446	0	1	0	1	0	44.9688160697446	0
3.53	45.0713950854702	0	1	0	1	0	45.0713950854702	0
3.54	45.1746283982604	0	1	0	1	0	45.1746283982604	0
3.55	45.2785139642942	0	1	0	1	0	45.2785139642942	0
3.56	45.3830497627154	0	1	0	1	0	45.3830497627154	0
3.57	45.48823379531	0	1	0	1	0	45.48823379531	0
3.58	45.5940640861906	0	1	0	1	0	45.5940640861906	0
3.59	45.7005386814853	0	1	0	1	0	45.7005386814853	0
3.6	45.8076556490317	0	1	0	1	0	45.8076556490317	0
3.61	45.9154130780766	0	1	0	1	0	45.9154130780766	0
3.62	46.0238090789801	0	1	0	1	0	46.0238090789801	0
3.63	46.1328417829245	0	1	0	1	0	46.1328417829245	0
3.64	46.2425093416289	0	1	0	1	0	46.2425093416289	0
3.65	46.3528099270674	0	1	0	1	0	46.3528099270674	0
3.66	46.4637417311924	0	1	0	1	0	46.4637417311924	0
3.67	46.5753029656628	0	1	0	1	0	46.5753029656628	0
3.68	46.6874918615757	0	1	0	1	0	46.6874918615757	0
3.69	46.8003066692035	0	1	0	1	0	46.8003066692035	0
3.7	46.9137456577346	0	1	0	1	0	46.9137456577346	0
3.71	47.0278071150182	0	1	0	1	0	47.0278071150182	0
3.72	47.1424893473141	0	1	0	1	0	47.1424893473141	0
3.73	47.2577906790451	0	1	0	1	0	47.2577906790451	0
3.74	47.3737094525549	0	1	0	1	0	47.3737094525549	0
3.75	47.4902440278689	0	1	0	1	0	47.4902440278689	0
3.76	47.6073927824588	0	1	0	1	0	47.6073927824588	0
3.77	47.7251541110116	0	1	0	1	0	47.7251541110116	0
3.78	47.8435264252018	0	1	0	1	0	47.8435264252018	0
3.79	47.9625081534671	0	1	0	1	0	47.9625081534671	0
3.8	48.082097740788	0	1	0	1	0	48.082097740788	0
3.81	48.2022936484708	0	1	0	1	0	48.2022936484708	0
3.82	48.3230943539336	0	1	0	1	0	48.3230943539336	0
3.83	48.4444983504961	0	1	0	1	0	48.4444983504961	0
3.84	48.5665041471728	0	1	0	1	0	48.5665041471728	0
3.85	48.6891102684688	0	1	0	1	0	48.6891102684688	0
3.86	48.8123152541794	0	1	0	1	0	48.8123152541794	0
3.87	48.9361176591923	0	1	0	1	0	48.9361176591923	0
3.88	49.0605160532934	0	1	0	1	0	49.0605160532934	0
3.89	49.1855090209751	0	1	0	1	0	49.1855090209751	0
3.9	49.311095161248	0	1	0	1	0	49.311095161248	0
3.91	49.4372730874549	0	1	0	1	0	49.4372730874549	0
3.92	49.564041427088	0	1	0	1	0	49.564041427088	0
3.93	49.6913988216095	0	1	0	1	0	49.6913988216095	0
3.94	49.8193439262734	0	1	0	1	0	49.8193439262734	0
3.95	49.9478754099518	0	1	0	1	0	49.9478754099518	0
3.96	50.0769919549622	0	1	0	1	0	50.0769919549622	0
3.97	50.2066922568985	0	1	0	1	0	50.2066922568985	0
3.98	50.3369750244646	0	1	0	1	0	50.3369750244646	0
3.99	50.4678389793092	0	1	0	1	0	50.4678389793092	0
4	50.599282855865	0	1	0	1	0	50.599282855865	0
4.01	50.7313054011883	0	1	0	1	0	50.7313054011883	0
4.02	50.8639053748031	0	1	0	1	0	50.8639053748031	0
4.03	50.9970815485453	0	1	0	1	0	50.9970815485453	0
4.04	51.130832706411	0	1	0	1	0	51.130832706411	0
4.05	51.2651576444064	0	1	0	1	0	51.2651576444064	0
4.06	51.4000551703995	0	1	0	1	0	51.4000551703995	0
4.07	51.5355241039746	0	1	0	1	0	51.5355241039746	0
4.08	51.6715632762888	0	1	0	1	0	51.6715632762888	0
4.09	51.8081715299304	0	1	0	1	0	51.8081715299304	0
4.1	51.9453477187794	0	1	0	1	0	51.9453477187794	0
4.11	52.0830907078705	0	1	0	1	0	52.0830907078705	0
4.12	52.2213993732572	0	1	0	1	0	52.2213993732572	0
4.13	52.3602726018789	0	1	0	1	0	52.3602726018789	0
4.14	52.4997092914291	0	1	0	1	0	52.4997092914291	0
4.15	52.6397083502259	0	1	0	1	0	52.6397083502259	0
4.16	52.7802686970844	0	1	0	1	0	52.7802686970844	0
4.17	52.9213892611909	0	1	0	1	0	52.9213892611909	0
4.18	53.0630689819784	0	1	0	1	0	53.0630689819784	0
4.19	53.2053068090051	0	1	0	1	0	53.2053068090051	0
4.2	53.348101701833	0	1	0	1	0	53.348101701833	0
4.21	53.4914526299097	0	1	0	1	0	53.4914526299097	0
4.22	53.6353585724509	0	1	0	1	0	53.6353585724509	0
4.23	53.7798185183254	0	1	0	1	0	53.7798185183254	0
4.24	53.9248314659407	0	1	0	1	0	53.9248314659407	0
4.25	54.0703964231312	0	1	0	1	0	54.0703964231312	0
4.26	54.2165124070473	0	1	0	1	0	54.2165124070473	0
4.27	54.3631784440465	0	1	0	1	0	54.3631784440465	0
4.28	54.5103935695858	0	1	0	1	0	54.5103935695858	0
4.29	54.6581568281156	0	1	0	1	0	54.6581568281156	0
4.3	54.8064672729749	0	1	0	1	0	54.8064672729749	0
4.31	54.9553239662888	0	1	0	1	0	54.9553239662888	0
4.32	55.1047259788661	0	1	0	1	0	55.1047259788661	0
4.33	55.2546723900995	0	1	0	1	0	55.2546723900995	0
4.34	55.4051622878666	0	1	0	1	0	55.4051622878666	0
4.35	55.5561947684322	0	1	0	1	0	55.5561947684322	0
4.36	55.7077689363524	0	1	0	1	0	55.7077689363524	0
4.37	55.8598839043795	0	1	0	1	0	55.8598839043795	0
4.38	56.0125387933686	0	1	0	1	0	56.0125387933686	0
4.39	56.1657327321849	0	1	0	1	0	56.1657327321849	0
4.4	56.3194648576136	0	1	0	1	0	56.3194648576136	0
4.41	56.4737343142689	0	1	0	1	0	56.4737343142689	0
4.42	56.6285402545065	0	1	0	1	0	56.6285402545065	0
4.43	56.7838818383355	0	1	0	1	0	56.7838818383355	0
4.44	56.9397582333326	0	1	0	1	0	56.9397582333326	0
4.45	57.096168614557	0	1	0	1	0	57.096168614557	0
4.46	57.2531121644664	0	1	0	1	0	57.2531121644664	0
4.47	57.4105880728343	0	1	0	1	0	57.4105880728343	0
4.48	57.5685955366684	0	1	0	1	0	57.5685955366684	0
4.49	57.7271337601299	0	1	0	1	0	57.7271337601299	0
4.5	57.8862019544544	0	1	0	1	0	57.8862019544544	0
4.51	58.045799337873	0	1	0	1	0	58.045799337873	0
4.52	58.205925135535	0	1	0	1	0	58.205925135535	0
4.53	58.3665785794319	0	1	0	1	0	58.3665785794319	0
4.54	58.5277589083215	0	1	0	1	0	58.5277589083215	0
4.55	58.6894653676542	0	1	0	1	0	58.6894653676542	0
4.56	58.851697209499	0	1	0	1	0	58.851697209499	0
4.57	59.0144536924713	0	1	0	1	0	59.0144536924713	0
4.58	59.1777340816617	0	1	0	1	0	59.1777340816617	0
4.59	59.3415376485651	0	1	0	1	0	59.3415376485651	0
4.6	59.5058636710112	0	1	0	1	0	59.5058636710112	0
4.61	59.6707114330959	0	1	0	1	0	59.6707114330959	0
4.62	59.8360802251134	0	1	0	1	0	59.8360802251134	0
4.63	60.0019693434892	0	1	0	1	0	60.0019693434892	0
4.64	60.1683780907141	0	1	0	1	0	60.1683780907141	0
4.65	60.3353057752791	0	1	0	1	0	60.3353057752791	0
4.66	60.5027517116107	0	1	0	1	0	60.5027517116107	0
4.67	60.6707152200078	0	1	0	1	0	60.6707152200078	0
4.68	60.8391956265785	0	1	0	1	0	60.8391956265785	0
4.69	61.0081922631784	0	1	0	1	0	61.0081922631784	0
4.7	61.1777044673496	0	1	0	1	0	61.1777044673496	0
4.71	61.34773158226	0	1	0	1	0	61.34773158226	0
4.72	61.5182729566439	0	1	0	1	0	61.5182729566439	0
4.73	61.6893279447433	0	1	0	1	0	61.6893279447433	0
4.74	61.8608959062493	0	1	0	1	0	61.8608959062493	0
4.75	62.0329762062454	0	1	0	1	0	62.0329762062454	0
4.76	62.2055682151504	0	1	0	1	0	62.2055682151504	0
4.77	62.3786713086626	0	1	0	1	0	62.3786713086626	0
4.78	62.5522848677046	0	1	0	1	0	62.5522848677046	0
4.79	62.7264082783687	0	1	0	1	0	62.7264082783687	0
4.8	62.9010409318632	0	1	0	1	0	62.9010409318632	0
4.81	63.076182224459	0	1	0	1	0	63.076182224459	0
4.82	63.2518315574373	0	1	0	1	0	63.2518315574373	0
4.83	63.4279883370376	0	1	0	1	0	63.4279883370376	0
4.84	63.6046519744065	0	1	0	1	0	63.6046519744065	0
4.85	63.7818218855472	0	1	0	1	0	63.7818218855472	0
4.86	63.9594974912692	0	1	0	1	0	63.9594974912692	0
4.87	64.1376782171395	0	1	0	1	0	64.1376782171395	0
4.88	64.3163634934335	0	1	0	1	0	64.3163634934335	0
4.89	64.4955527550869	0	1	0	1	0	64.4955527550869	0
4.9	64.675245441648	0	1	0	1	0	64.675245441648	0
4.91	64.8554409972312	0	1	0	1	0	64.8554409972312	0
4.92	65.0361388704702	0	1	0	1	0	65.0361388704702	0
4.93	65.217338514472	0	1	0	1	0	65.217338514472	0
