# GHZ S RI R 50
1	56.1155448237576	0	1	0	1	0	56.1155448237576	0
1.01	55.6398917897673	0	1	0	1	0	55.6398917897673	0
1.02	55.174606618065	0	1	0	1	0	55.174606618065	0
1.03	54.7193975421999	0	1	0	1	0	54.7193975421999	0
1.04	54.2739840175078	0	1	0	1	0	54.2739840175078	0
1.05	53.8380961867401	0	1	0	1	0	53.8380961867401	0
1.06	53.411474375941	0	1	0	1	0	53.411474375941	0
1.07	52.9938686185917	0	1	0	1	0	52.9938686185917	0
1.08	52.5850382061932	0	1	0	1	0	52.5850382061932	0
1.09	52.1847512635855	0	1	0	1	0	52.1847512635855	0
1.1	51.7927843474329	0	1	0	1	0	51.7927843474329	0
1.11	51.4089220664115	0	1	0	1	0	51.4089220664115	0
1.12	51.032956721745	0	1	0	1	0	51.032956721745	0
1.13	50.6646879668258	0	1	0	1	0	50.6646879668258	0
1.14	50.3039224847523	0	1	0	1	0	50.3039224847523	0
1.15	49.9504736826885	0	1	0	1	0	49.9504736826885	0
1.16	49.6041614020347	0	1	0	1	0	49.6041614020347	0
1.17	49.264811643459	0	1	0	1	0	49.264811643459	0
1.18	48.9322563059124	0	1	0	1	0	48.9322563059124	0
1.19	48.606332938801	0	1	0	1	0	48.606332938801	0
1.2	48.286884506551	0	1	0	1	0	48.286884506551	0
1.21	47.9737591648469	0	1	0	1	0	47.9737591648469	0
1.22	47.6668100478756	0	1	0	1	0	47.6668100478756	0
1.23	47.365895065948	0	1	0	1	0	47.365895065948	0
1.24	47.0708767129131	0	1	0	1	0	47.0708767129131	0
1.25	46.7816218828171	0	1	0	1	0	46.7816218828171	0
1.26	46.4980016952917	0	1	0	1	0	46.4980016952917	0
1.27	46.2198913291931	0	1	0	1	0	46.2198913291931	0
1.28	45.9471698640379	0	1	0	1	0	45.9471698640379	0
1.29	45.6797201288154	0	1	0	1	0	45.6797201288154	0
1.3	45.4174285577766	0	1	0	1	0	45.4174285577766	0
1.31	45.1601850528288	0	1	0	1	0	45.1601850528288	0
1.32	44.9078828521856	0	1	0	1	0	44.9078828521856	0
1.33	44.6604184049408	0	1	0	1	0	44.6604184049408	0
1.34	44.4176912512606	0	1	0	1	0	44.4176912512606	0
1.35	44.1796039078983	0	1	0	1	0	44.1796039078983	0
1.36	43.9460617587621	0	1	0	1	0	43.9460617587621	0
1.37	43.7169729502734	0	1	0	1	0	43.7169729502734	0
1.38	43.4922482912764	0	1	0	1	0	43.4922482912764	0
1.39	43.271801157267	0	1	0	1	0	43.271801157267	0
1.4	43.0555473987273	0	1	0	1	0	43.0555473987273	0
1.41	42.8434052533594	0	1	0	1	0	42.8434052533594	0
1.42	42.6352952620291	0	1	0	1	0	42.6352952620291	0
1.43	42.4311401882349	0	1	0	1	0	42.4311401882349	0
1.44	42.2308649409341	0	1	0	1	0	42.2308649409341	0
1.45	42.0343965005607	0	1	0	1	0	42.0343965005607	0
1.46	41.8416638480848	0	1	0	1	0	41.8416638480848	0
1.47	41.6525978969675	0	1	0	1	0	41.6525978969675	0
1.48	41.467131427873	0	1	0	1	0	41.467131427873	0
1.49	41.2851990260121	0	1	0	1	0	41.2851990260121	0
1.5	41.1067370209894	0	1	0	1	0	41.1067370209894	0
1.51	40.9316834290429	0	1	0	1	0	40.9316834290429	0
1.52	40.7599778975621	0	1	0	1	0	40.7599778975621	0
1.53	40.5915616517823	0	1	0	1	0	40.5915616517823	0
1.54	40.4263774435565	0	1	0	1	0	40.4263774435565	0
1.55	40.2643695021089	0	1	0	1	0	40.2643695021089	0
1.56	40.1054834866838	0	1	0	1	0	40.1054834866838	0
1.57	39.9496664410031	0	1	0	1	0	39.9496664410031	0
1.58	39.7968667494542	0	1	0	1	0	39.7968667494542	0
1.59	39.6470340949304	0	1	0	1	0	39.6470340949304	0
1.6	39.5001194182527	0	1	0	1	0	39.5001194182527	0
1.61	39.3560748791035	0	1	0	1	0	39.3560748791035	0
1.62	39.214853818408	0	1	0	1	0	39.214853818408	0
1.63	39.0764107220989	0	1	0	1	0	39.0764107220989	0
1.64	38.9407011862086	0	1	0	1	0	38.9407011862086	0
1.65	38.8076818832288	0	1	0	1	0	38.8076818832288	0
1.66	38.6773105296879	0	1	0	1	0	38.6773105296879	0
1.67	38.549545854892	0	1	0	1	0	38.549545854892	0
1.68	38.4243475707827	0	1	0	1	0	38.4243475707827	0
1.69	38.3016763428652	0	1	0	1	0	38.3016763428652	0
1.7	38.1814937621621	0	1	0	1	0	38.1814937621621	0
1.71	38.0637623181517	0	1	0	1	0	38.0637623181517	0
1.72	37.9484453726501	0	1	0	1	0	37.9484453726501	0
1.73	37.8355071345988	0	1	0	1	0	37.8355071345988	0
1.74	37.7249126357224	0	1	0	1	0	37.7249126357224	0
1.75	37.6166277070204	0	1	0	1	0	37.6166277070204	0
1.76	37.5106189560605	0	1	0	1	0	37.5106189560605	0
1.77	37.4068537450415	0	1	0	1	0	37.4068537450415	0
1.78	37.3053001695961	0	1	0	1	0	37.3053001695961	0
1.79	37.2059270383036	0	1	0	1	0	37.2059270383036	0
1.8	37.1087038528861	0	1	0	1	0	37.1087038528861	0
1.81	37.0136007890608	0	1	0	1	0	37.0136007890608	0
1.82	36.9205886780235	0	1	0	1	0	36.9205886780235	0
1.83	36.8296389885397	0	1	0	1	0	36.8296389885397	0
1.84	36.7407238096189	0	1	0	1	0	36.7407238096189	0
1.85	36.6538158337516	0	1	0	1	0	36.6538158337516	0
1.86	36.5688883406867	0	1	0	1	0	36.5688883406867	0
1.87	36.485915181729	0	1	0	1	0	36.485915181729	0
1.88	36.4048707645387	0	1	0	1	0	36.4048707645387	0
1.89	36.3257300384127	0	1	0	1	0	36.3257300384127	0
1.9	36.2484684800313	0	1	0	1	0	36.2484684800313	0
1.91	36.173062079652	0	1	0	1	0	36.173062079652	0
1.92	36.0994873277353	0	1	0	1	0	36.0994873277353	0
1.93	36.0277212019862	0	1	0	1	0	36.0277212019862	0
1.94	35.9577411547961	0	1	0	1	0	35.9577411547961	0
1.95	35.8895251010712	0	1	0	1	0	35.8895251010712	0
1.96	35.8230514064343	0	1	0	1	0	35.8230514064343	0
1.97	35.7582988757847	0	1	0	1	0	35.7582988757847	0
1.98	35.6952467422055	0	1	0	1	0	35.6952467422055	0
1.99	35.6338746562055	0	1	0	1	0	35.6338746562055	0
2	35.5741626752829	0	1	0	1	0	35.5741626752829	0
2.01	35.5160912538021	0	1	0	1	0	35.5160912538021	0
2.02	35.4596412331695	0	1	0	1	0	35.4596412331695	0
2.03	35.4047938323007	0	1	0	1	0	35.4047938323007	0
2.04	35.351530638368	0	1	0	1	0	35.351530638368	0
2.05	35.2998335978184	0	1	0	1	0	35.2998335978184	0
2.06	35.2496850076531	0	1	0	1	0	35.2496850076531	0
2.07	35.2010675069606	0	1	0	1	0	35.2010675069606	0
2.08	35.1539640686927	0	1	0	1	0	35.1539640686927	0
2.09	35.108357991678	0	1	0	1	0	35.108357991678	0
2.1	35.0642328928625	0	1	0	1	0	35.0642328928625	0
2.11	35.0215726997715	0	1	0	1	0	35.0215726997715	0
2.12	34.9803616431845	0	1	0	1	0	34.9803616431845	0
2.13	34.9405842500166	0	1	0	1	0	34.9405842500166	0
2.14	34.9022253363995	0	1	0	1	0	34.9022253363995	0
2.15	34.8652700009553	0	1	0	1	0	34.8652700009553	0
2.16	34.8297036182577	0	1	0	1	0	34.8297036182577	0
2.17	34.7955118324736	0	1	0	1	0	34.7955118324736	0
2.18	34.7626805511794	0	1	0	1	0	34.7626805511794	0
2.19	34.7311959393477	0	1	0	1	0	34.7311959393477	0
2.2	34.7010444134966	0	1	0	1	0	34.7010444134966	0
2.21	34.6722126359996	0	1	0	1	0	34.6722126359996	0
2.22	34.6446875095474	0	1	0	1	0	34.6446875095474	0
2.23	34.6184561717602	0	1	0	1	0	34.6184561717602	0
2.24	34.5935059899436	0	1	0	1	0	34.5935059899436	0
2.25	34.5698245559842	0	1	0	1	0	34.5698245559842	0
2.26	34.5473996813815	0	1	0	1	0	34.5473996813815	0
2.27	34.5262193924101	0	1	0	1	0	34.5262193924101	0
2.28	34.5062719254101	0	1	0	1	0	34.5062719254101	0
2.29	34.4875457222004	0	1	0	1	0	34.4875457222004	0
2.3	34.4700294256116	0	1	0	1	0	34.4700294256116	0
2.31	34.4537118751354	0	1	0	1	0	34.4537118751354	0
2.32	34.438582102686	0	1	0	1	0	34.438582102686	0
2.33	34.4246293284709	0	1	0	1	0	34.4246293284709	0
2.34	34.4118429569675	0	1	0	1	0	34.4118429569675	0
2.35	34.4002125730027	0	1	0	1	0	34.4002125730027	0
2.36	34.3897279379315	0	1	0	1	0	34.3897279379315	0
2.37	34.3803789859133	0	1	0	1	0	34.3803789859133	0
2.38	34.3721558202812	0	1	0	1	0	34.3721558202812	0
2.39	34.3650487100027	0	1	0	1	0	34.3650487100027	0
2.4	34.3590480862294	0	1	0	1	0	34.3590480862294	0
2.41	34.354144538932	0	1	0	1	0	34.354144538932	0
2.42	34.3503288136186	0	1	0	1	0	34.3503288136186	0
2.43	34.347591808135	0	1	0	1	0	34.347591808135	0
2.44	34.3459245695422	0	1	0	1	0	34.3459245695422	0
2.45	34.345318291072	0	1	0	1	0	34.345318291072	0
2.46	34.3457643091556	0	1	0	1	0	34.3457643091556	0
2.47	34.3472541005247	0	1	0	1	0	34.3472541005247	0
2.48	34.3497792793834	0	1	0	1	0	34.3497792793834	0
2.49	34.353331594647	0	1	0	1	0	34.353331594647	0
2.5	34.3579029272485	0	1	0	1	0	34.3579029272485	0
2.51	34.3634852875083	0	1	0	1	0	34.3634852875083	0
2.52	34.370070812567	0	1	0	1	0	34.370070812567	0
2.53	34.3776517638793	0	1	0	1	0	34.3776517638793	0
2.54	34.3862205247667	0	1	0	1	0	34.3862205247667	0
2.55	34.3957695980282	0	1	0	1	0	34.3957695980282	0
2.56	34.4062916036062	0	1	0	1	0	34.4062916036062	0
2.57	34.4177792763082	0	1	0	1	0	34.4177792763082	0
2.58	34.4302254635801	0	1	0	1	0	34.4302254635801	0
2.59	34.4436231233319	0	1	0	1	0	34.4436231233319	0
2.6	34.4579653218137	0	1	0	1	0	34.4579653218137	0
2.61	34.4732452315397	0	1	0	1	0	34.4732452315397	0
2.62	34.4894561292608	0	1	0	1	0	34.4894561292608	0
2.63	34.5065913939825	0	1	0	1	0	34.5065913939825	0
2.64	34.5246445050282	0	1	0	1	0	34.5246445050282	0
2.65	34.5436090401469	0	1	0	1	0	34.5436090401469	0
2.66	34.5634786736628	0	1	0	1	0	34.5634786736628	0
2.67	34.5842471746666	0	1	0	1	0	34.5842471746666	0
2.68	34.6059084052476	0	1	0	1	0	34.6059084052476	0
2.69	34.6284563187655	0	1	0	1	0	34.6284563187655	0
2.7	34.6518849581595	0	1	0	1	0	34.6518849581595	0
2.71	34.676188454296	0	1	0	1	0	34.676188454296	0
2.72	34.7013610243523	0	1	0	1	0	34.7013610243523	0
2.73	34.7273969702355	0	1	0	1	0	34.7273969702355	0
2.74	34.7542906770368	0	1	0	1	0	34.7542906770368	0
2.75	34.7820366115186	0	1	0	1	0	34.7820366115186	0
2.76	34.8106293206351	0	1	0	1	0	34.8106293206351	0
2.77	34.8400634300851	0	1	0	1	0	34.8400634300851	0
2.78	34.8703336428953	0	1	0	1	0	34.8703336428953	0
2.79	34.9014347380346	0	1	0	1	0	34.9014347380346	0
2.8	34.9333615690582	0	1	0	1	0	34.9333615690582	0
2.81	34.9661090627803	0	1	0	1	0	34.9661090627803	0
2.82	34.9996722179751	0	1	0	1	0	34.9996722179751	0
2.83	35.0340461041055	0	1	0	1	0	35.0340461041055	0
2.84	35.0692258600787	0	1	0	1	0	35.0692258600787	0
2.85	35.1052066930276	0	1	0	1	0	35.1052066930276	0
2.86	35.1419838771184	0	1	0	1	0	35.1419838771184	0
2.87	35.1795527523823	0	1	0	1	0	35.1795527523823	0
2.88	35.2179087235727	0	1	0	1	0	35.2179087235727	0
2.89	35.2570472590446	0	1	0	1	0	35.2570472590446	0
2.9	35.2969638896587	0	1	0	1	0	35.2969638896587	0
2.91	35.3376542077071	0	1	0	1	0	35.3376542077071	0
2.92	35.3791138658614	0	1	0	1	0	35.3791138658614	0
2.93	35.4213385761426	0	1	0	1	0	35.4213385761426	0
2.94	35.4643241089114	0	1	0	1	0	35.4643241089114	0
2.95	35.5080662918795	0	1	0	1	0	35.5080662918795	0
2.96	35.5525610091408	0	1	0	1	0	35.5525610091408	0
2.97	35.5978042002226	0	1	0	1	0	35.5978042002226	0
2.98	35.643791859155	0	1	0	1	0	35.643791859155	0
2.99	35.6905200335595	0	1	0	1	0	35.6905200335595	0
3	35.7379848237562	0	1	0	1	0	35.7379848237562	0
3.01	35.7861823818882	0	1	0	1	0	35.7861823818882	0
3.02	35.8351089110635	0	1	0	1	0	35.8351089110635	0
3.03	35.8847606645141	0	1	0	1	0	35.8847606645141	0
3.04	35.9351339447716	0	1	0	1	0	35.9351339447716	0
3.05	35.986225102859	0	1	0	1	0	35.986225102859	0
3.06	36.0380305374983	0	1	0	1	0	36.0380305374983	0
3.07	36.0905466943337	0	1	0	1	0	36.0905466943337	0
3.08	36.1437700651699	0	1	0	1	0	36.1437700651699	0
3.09	36.1976971872251	0	1	0	1	0	36.1976971872251	0
3.1	36.2523246423986	0	1	0	1	0	36.2523246423986	0
3.11	36.3076490565523	0	1	0	1	0	36.3076490565523	0
3.12	36.3636670988064	0	1	0	1	0	36.3636670988064	0
3.13	36.4203754808483	0	1	0	1	0	36.4203754808483	0
3.14	36.4777709562545	0	1	0	1	0	36.4777709562545	0
3.15	36.5358503198262	0	1	0	1	0	36.5358503198262	0
3.16	36.5946104069365	0	1	0	1	0	36.5946104069365	0
3.17	36.6540480928908	0	1	0	1	0	36.6540480928908	0
3.18	36.714160292299	0	1	0	1	0	36.714160292299	0
3.19	36.7749439584589	0	1	0	1	0	36.7749439584589	0
3.2	36.8363960827525	0	1	0	1	0	36.8363960827525	0
3.21	36.898513694052	0	1	0	1	0	36.898513694052	0
3.22	36.9612938581382	0	1	0	1	0	36.9612938581382	0
3.23	37.0247336771291	0	1	0	1	0	37.0247336771291	0
3.24	37.0888302889188	0	1	0	1	0	37.0888302889188	0
3.25	37.1535808666273	0	1	0	1	0	37.1535808666273	0
3.26	37.2189826180605	0	1	0	1	0	37.2189826180605	0
3.27	37.2850327851794	0	1	0	1	0	37.2850327851794	0
3.28	37.3517286435796	0	1	0	1	0	37.3517286435796	0
3.29	37.4190675019802	0	1	0	1	0	37.4190675019802	0
3.3	37.487046701722	0	1	0	1	0	37.487046701722	0
3.31	37.5556636162743	0	1	0	1	0	37.5556636162743	0
3.32	37.6249156507518	0	1	0	1	0	37.6249156507518	0
3.33	37.6948002414385	0	1	0	1	0	37.6948002414385	0
3.34	37.765314855322	0	1	0	1	0	37.765314855322	0
3.35	37.8364569896346	0	1	0	1	0	37.8364569896346	0
3.36	37.9082241714035	0	1	0	1	0	37.9082241714035	0
3.37	37.9806139570088	0	1	0	1	0	37.9806139570088	0
3.38	38.0536239317489	0	1	0	1	0	38.0536239317489	0
3.39	38.1272517094146	0	1	0	1	0	38.1272517094146	0
3.4	38.2014949318695	0	1	0	1	0	38.2014949318695	0
3.41	38.2763512686388	0	1	0	1	0	38.2763512686388	0
3.42	38.3518184165044	0	1	0	1	0	38.3518184165044	0
3.43	38.4278940991084	0	1	0	1	0	38.4278940991084	0
3.44	38.5045760665617	0	1	0	1	0	38.5045760665617	0
3.45	38.5818620950611	0	1	0	1	0	38.5818620950611	0
3.46	38.6597499865121	0	1	0	1	0	38.6597499865121	0
3.47	38.7382375681584	0	1	0	1	0	38.7382375681584	0
3.48	38.817322692218	0	1	0	1	0	38.817322692218	0
3.49	38.8970032355251	0	1	0	1	0	38.8970032355251	0
3.5	38.977277099179	0	1	0	1	0	38.977277099179	0
3.51	39.0581422081978	0	1	0	1	0	39.0581422081978	0
3.52	39.139596511179	0	1	0	1	0	39.139596511179	0
3.53	39.2216379799656	0	1	0	1	0	39.2216379799656	0
3.54	39.3042646093175	0	1	0	1	0	39.3042646093175	0
3.55	39.3874744165888	0	1	0	1	0	39.3874744165888	0
3.56	39.4712654414107	0	1	0	1	0	39.4712654414107	0
3.57	39.5556357453792	0	1	0	1	0	39.5556357453792	0
3.58	39.6405834117484	0	1	0	1	0	39.6405834117484	0
3.59	39.726106545129	0	1	0	1	0	39.726106545129	0
3.6	39.8122032711916	0	1	0	1	0	39.8122032711916	0
3.61	39.8988717363748	0	1	0	1	0	39.8988717363748	0
3.62	39.9861101075988	0	1	0	1	0	39.9861101075988	0
3.63	40.0739165719828	0	1	0	1	0	40.0739165719828	0
3.64	40.162289336568	0	1	0	1	0	40.162289336568	0
3.65	40.2512266280443	0	1	0	1	0	40.2512266280443	0
3.66	40.3407266924819	0	1	0	1	0	40.3407266924819	0
3.67	40.4307877950678	0	1	0	1	0	40.4307877950678	0
3.68	40.5214082198454	0	1	0	1	0	40.5214082198454	0
3.69	40.6125862694591	0	1	0	1	0	40.6125862694591	0
3.7	40.7043202649035	0	1	0	1	0	40.7043202649035	0
3.71	40.7966085452754	0	1	0	1	0	40.7966085452754	0
3.72	40.8894494675308	0	1	0	1	0	40.8894494675308	0
3.73	40.9828414062456	0	1	0	1	0	40.9828414062456	0
3.74	41.0767827533797	0	1	0	1	0	41.0767827533797	0
3.75	41.1712719180457	0	1	0	1	0	41.1712719180457	0
3.76	41.2663073262803	0	1	0	1	0	41.2663073262803	0
3.77	41.3618874208202	0	1	0	1	0	41.3618874208202	0
3.78	41.458010660881	0	1	0	1	0	41.458010660881	0
3.79	41.55467552194	0	1	0	1	0	41.55467552194	0
3.8	41.651880495522	0	1	0	1	0	41.651880495522	0
3.81	41.7496240889888	0	1	0	1	0	41.7496240889888	0
3.82	41.847904825332	0	1	0	1	0	41.847904825332	0
3.83	41.9467212429688	0	1	0	1	0	41.9467212429688	0
3.84	42.0460718955413	0	1	0	1	0	42.0460718955413	0
3.85	42.1459553517186	0	1	0	1	0	42.1459553517186	0
3.86	42.2463701950023	0	1	0	1	0	42.2463701950023	0
3.87	42.3473150235349	0	1	0	1	0	42.3473150235349	0
3.88	42.4487884499108	0	1	0	1	0	42.4487884499108	0
3.89	42.550789100991	0	1	0	1	0	42.550789100991	0
3.9	42.6533156177199	0	1	0	1	0	42.6533156177199	0
3.91	42.7563666549453	0	1	0	1	0	42.7563666549453	0
3.92	42.859940881241	0	1	0	1	0	42.859940881241	0
3.93	42.9640369787323	0	1	0	1	0	42.9640369787323	0
3.94	43.0686536429237	0	1	0	1	0	43.0686536429237	0
3.95	43.1737895825302	0	1	0	1	0	43.1737895825302	0
3.96	43.2794435193097	0	1	0	1	0	43.2794435193097	0
3.97	43.3856141878992	0	1	0	1	0	43.3856141878992	0
3.98	43.4923003356531	0	1	0	1	0	43.4923003356531	0
3.99	43.5995007224835	0	1	0	1	0	43.5995007224835	0
4	43.7072141207033	0	1	0	1	0	43.7072141207033	0
4.01	43.8154393148718	0	1	0	1	0	43.8154393148718	0
4.02	43.9241751016423	0	1	0	1	0	43.9241751016423	0
4.03	44.0334202896118	0	1	0	1	0	44.0334202896118	0
4.04	44.1431736991734	0	1	0	1	0	44.1431736991734	0
4.05	44.2534341623707	0	1	0	1	0	44.2534341623707	0
4.06	44.3642005227544	0	1	0	1	0	44.3642005227544	0
4.07	44.4754716352404	0	1	0	1	0	44.4754716352404	0
4.08	44.5872463659714	0	1	0	1	0	44.5872463659714	0
4.09	44.6995235921787	0	1	0	1	0	44.6995235921787	0
4.1	44.8123022020479	0	1	0	1	0	44.8123022020479	0
4.11	44.9255810945848	0	1	0	1	0	44.9255810945848	0
4.12	45.0393591794846	0	1	0	1	0	45.0393591794846	0
4.13	45.1536353770024	0	1	0	1	0	45.1536353770024	0
4.14	45.2684086178256	0	1	0	1	0	45.2684086178256	0
4.15	45.3836778429482	0	1	0	1	0	45.3836778429482	0
4.16	45.4994420035469	0	1	0	1	0	45.4994420035469	0
4.17	45.6157000608592	0	1	0	1	0	45.6157000608592	0
4.18	45.7324509860628	0	1	0	1	0	45.7324509860628	0
4.19	45.8496937601571	0	1	0	1	0	45.8496937601571	0
4.2	45.9674273738463	0	1	0	1	0	45.9674273738463	0
4.21	46.085650827424	0	1	0	1	0	46.085650827424	0
4.22	46.20436313066	0	1	0	1	0	46.20436313066	0
4.23	46.3235633026875	0	1	0	1	0	46.3235633026875	0
4.24	46.4432503718937	0	1	0	1	0	46.4432503718937	0
4.25	46.5634233758098	0	1	0	1	0	46.5634233758098	0
4.26	46.6840813610048	0	1	0	1	0	46.6840813610048	0
4.27	46.8052233829789	0	1	0	1	0	46.8052233829789	0
4.28	46.9268485060594	0	1	0	1	0	46.9268485060594	0
4.29	47.0489558032978	0	1	0	1	0	47.0489558032978	0
4.3	47.1715443563684	0	1	0	1	0	47.1715443563684	0
4.31	47.2946132554684	0	1	0	1	0	47.2946132554684	0
4.32	47.4181615992187	0	1	0	1	0	47.4181615992187	0
4.33	47.5421884945676	0	1	0	1	0	47.5421884945676	0
4.34	47.6666930566937	0	1	0	1	0	47.6666930566937	0
4.35	47.7916744089124	0	1	0	1	0	47.7916744089124	0
4.36	47.9171316825817	0	1	0	1	0	47.9171316825817	0
4.37	48.0430640170107	0	1	0	1	0	48.0430640170107	0
4.38	48.1694705593688	0	1	0	1	0	48.1694705593688	0
4.39	48.2963504645959	0	1	0	1	0	48.2963504645959	0
4.4	48.4237028953143	0	1	0	1	0	48.4237028953143	0
4.41	48.5515270217416	0	1	0	1	0	48.5515270217416	0
4.42	48.6798220216047	0	1	0	1	0	48.6798220216047	0
4.43	48.8085870800552	0	1	0	1	0	48.8085870800552	0
4.44	48.9378213895856	0	1	0	1	0	48.9378213895856	0
4.45	49.0675241499468	0	1	0	1	0	49.0675241499468	0
4.46	49.1976945680669	0	1	0	1	0	49.1976945680669	0
4.47	49.328331857971	0	1	0	1	0	49.328331857971	0
4.48	49.4594352407015	0	1	0	1	0	49.4594352407015	0
4.49	49.5910039442406	0	1	0	1	0	49.5910039442406	0
4.5	49.7230372034327	0	1	0	1	0	49.7230372034327	0
4.51	49.8555342599085	0	1	0	1	0	49.8555342599085	0
4.52	49.9884943620102	0	1	0	1	0	49.9884943620102	0
4.53	50.1219167647167	0	1	0	1	0	50.1219167647167	0
4.54	50.2558007295713	0	1	0	1	0	50.2558007295713	0
4.55	50.3901455246091	0	1	0	1	0	50.3901455246091	0
4.56	50.5249504242861	0	1	0	1	0	50.5249504242861	0
4.57	50.6602147094086	0	1	0	1	0	50.6602147094086	0
4.58	50.795937667064	0	1	0	1	0	50.795937667064	0
4.59	50.9321185905528	0	1	0	1	0	50.9321185905528	0
4.6	51.0687567793204	0	1	0	1	0	51.0687567793204	0
4.61	51.2058515388909	0	1	0	1	0	51.2058515388909	0
4.62	51.3434021808011	0	1	0	1	0	51.3434021808011	0
4.63	51.4814080225356	0	1	0	1	0	51.4814080225356	0
4.64	51.6198683874631	0	1	0	1	0	51.6198683874631	0
4.65	51.7587826047723	0	1	0	1	0	51.7587826047723	0
4.66	51.8981500094102	0	1	0	1	0	51.8981500094102	0
4.67	52.0379699420202	0	1	0	1	0	52.0379699420202	0
4.68	52.1782417488812	0	1	0	1	0	52.1782417488812	0
4.69	52.3189647818474	0	1	0	1	0	52.3189647818474	0
4.7	52.4601383982894	0	1	0	1	0	52.4601383982894	0
4.71	52.6017619610352	0	1	0	1	0	52.6017619610352	0
4.72	52.7438348383125	0	1	0	1	0	52.7438348383125	0
4.73	52.8863564036918	0	1	0	1	0	52.8863564036918	0
4.74	53.02932603603	0	1	0	1	0	53.02932603603	0
4.75	53.1727431194145	0	1	0	1	0	53.1727431194145	0
4.76	53.3166070431085	0	1	0	1	0	53.3166070431085	0
4.77	53.4609172014967	0	1	0	1	0	53.4609172014967	0
4.78	53.6056729940318	0	1	0	1	0	53.6056729940318	0
4.79	53.7508738251813	0	1	0	1	0	53.7508738251813	0
4.8	53.8965191043757	0	1	0	1	0	53.8965191043757	0
4.81	54.0426082459565	0	1	0	1	0	54.0426082459565	0
4.82	54.1891406691255	0	1	0	1	0	54.1891406691255	0
4.83	54.3361157978944	0	1	0	1	0	54.3361157978944	0
4.84	54.4835330610353	0	1	0	1	0	54.4835330610353	0
4.85	54.6313918920312	0	1	0	1	0	54.6313918920312	0
4.86	54.7796917290279	0	1	0	1	0	54.7796917290279	0
4.87	54.9284320147862	0	1	0	1	0	54.9284320147862	0
4.88	55.077612196634	0	1	0	1	0	55.077612196634	0
4.89	55.2272317264205	0	1	0	1	0	55.2272317264205	0
4.9	55.3772900604693	0	1	0	1	0	55.3772900604693	0
4.91	55.5277866595334	0	1	0	1	0	55.5277866595334	0
4.92	55.6787209887495	0	1	0	1	0	55.6787209887495	0
4.93	55.8300925175944	0	1	0	1	0	55.8300925175944	0
