# GHZ S RI R 50
1	57.4539519526927	0	1	0	1	0	57.4539519526927	0
1.01	56.9734313053664	0	1	0	1	0	56.9734313053664	0
1.02	56.5035213092408	0	1	0	1	0	56.5035213092408	0
1.03	56.0439245710462	0	1	0	1	0	56.0439245710462	0
1.04	55.5943551357153	0	1	0	1	0	55.5943551357153	0
1.05	55.1545379417074	0	1	0	1	0	55.1545379417074	0
1.06	54.7242083071625	0	1	0	1	0	54.7242083071625	0
1.07	54.3031114448696	0	1	0	1	0	54.3031114448696	0
1.08	53.8910020041811	0	1	0	1	0	53.8910020041811	0
1.09	53.4876436381427	0	1	0	1	0	53.4876436381427	0
1.1	53.0928085942351	0	1	0	1	0	53.0928085942351	0
1.11	52.7062773272367	0	1	0	1	0	52.7062773272367	0
1.12	52.3278381328269	0	1	0	1	0	52.3278381328269	0
1.13	51.9572868006433	0	1	0	1	0	51.9572868006433	0
1.14	51.5944262855992	0	1	0	1	0	51.5944262855992	0
1.15	51.2390663963503	0	1	0	1	0	51.2390663963503	0
1.16	50.8910234998743	0	1	0	1	0	50.8910234998743	0
1.17	50.5501202412011	0	1	0	1	0	50.5501202412011	0
1.18	50.2161852773934	0	1	0	1	0	50.2161852773934	0
1.19	49.8890530249405	0	1	0	1	0	49.8890530249405	0
1.2	49.5685634197818	0	1	0	1	0	49.5685634197818	0
1.21	49.2545616892308	0	1	0	1	0	49.2545616892308	0
1.22	48.9468981351152	0	1	0	1	0	48.9468981351152	0
1.23	48.6454279274962	0	1	0	1	0	48.6454279274962	0
1.24	48.3500109083681	0	1	0	1	0	48.3500109083681	0
1.25	48.0605114047817	0	1	0	1	0	48.0605114047817	0
1.26	47.7767980508655	0	1	0	1	0	47.7767980508655	0
1.27	47.4987436182556	0	1	0	1	0	47.4987436182556	0
1.28	47.2262248544747	0	1	0	1	0	47.2262248544747	0
1.29	46.9591223288276	0	1	0	1	0	46.9591223288276	0
1.3	46.6973202854097	0	1	0	1	0	46.6973202854097	0
1.31	46.4407065028479	0	1	0	1	0	46.4407065028479	0
1.32	46.1891721604168	0	1	0	1	0	46.1891721604168	0
1.33	45.9426117101947	0	1	0	1	0	45.9426117101947	0
1.34	45.7009227549442	0	1	0	1	0	45.7009227549442	0
1.35	45.46400593142	0	1	0	1	0	45.46400593142	0
1.36	45.2317647988254	0	1	0	1	0	45.2317647988254	0
1.37	45.0041057321531	0	1	0	1	0	45.0041057321531	0
1.38	44.7809378201644	0	1	0	1	0	44.7809378201644	0
1.39	44.5621727677712	0	1	0	1	0	44.5621727677712	0
1.4	44.3477248026023	0	1	0	1	0	44.3477248026023	0
1.41	44.137510585545	0	1	0	1	0	44.137510585545	0
1.42	43.9314491250677	0	1	0	1	0	43.9314491250677	0
1.43	43.7294616951358	0	1	0	1	0	43.7294616951358	0
1.44	43.531471756549	0	1	0	1	0	43.531471756549	0
1.45	43.3374048815336	0	1	0	1	0	43.3374048815336	0
1.46	43.1471886814325	0	1	0	1	0	43.1471886814325	0
1.47	42.9607527373482	0	1	0	1	0	42.9607527373482	0
1.48	42.7780285335968	0	1	0	1	0	42.7780285335968	0
1.49	42.5989493938414	0	1	0	1	0	42.5989493938414	0
1.5	42.4234504197808	0	1	0	1	0	42.4234504197808	0
1.51	42.251468432274	0	1	0	1	0	42.251468432274	0
1.52	42.0829419147893	0	1	0	1	0	42.0829419147893	0
1.53	41.91781095907	0	1	0	1	0	41.91781095907	0
1.54	41.7560172129181	0	1	0	1	0	41.7560172129181	0
1.55	41.5975038299989	0	1	0	1	0	41.5975038299989	0
1.56	41.4422154215759	0	1	0	1	0	41.4422154215759	0
1.57	41.2900980100906	0	1	0	1	0	41.2900980100906	0
1.58	41.1410989845051	0	1	0	1	0	41.1410989845051	0
1.59	40.9951670573295	0	1	0	1	0	40.9951670573295	0
1.6	40.8522522232611	0	1	0	1	0	40.8522522232611	0
1.61	40.7123057193651	0	1	0	1	0	40.7123057193651	0
1.62	40.5752799867298	0	1	0	1	0	40.5752799867298	0
1.63	40.4411286335331	0	1	0	1	0	40.4411286335331	0
1.64	40.3098063994612	0	1	0	1	0	40.3098063994612	0
1.65	40.1812691214195	0	1	0	1	0	40.1812691214195	0
1.66	40.0554737004848	0	1	0	1	0	40.0554737004848	0
1.67	39.9323780700432	0	1	0	1	0	39.9323780700432	0
1.68	39.811941165067	0	1	0	1	0	39.811941165067	0
1.69	39.6941228924815	0	1	0	1	0	39.6941228924815	0
1.7	39.578884102579	0	1	0	1	0	39.578884102579	0
1.71	39.4661865614338	0	1	0	1	0	39.4661865614338	0
1.72	39.3559929242819	0	1	0	1	0	39.3559929242819	0
1.73	39.2482667098215	0	1	0	1	0	39.2482667098215	0
1.74	39.1429722754018	0	1	0	1	0	39.1429722754018	0
1.75	39.0400747930609	0	1	0	1	0	39.0400747930609	0
1.76	38.9395402263817	0	1	0	1	0	38.9395402263817	0
1.77	38.8413353081315	0	1	0	1	0	38.8413353081315	0
1.78	38.745427518656	0	1	0	1	0	38.745427518656	0
1.79	38.6517850649971	0	1	0	1	0	38.6517850649971	0
1.8	38.5603768607066	0	1	0	1	0	38.5603768607066	0
1.81	38.4711725063299	0	1	0	1	0	38.4711725063299	0
1.82	38.3841422705323	0	1	0	1	0	38.3841422705323	0
1.83	38.2992570718442	0	1	0	1	0	38.2992570718442	0
1.84	38.2164884610019	0	1	0	1	0	38.2164884610019	0
1.85	38.1358086038609	0	1	0	1	0	38.1358086038609	0
1.86	38.0571902648606	0	1	0	1	0	38.0571902648606	0
1.87	37.9806067910189	0	1	0	1	0	37.9806067910189	0
1.88	37.9060320964389	0	1	0	1	0	37.9060320964389	0
1.89	37.8334406473058	0	1	0	1	0	37.8334406473058	0
1.9	37.7628074473588	0	1	0	1	0	37.7628074473588	0
1.91	37.6941080238193	0	1	0	1	0	37.6941080238193	0
1.92	37.627318413758	0	1	0	1	0	37.627318413758	0
1.93	37.5624151508867	0	1	0	1	0	37.5624151508867	0
1.94	37.4993752527581	0	1	0	1	0	37.4993752527581	0
1.95	37.4381762083599	0	1	0	1	0	37.4381762083599	0
1.96	37.378795966088	0	1	0	1	0	37.378795966088	0
1.97	37.3212129220869	0	1	0	1	0	37.3212129220869	0
1.98	37.2654059089424	0	1	0	1	0	37.2654059089424	0
1.99	37.2113541847158	0	1	0	1	0	37.2113541847158	0
2	37.1590374223077	0	1	0	1	0	37.1590374223077	0
2.01	37.1084356991375	0	1	0	1	0	37.1084356991375	0
2.02	37.0595294871316	0	1	0	1	0	37.0595294871316	0
2.03	37.0122996430057	0	1	0	1	0	37.0122996430057	0
2.04	36.9667273988343	0	1	0	1	0	36.9667273988343	0
2.05	36.9227943528952	0	1	0	1	0	36.9227943528952	0
2.06	36.880482460781	0	1	0	1	0	36.880482460781	0
2.07	36.8397740267689	0	1	0	1	0	36.8397740267689	0
2.08	36.8006516954381	0	1	0	1	0	36.8006516954381	0
2.09	36.7630984435291	0	1	0	1	0	36.7630984435291	0
2.1	36.7270975720351	0	1	0	1	0	36.7270975720351	0
2.11	36.6926326985179	0	1	0	1	0	36.6926326985179	0
2.12	36.6596877496421	0	1	0	1	0	36.6596877496421	0
2.13	36.6282469539189	0	1	0	1	0	36.6282469539189	0
2.14	36.5982948346536	0	1	0	1	0	36.5982948346536	0
2.15	36.5698162030901	0	1	0	1	0	36.5698162030901	0
2.16	36.5427961517457	0	1	0	1	0	36.5427961517457	0
2.17	36.5172200479297	0	1	0	1	0	36.5172200479297	0
2.18	36.4930735274414	0	1	0	1	0	36.4930735274414	0
2.19	36.4703424884398	0	1	0	1	0	36.4703424884398	0
2.2	36.449013085481	0	1	0	1	0	36.449013085481	0
2.21	36.4290717237174	0	1	0	1	0	36.4290717237174	0
2.22	36.4105050532536	0	1	0	1	0	36.4105050532536	0
2.23	36.3932999636544	0	1	0	1	0	36.3932999636544	0
2.24	36.3774435785991	0	1	0	1	0	36.3774435785991	0
2.25	36.3629232506797	0	1	0	1	0	36.3629232506797	0
2.26	36.349726556336	0	1	0	1	0	36.349726556336	0
2.27	36.3378412909253	0	1	0	1	0	36.3378412909253	0
2.28	36.3272554639213	0	1	0	1	0	36.3272554639213	0
2.29	36.3179572942391	0	1	0	1	0	36.3179572942391	0
2.3	36.3099352056826	0	1	0	1	0	36.3099352056826	0
2.31	36.3031778225089	0	1	0	1	0	36.3031778225089	0
2.32	36.2976739651088	0	1	0	1	0	36.2976739651088	0
2.33	36.2934126457978	0	1	0	1	0	36.2934126457978	0
2.34	36.2903830647149	0	1	0	1	0	36.2903830647149	0
2.35	36.2885746058267	0	1	0	1	0	36.2885746058267	0
2.36	36.2879768330323	0	1	0	1	0	36.2879768330323	0
2.37	36.2885794863678	0	1	0	1	0	36.2885794863678	0
2.38	36.2903724783055	0	1	0	1	0	36.2903724783055	0
2.39	36.2933458901467	0	1	0	1	0	36.2933458901467	0
2.4	36.2974899685043	0	1	0	1	0	36.2974899685043	0
2.41	36.3027951218731	0	1	0	1	0	36.3027951218731	0
2.42	36.3092519172854	0	1	0	1	0	36.3092519172854	0
2.43	36.3168510770484	0	1	0	1	0	36.3168510770484	0
2.44	36.3255834755627	0	1	0	1	0	36.3255834755627	0
2.45	36.3354401362185	0	1	0	1	0	36.3354401362185	0
2.46	36.3464122283668	0	1	0	1	0	36.3464122283668	0
2.47	36.3584910643653	0	1	0	1	0	36.3584910643653	0
2.48	36.3716680966948	0	1	0	1	0	36.3716680966948	0
2.49	36.3859349151458	0	1	0	1	0	36.3859349151458	0
2.5	36.4012832440722	0	1	0	1	0	36.4012832440722	0
2.51	36.4177049397103	0	1	0	1	0	36.4177049397103	0
2.52	36.4351919875631	0	1	0	1	0	36.4351919875631	0
2.53	36.4537364998444	0	1	0	1	0	36.4537364998444	0
2.54	36.4733307129856	0	1	0	1	0	36.4733307129856	0
2.55	36.4939669851993	0	1	0	1	0	36.4939669851993	0
2.56	36.5156377941011	0	1	0	1	0	36.5156377941011	0
2.57	36.5383357343866	0	1	0	1	0	36.5383357343866	0
2.58	36.562053515562	0	1	0	1	0	36.562053515562	0
2.59	36.5867839597285	0	1	0	1	0	36.5867839597285	0
2.6	36.612519999416	0	1	0	1	0	36.612519999416	0
2.61	36.6392546754685	0	1	0	1	0	36.6392546754685	0
2.62	36.6669811349765	0	1	0	1	0	36.6669811349765	0
2.63	36.6956926292573	0	1	0	1	0	36.6956926292573	0
2.64	36.7253825118809	0	1	0	1	0	36.7253825118809	0
2.65	36.7560442367407	0	1	0	1	0	36.7560442367407	0
2.66	36.7876713561682	0	1	0	1	0	36.7876713561682	0
2.67	36.8202575190886	0	1	0	1	0	36.8202575190886	0
2.68	36.8537964692198	0	1	0	1	0	36.8537964692198	0
2.69	36.8882820433094	0	1	0	1	0	36.8882820433094	0
2.7	36.923708169413	0	1	0	1	0	36.923708169413	0
2.71	36.9600688652085	0	1	0	1	0	36.9600688652085	0
2.72	36.9973582363495	0	1	0	1	0	36.9973582363495	0
2.73	37.0355704748533	0	1	0	1	0	37.0355704748533	0
2.74	37.0746998575256	0	1	0	1	0	37.0746998575256	0
2.75	37.1147407444184	0	1	0	1	0	37.1147407444184	0
2.76	37.155687577322	0	1	0	1	0	37.155687577322	0
2.77	37.1975348782899	0	1	0	1	0	37.1975348782899	0
2.78	37.2402772481947	0	1	0	1	0	37.2402772481947	0
2.79	37.2839093653159	0	1	0	1	0	37.2839093653159	0
2.8	37.3284259839579	0	1	0	1	0	37.3284259839579	0
2.81	37.3738219330965	0	1	0	1	0	37.3738219330965	0
2.82	37.4200921150555	0	1	0	1	0	37.4200921150555	0
2.83	37.4672315042107	0	1	0	1	0	37.4672315042107	0
2.84	37.5152351457215	0	1	0	1	0	37.5152351457215	0
2.85	37.5640981542885	0	1	0	1	0	37.5640981542885	0
2.86	37.6138157129386	0	1	0	1	0	37.6138157129386	0
2.87	37.664383071834	0	1	0	1	0	37.664383071834	0
2.88	37.7157955471069	0	1	0	1	0	37.7157955471069	0
2.89	37.7680485197181	0	1	0	1	0	37.7680485197181	0
2.9	37.8211374343393	0	1	0	1	0	37.8211374343393	0
2.91	37.8750577982584	0	1	0	1	0	37.8750577982584	0
2.92	37.9298051803073	0	1	0	1	0	37.9298051803073	0
2.93	37.9853752098117	0	1	0	1	0	37.9853752098117	0
2.94	38.0417635755622	0	1	0	1	0	38.0417635755622	0
2.95	38.0989660248066	0	1	0	1	0	38.0989660248066	0
2.96	38.1569783622621	0	1	0	1	0	38.1569783622621	0
2.97	38.2157964491482	0	1	0	1	0	38.2157964491482	0
2.98	38.2754162022384	0	1	0	1	0	38.2754162022384	0
2.99	38.3358335929314	0	1	0	1	0	38.3358335929314	0
3	38.3970446463406	0	1	0	1	0	38.3970446463406	0
3.01	38.4590454404016	0	1	0	1	0	38.4590454404016	0
3.02	38.5218321049982	0	1	0	1	0	38.5218321049982	0
3.03	38.5854008211045	0	1	0	1	0	38.5854008211045	0
3.04	38.6497478199452	0	1	0	1	0	38.6497478199452	0
3.05	38.7148693821715	0	1	0	1	0	38.7148693821715	0
3.06	38.7807618370535	0	1	0	1	0	38.7807618370535	0
3.07	38.8474215616884	0	1	0	1	0	38.8474215616884	0
3.08	38.914844980224	0	1	0	1	0	38.914844980224	0
3.09	38.9830285630976	0	1	0	1	0	38.9830285630976	0
3.1	39.0519688262893	0	1	0	1	0	39.0519688262893	0
3.11	39.1216623305894	0	1	0	1	0	39.1216623305894	0
3.12	39.1921056808811	0	1	0	1	0	39.1921056808811	0
3.13	39.2632955254353	0	1	0	1	0	39.2632955254353	0
3.14	39.3352285552203	0	1	0	1	0	39.3352285552203	0
3.15	39.4079015032238	0	1	0	1	0	39.4079015032238	0
3.16	39.4813111437879	0	1	0	1	0	39.4813111437879	0
3.17	39.5554542919573	0	1	0	1	0	39.5554542919573	0
3.18	39.6303278028389	0	1	0	1	0	39.6303278028389	0
3.19	39.7059285709739	0	1	0	1	0	39.7059285709739	0
3.2	39.782253529722	0	1	0	1	0	39.782253529722	0
3.21	39.8592996506561	0	1	0	1	0	39.8592996506561	0
3.22	39.9370639429697	0	1	0	1	0	39.9370639429697	0
3.23	40.015543452894	0	1	0	1	0	40.015543452894	0
3.24	40.0947352631263	0	1	0	1	0	40.0947352631263	0
3.25	40.1746364922694	0	1	0	1	0	40.1746364922694	0
3.26	40.2552442942807	0	1	0	1	0	40.2552442942807	0
3.27	40.3365558579313	0	1	0	1	0	40.3365558579313	0
3.28	40.4185684062759	0	1	0	1	0	40.4185684062759	0
3.29	40.5012791961312	0	1	0	1	0	40.5012791961312	0
3.3	40.5846855175647	0	1	0	1	0	40.5846855175647	0
3.31	40.6687846933924	0	1	0	1	0	40.6687846933924	0
3.32	40.7535740786855	0	1	0	1	0	40.7535740786855	0
3.33	40.839051060286	0	1	0	1	0	40.839051060286	0
3.34	40.9252130563313	0	1	0	1	0	40.9252130563313	0
3.35	41.0120575157871	0	1	0	1	0	41.0120575157871	0
3.36	41.0995819179883	0	1	0	1	0	41.0995819179883	0
3.37	41.1877837721889	0	1	0	1	0	41.1877837721889	0
3.38	41.2766606171192	0	1	0	1	0	41.2766606171192	0
3.39	41.3662100205508	0	1	0	1	0	41.3662100205508	0
3.4	41.4564295788699	0	1	0	1	0	41.4564295788699	0
3.41	41.5473169166577	0	1	0	1	0	41.5473169166577	0
3.42	41.6388696862779	0	1	0	1	0	41.6388696862779	0
3.43	41.7310855674719	0	1	0	1	0	41.7310855674719	0
3.44	41.8239622669609	0	1	0	1	0	41.8239622669609	0
3.45	41.9174975180549	0	1	0	1	0	41.9174975180549	0
3.46	42.0116890802683	0	1	0	1	0	42.0116890802683	0
3.47	42.1065347389423	0	1	0	1	0	42.1065347389423	0
3.48	42.2020323048744	0	1	0	1	0	42.2020323048744	0
3.49	42.2981796139527	0	1	0	1	0	42.2981796139527	0
3.5	42.3949745267984	0	1	0	1	0	42.3949745267984	0
3.51	42.4924149284129	0	1	0	1	0	42.4924149284129	0
3.52	42.5904987278317	0	1	0	1	0	42.5904987278317	0
3.53	42.689223857784	0	1	0	1	0	42.689223857784	0
3.54	42.788588274358	0	1	0	1	0	42.788588274358	0
3.55	42.8885899566718	0	1	0	1	0	42.8885899566718	0
3.56	42.9892269065502	0	1	0	1	0	42.9892269065502	0
3.57	43.0904971482062	0	1	0	1	0	43.0904971482062	0
3.58	43.192398727929	0	1	0	1	0	43.192398727929	0
3.59	43.294929713776	0	1	0	1	0	43.294929713776	0
3.6	43.3980881952706	0	1	0	1	0	43.3980881952706	0
3.61	43.501872283105	0	1	0	1	0	43.501872283105	0
3.62	43.6062801088476	0	1	0	1	0	43.6062801088476	0
3.63	43.7113098246558	0	1	0	1	0	43.7113098246558	0
3.64	43.8169596029926	0	1	0	1	0	43.8169596029926	0
3.65	43.9232276363492	0	1	0	1	0	43.9232276363492	0
3.66	44.0301121369708	0	1	0	1	0	44.0301121369708	0
3.67	44.1376113365877	0	1	0	1	0	44.1376113365877	0
3.68	44.2457234861504	0	1	0	1	0	44.2457234861504	0
3.69	44.3544468555695	0	1	0	1	0	44.3544468555695	0
3.7	44.4637797334592	0	1	0	1	0	44.4637797334592	0
3.71	44.5737204268851	0	1	0	1	0	44.5737204268851	0
3.72	44.6842672611167	0	1	0	1	0	44.6842672611167	0
3.73	44.7954185793829	0	1	0	1	0	44.7954185793829	0
3.74	44.9071727426321	0	1	0	1	0	44.9071727426321	0
3.75	45.0195281292959	0	1	0	1	0	45.0195281292959	0
3.76	45.1324831350567	0	1	0	1	0	45.1324831350567	0
3.77	45.2460361726188	0	1	0	1	0	45.2460361726188	0
3.78	45.3601856714833	0	1	0	1	0	45.3601856714833	0
3.79	45.4749300777264	0	1	0	1	0	45.4749300777264	0
3.8	45.5902678537815	0	1	0	1	0	45.5902678537815	0
3.81	45.7061974782243	0	1	0	1	0	45.7061974782243	0
3.82	45.8227174455618	0	1	0	1	0	45.8227174455618	0
3.83	45.9398262660241	0	1	0	1	0	45.9398262660241	0
3.84	46.0575224653597	0	1	0	1	0	46.0575224653597	0
3.85	46.1758045846341	0	1	0	1	0	46.1758045846341	0
3.86	46.2946711800311	0	1	0	1	0	46.2946711800311	0
3.87	46.4141208226579	0	1	0	1	0	46.4141208226579	0
3.88	46.5341520983524	0	1	0	1	0	46.5341520983524	0
3.89	46.654763607494	0	1	0	1	0	46.654763607494	0
3.9	46.7759539648173	0	1	0	1	0	46.7759539648173	0
3.91	46.8977217992283	0	1	0	1	0	46.8977217992283	0
3.92	47.0200657536238	0	1	0	1	0	47.0200657536238	0
3.93	47.1429844847135	0	1	0	1	0	47.1429844847135	0
3.94	47.2664766628443	0	1	0	1	0	47.2664766628443	0
3.95	47.390540971828	0	1	0	1	0	47.390540971828	0
3.96	47.5151761087714	0	1	0	1	0	47.5151761087714	0
3.97	47.6403807839086	0	1	0	1	0	47.6403807839086	0
3.98	47.7661537204361	0	1	0	1	0	47.7661537204361	0
3.99	47.8924936543505	0	1	0	1	0	47.8924936543505	0
4	48.0193993342884	0	1	0	1	0	48.0193993342884	0
4.01	48.1468695213689	0	1	0	1	0	48.1468695213689	0
4.02	48.2749029890382	0	1	0	1	0	48.2749029890382	0
4.03	48.4034985229168	0	1	0	1	0	48.4034985229168	0
4.04	48.5326549206486	0	1	0	1	0	48.5326549206486	0
4.05	48.6623709917529	0	1	0	1	0	48.6623709917529	0
4.06	48.7926455574775	0	1	0	1	0	48.7926455574775	0
4.07	48.9234774506554	0	1	0	1	0	48.9234774506554	0
4.08	49.0548655155621	0	1	0	1	0	49.0548655155621	0
4.09	49.1868086077762	0	1	0	1	0	49.1868086077762	0
4.1	49.3193055940413	0	1	0	1	0	49.3193055940413	0
4.11	49.4523553521303	0	1	0	1	0	49.4523553521303	0
4.12	49.5859567707115	0	1	0	1	0	49.5859567707115	0
4.13	49.7201087492167	0	1	0	1	0	49.7201087492167	0
4.14	49.8548101977112	0	1	0	1	0	49.8548101977112	0
4.15	49.9900600367657	0	1	0	1	0	49.9900600367657	0
4.16	50.12585719733	0	1	0	1	0	50.12585719733	0
4.17	50.2622006206087	0	1	0	1	0	50.2622006206087	0
4.18	50.3990892579383	0	1	0	1	0	50.3990892579383	0
4.19	50.5365220706663	0	1	0	1	0	50.5365220706663	0
4.2	50.6744980300325	0	1	0	1	0	50.6744980300325	0
4.21	50.8130161170506	0	1	0	1	0	50.8130161170506	0
4.22	50.9520753223935	0	1	0	1	0	50.9520753223935	0
4.23	51.0916746462782	0	1	0	1	0	51.0916746462782	0
4.24	51.2318130983538	0	1	0	1	0	51.2318130983538	0
4.25	51.3724896975901	0	1	0	1	0	51.3724896975901	0
4.26	51.5137034721688	0	1	0	1	0	51.5137034721688	0
4.27	51.655453459375	0	1	0	1	0	51.655453459375	0
4.28	51.7977387054912	0	1	0	1	0	51.7977387054912	0
4.29	51.9405582656926	0	1	0	1	0	51.9405582656926	0
4.3	52.0839112039431	0	1	0	1	0	52.0839112039431	0
4.31	52.227796592894	0	1	0	1	0	52.227796592894	0
4.32	52.3722135137829	0	1	0	1	0	52.3722135137829	0
4.33	52.5171610563352	0	1	0	1	0	52.5171610563352	0
4.34	52.6626383186655	0	1	0	1	0	52.6626383186655	0
4.35	52.8086444071818	0	1	0	1	0	52.8086444071818	0
4.36	52.9551784364903	0	1	0	1	0	52.9551784364903	0
4.37	53.1022395293013	0	1	0	1	0	53.1022395293013	0
4.38	53.249826816337	0	1	0	1	0	53.249826816337	0
4.39	53.39793943624	0	1	0	1	0	53.39793943624	0
4.4	53.5465765354836	0	1	0	1	0	53.5465765354836	0
4.41	53.6957372682826	0	1	0	1	0	53.6957372682826	0
4.42	53.8454207965062	0	1	0	1	0	53.8454207965062	0
4.43	53.9956262895913	0	1	0	1	0	53.9956262895913	0
4.44	54.1463529244573	0	1	0	1	0	54.1463529244573	0
4.45	54.297599885422	0	1	0	1	0	54.297599885422	0
4.46	54.449366364119	0	1	0	1	0	54.449366364119	0
4.47	54.6016515594154	0	1	0	1	0	54.6016515594154	0
4.48	54.7544546773313	0	1	0	1	0	54.7544546773313	0
4.49	54.9077749309601	0	1	0	1	0	54.9077749309601	0
4.5	55.0616115403899	0	1	0	1	0	55.0616115403899	0
4.51	55.2159637326262	0	1	0	1	0	55.2159637326262	0
4.52	55.3708307415149	0	1	0	1	0	55.3708307415149	0
4.53	55.5262118076672	0	1	0	1	0	55.5262118076672	0
4.54	55.6821061783849	0	1	0	1	0	55.6821061783849	0
4.55	55.8385131075869	0	1	0	1	0	55.8385131075869	0
4.56	55.9954318557367	0	1	0	1	0	55.9954318557367	0
4.57	56.1528616897708	0	1	0	1	0	56.1528616897708	0
4.58	56.3108018830279	0	1	0	1	0	56.3108018830279	0
4.59	56.4692517151794	0	1	0	1	0	56.4692517151794	0
4.6	56.6282104721603	0	1	0	1	0	56.6282104721603	0
4.61	56.7876774461016	0	1	0	1	0	56.7876774461016	0
4.62	56.9476519352627	0	1	0	1	0	56.9476519352627	0
4.63	57.1081332439659	0	1	0	1	0	57.1081332439659	0
4.64	57.2691206825304	0	1	0	1	0	57.2691206825304	0
4.65	57.4306135672084	0	1	0	1	0	57.4306135672084	0
4.66	57.5926112201211	0	1	0	1	0	57.5926112201211	0
4.67	57.7551129691958	0	1	0	1	0	57.7551129691958	0
4.68	57.9181181481043	0	1	0	1	0	57.9181181481043	0
4.69	58.0816260962011	0	1	0	1	0	58.0816260962011	0
4.7	58.2456361584633	0	1	0	1	0	58.2456361584633	0
4.71	58.4101476854309	0	1	0	1	0	58.4101476854309	0
4.72	58.5751600331478	0	1	0	1	0	58.5751600331478	0
4.73	58.7406725631034	0	1	0	1	0	58.7406725631034	0
4.74	58.9066846421756	0	1	0	1	0	58.9066846421756	0
4.75	59.0731956425738	0	1	0	1	0	59.0731956425738	0
4.76	59.240204941783	0	1	0	1	0	59.240204941783	0
4.77	59.4077119225084	0	1	0	1	0	59.4077119225084	0
4.78	59.5757159726207	0	1	0	1	0	59.5757159726207	0
4.79	59.7442164851025	0	1	0	1	0	59.7442164851025	0
4.8	59.913212857995	0	1	0	1	0	59.913212857995	0
4.81	60.082704494345	0	1	0	1	0	60.082704494345	0
4.82	60.2526908021535	0	1	0	1	0	60.2526908021535	0
4.83	60.4231711943239	0	1	0	1	0	60.4231711943239	0
4.84	60.5941450886121	0	1	0	1	0	60.5941450886121	0
4.85	60.7656119075755	0	1	0	1	0	60.7656119075755	0
4.86	60.9375710785245	0	1	0	1	0	60.9375710785245	0
4.87	61.1100220334732	0	1	0	1	0	61.1100220334732	0
4.88	61.2829642090912	0	1	0	1	0	61.2829642090912	0
4.89	61.4563970466562	0	1	0	1	0	61.4563970466562	0
4.9	61.630319992007	0	1	0	1	0	61.630319992007	0
4.91	61.8047324954968	0	1	0	1	0	61.8047324954968	0
4.92	61.9796340119475	0	1	0	1	0	61.9796340119475	0
4.93	62.1550240006045	0	1	0	1	0	62.1550240006045	0
