# GHZ S RI R 50
1	57.4390187518801	0	1	0	1	0	57.4390187518801	0
1.01	56.9566162847069	0	1	0	1	0	56.9566162847069	0
1.02	56.4846850599628	0	1	0	1	0	56.4846850599628	0
1.03	56.0229300161595	0	1	0	1	0	56.0229300161595	0
1.04	55.5710674403276	0	1	0	1	0	55.5710674403276	0
1.05	55.1288244276107	0	1	0	1	0	55.1288244276107	0
1.06	54.6959383714488	0	1	0	1	0	54.6959383714488	0
1.07	54.2721564823498	0	1	0	1	0	54.2721564823498	0
1.08	53.8572353333951	0	1	0	1	0	53.8572353333951	0
1.09	53.4509404307642	0	1	0	1	0	53.4509404307642	0
1.1	53.0530458076846	0	1	0	1	0	53.0530458076846	0
1.11	52.6633336403306	0	1	0	1	0	52.6633336403306	0
1.12	52.2815938842987	0	1	0	1	0	52.2815938842987	0
1.13	51.9076239303856	0	1	0	1	0	51.9076239303856	0
1.14	51.5412282784829	0	1	0	1	0	51.5412282784829	0
1.15	51.1822182284859	0	1	0	1	0	51.1822182284859	0
1.16	50.8304115871901	0	1	0	1	0	50.8304115871901	0
1.17	50.4856323902185	0	1	0	1	0	50.4856323902185	0
1.18	50.1477106380883	0	1	0	1	0	50.1477106380883	0
1.19	49.8164820455849	0	1	0	1	0	49.8164820455849	0
1.2	49.4917878036675	0	1	0	1	0	49.4917878036675	0
1.21	49.1734743531812	0	1	0	1	0	49.1734743531812	0
1.22	48.8613931696973	0	1	0	1	0	48.8613931696973	0
1.23	48.5554005588497	0	1	0	1	0	48.5554005588497	0
1.24	48.2553574615746	0	1	0	1	0	48.2553574615746	0
1.25	47.9611292686983	0	1	0	1	0	47.9611292686983	0
1.26	47.6725856443541	0	1	0	1	0	47.6725856443541	0
1.27	47.389600357742	0	1	0	1	0	47.389600357742	0
1.28	47.1120511227744	0	1	0	1	0	47.1120511227744	0
1.29	46.8398194451806	0	1	0	1	0	46.8398194451806	0
1.3	46.5727904766671	0	1	0	1	0	46.5727904766671	0
1.31	46.3108528757589	0	1	0	1	0	46.3108528757589	0
1.32	46.0538986749649	0	1	0	1	0	46.0538986749649	0
1.33	45.8018231539366	0	1	0	1	0	45.8018231539366	0
1.34	45.554524718306	0	1	0	1	0	45.554524718306	0
1.35	45.3119047839088	0	1	0	1	0	45.3119047839088	0
1.36	45.0738676661148	0	1	0	1	0	45.0738676661148	0
1.37	44.8403204740055	0	1	0	1	0	44.8403204740055	0
1.38	44.611173009153	0	1	0	1	0	44.611173009153	0
1.39	44.3863376687676	0	1	0	1	0	44.3863376687676	0
1.4	44.1657293529963	0	1	0	1	0	44.1657293529963	0
1.41	43.9492653761665	0	1	0	1	0	43.9492653761665	0
1.42	43.7368653817794	0	1	0	1	0	43.7368653817794	0
1.43	43.5284512610703	0	1	0	1	0	43.5284512610703	0
1.44	43.3239470749627	0	1	0	1	0	43.3239470749627	0
1.45	43.1232789792509	0	1	0	1	0	43.1232789792509	0
1.46	42.9263751528584	0	1	0	1	0	42.9263751528584	0
1.47	42.7331657290233	0	1	0	1	0	42.7331657290233	0
1.48	42.5435827292749	0	1	0	1	0	42.5435827292749	0
1.49	42.3575600000679	0	1	0	1	0	42.3575600000679	0
1.5	42.1750331519513	0	1	0	1	0	42.1750331519513	0
1.51	41.9959395011551	0	1	0	1	0	41.9959395011551	0
1.52	41.8202180134822	0	1	0	1	0	41.8202180134822	0
1.53	41.6478092504007	0	1	0	1	0	41.6478092504007	0
1.54	41.4786553172366	0	1	0	1	0	41.4786553172366	0
1.55	41.3126998133723	0	1	0	1	0	41.3126998133723	0
1.56	41.1498877843595	0	1	0	1	0	41.1498877843595	0
1.57	40.9901656758636	0	1	0	1	0	40.9901656758636	0
1.58	40.8334812893556	0	1	0	1	0	40.8334812893556	0
1.59	40.6797837394773	0	1	0	1	0	40.6797837394773	0
1.6	40.5290234130043	0	1	0	1	0	40.5290234130043	0
1.61	40.381151929339	0	1	0	1	0	40.381151929339	0
1.62	40.2361221024664	0	1	0	1	0	40.2361221024664	0
1.63	40.0938879043105	0	1	0	1	0	40.0938879043105	0
1.64	39.9544044294314	0	1	0	1	0	39.9544044294314	0
1.65	39.8176278610058	0	1	0	1	0	39.8176278610058	0
1.66	39.6835154380374	0	1	0	1	0	39.6835154380374	0
1.67	39.5520254237457	0	1	0	1	0	39.5520254237457	0
1.68	39.4231170750828	0	1	0	1	0	39.4231170750828	0
1.69	39.2967506133333	0	1	0	1	0	39.2967506133333	0
1.7	39.1728871957516	0	1	0	1	0	39.1728871957516	0
1.71	39.0514888881945	0	1	0	1	0	39.0514888881945	0
1.72	38.932518638708	0	1	0	1	0	38.932518638708	0
1.73	38.8159402520308	0	1	0	1	0	38.8159402520308	0
1.74	38.7017183649763	0	1	0	1	0	38.7017183649763	0
1.75	38.5898184226597	0	1	0	1	0	38.5898184226597	0
1.76	38.4802066555343	0	1	0	1	0	38.4802066555343	0
1.77	38.3728500572068	0	1	0	1	0	38.3728500572068	0
1.78	38.267716363001	0	1	0	1	0	38.267716363001	0
1.79	38.1647740292387	0	1	0	1	0	38.1647740292387	0
1.8	38.0639922132126	0	1	0	1	0	38.0639922132126	0
1.81	37.9653407538221	0	1	0	1	0	37.9653407538221	0
1.82	37.8687901528477	0	1	0	1	0	37.8687901528477	0
1.83	37.7743115568401	0	1	0	1	0	37.7743115568401	0
1.84	37.6818767395987	0	1	0	1	0	37.6818767395987	0
1.85	37.5914580852191	0	1	0	1	0	37.5914580852191	0
1.86	37.5030285716874	0	1	0	1	0	37.5030285716874	0
1.87	37.4165617550006	0	1	0	1	0	37.4165617550006	0
1.88	37.3320317537942	0	1	0	1	0	37.3320317537942	0
1.89	37.2494132344574	0	1	0	1	0	37.2494132344574	0
1.9	37.1686813967185	0	1	0	1	0	37.1686813967185	0
1.91	37.0898119596832	0	1	0	1	0	37.0898119596832	0
1.92	37.0127811483093	0	1	0	1	0	37.0127811483093	0
1.93	36.9375656803015	0	1	0	1	0	36.9375656803015	0
1.94	36.8641427534118	0	1	0	1	0	36.8641427534118	0
1.95	36.7924900331307	0	1	0	1	0	36.7924900331307	0
1.96	36.7225856407551	0	1	0	1	0	36.7225856407551	0
1.97	36.6544081418192	0	1	0	1	0	36.6544081418192	0
1.98	36.587936534877	0	1	0	1	0	36.587936534877	0
1.99	36.523150240622	0	1	0	1	0	36.523150240622	0
2	36.4600290913339	0	1	0	1	0	36.4600290913339	0
2.01	36.3985533206401	0	1	0	1	0	36.3985533206401	0
2.02	36.3387035535811	0	1	0	1	0	36.3387035535811	0
2.03	36.2804607969703	0	1	0	1	0	36.2804607969703	0
2.04	36.2238064300363	0	1	0	1	0	36.2238064300363	0
2.05	36.1687221953399	0	1	0	1	0	36.1687221953399	0
2.06	36.1151901899552	0	1	0	1	0	36.1151901899552	0
2.07	36.0631928569068	0	1	0	1	0	36.0631928569068	0
2.08	36.0127129768532	0	1	0	1	0	36.0127129768532	0
2.09	35.9637336600098	0	1	0	1	0	35.9637336600098	0
2.1	35.9162383383021	0	1	0	1	0	35.9162383383021	0
2.11	35.8702107577423	0	1	0	1	0	35.8702107577423	0
2.12	35.8256349710218	0	1	0	1	0	35.8256349710218	0
2.13	35.7824953303118	0	1	0	1	0	35.7824953303118	0
2.14	35.7407764802664	0	1	0	1	0	35.7407764802664	0
2.15	35.7004633512203	0	1	0	1	0	35.7004633512203	0
2.16	35.6615411525765	0	1	0	1	0	35.6615411525765	0
2.17	35.6239953663753	0	1	0	1	0	35.6239953663753	0
2.18	35.5878117410418	0	1	0	1	0	35.5878117410418	0
2.19	35.552976285304	0	1	0	1	0	35.552976285304	0
2.2	35.5194752622762	0	1	0	1	0	35.5194752622762	0
2.21	35.4872951837046	0	1	0	1	0	35.4872951837046	0
2.22	35.4564228043668	0	1	0	1	0	35.4564228043668	0
2.23	35.4268451166227	0	1	0	1	0	35.4268451166227	0
2.24	35.3985493451117	0	1	0	1	0	35.3985493451117	0
2.25	35.3715229415908	0	1	0	1	0	35.3715229415908	0
2.26	35.3457535799095	0	1	0	1	0	35.3457535799095	0
2.27	35.3212291511184	0	1	0	1	0	35.3212291511184	0
2.28	35.2979377587058	0	1	0	1	0	35.2979377587058	0
2.29	35.2758677139592	0	1	0	1	0	35.2758677139592	0
2.3	35.2550075314483	0	1	0	1	0	35.2550075314483	0
2.31	35.2353459246245	0	1	0	1	0	35.2353459246245	0
2.32	35.2168718015348	0	1	0	1	0	35.2168718015348	0
2.33	35.1995742606463	0	1	0	1	0	35.1995742606463	0
2.34	35.1834425867768	0	1	0	1	0	35.1834425867768	0
2.35	35.1684662471304	0	1	0	1	0	35.1684662471304	0
2.36	35.1546348874329	0	1	0	1	0	35.1546348874329	0
2.37	35.141938328166	0	1	0	1	0	35.141938328166	0
2.38	35.1303665608957	0	1	0	1	0	35.1303665608957	0
2.39	35.1199097446931	0	1	0	1	0	35.1199097446931	0
2.4	35.1105582026449	0	1	0	1	0	35.1105582026449	0
2.41	35.1023024184504	0	1	0	1	0	35.1023024184504	0
2.42	35.095133033103	0	1	0	1	0	35.095133033103	0
2.43	35.0890408416541	0	1	0	1	0	35.0890408416541	0
2.44	35.0840167900557	0	1	0	1	0	35.0840167900557	0
2.45	35.0800519720809	0	1	0	1	0	35.0800519720809	0
2.46	35.0771376263199	0	1	0	1	0	35.0771376263199	0
2.47	35.0752651332476	0	1	0	1	0	35.0752651332476	0
2.48	35.0744260123637	0	1	0	1	0	35.0744260123637	0
2.49	35.074611919401	0	1	0	1	0	35.074611919401	0
2.5	35.0758146436003	0	1	0	1	0	35.0758146436003	0
2.51	35.0780261050514	0	1	0	1	0	35.0780261050514	0
2.52	35.0812383520964	0	1	0	1	0	35.0812383520964	0
2.53	35.0854435587954	0	1	0	1	0	35.0854435587954	0
2.54	35.0906340224518	0	1	0	1	0	35.0906340224518	0
2.55	35.0968021611954	0	1	0	1	0	35.0968021611954	0
2.56	35.1039405116229	0	1	0	1	0	35.1039405116229	0
2.57	35.1120417264927	0	1	0	1	0	35.1120417264927	0
2.58	35.1210985724742	0	1	0	1	0	35.1210985724742	0
2.59	35.1311039279482	0	1	0	1	0	35.1311039279482	0
2.6	35.142050780859	0	1	0	1	0	35.142050780859	0
2.61	35.1539322266155	0	1	0	1	0	35.1539322266155	0
2.62	35.1667414660399	0	1	0	1	0	35.1667414660399	0
2.63	35.1804718033642	0	1	0	1	0	35.1804718033642	0
2.64	35.1951166442713	0	1	0	1	0	35.1951166442713	0
2.65	35.2106694939809	0	1	0	1	0	35.2106694939809	0
2.66	35.2271239553788	0	1	0	1	0	35.2271239553788	0
2.67	35.2444737271876	0	1	0	1	0	35.2444737271876	0
2.68	35.2627126021787	0	1	0	1	0	35.2627126021787	0
2.69	35.2818344654244	0	1	0	1	0	35.2818344654244	0
2.7	35.3018332925885	0	1	0	1	0	35.3018332925885	0
2.71	35.322703148255	0	1	0	1	0	35.322703148255	0
2.72	35.3444381842933	0	1	0	1	0	35.3444381842933	0
2.73	35.3670326382597	0	1	0	1	0	35.3670326382597	0
2.74	35.3904808318339	0	1	0	1	0	35.3904808318339	0
2.75	35.4147771692891	0	1	0	1	0	35.4147771692891	0
2.76	35.4399161359962	0	1	0	1	0	35.4399161359962	0
2.77	35.4658922969597	0	1	0	1	0	35.4658922969597	0
2.78	35.4927002953855	0	1	0	1	0	35.4927002953855	0
2.79	35.5203348512792	0	1	0	1	0	35.5203348512792	0
2.8	35.5487907600752	0	1	0	1	0	35.5487907600752	0
2.81	35.5780628912939	0	1	0	1	0	35.5780628912939	0
2.82	35.6081461872289	0	1	0	1	0	35.6081461872289	0
2.83	35.6390356616605	0	1	0	1	0	35.6390356616605	0
2.84	35.6707263985974	0	1	0	1	0	35.6707263985974	0
2.85	35.703213551045	0	1	0	1	0	35.703213551045	0
2.86	35.7364923397984	0	1	0	1	0	35.7364923397984	0
2.87	35.7705580522621	0	1	0	1	0	35.7705580522621	0
2.88	35.8054060412934	0	1	0	1	0	35.8054060412934	0
2.89	35.8410317240696	0	1	0	1	0	35.8410317240696	0
2.9	35.8774305809797	0	1	0	1	0	35.8774305809797	0
2.91	35.9145981545376	0	1	0	1	0	35.9145981545376	0
2.92	35.9525300483189	0	1	0	1	0	35.9525300483189	0
2.93	35.9912219259186	0	1	0	1	0	35.9912219259186	0
2.94	36.0306695099303	0	1	0	1	0	36.0306695099303	0
2.95	36.0708685809464	0	1	0	1	0	36.0708685809464	0
2.96	36.1118149765784	0	1	0	1	0	36.1118149765784	0
2.97	36.1535045904968	0	1	0	1	0	36.1535045904968	0
2.98	36.1959333714906	0	1	0	1	0	36.1959333714906	0
2.99	36.2390973225456	0	1	0	1	0	36.2390973225456	0
3	36.2829924999413	0	1	0	1	0	36.2829924999413	0
3.01	36.3276150123653	0	1	0	1	0	36.3276150123653	0
3.02	36.3729610200456	0	1	0	1	0	36.3729610200456	0
3.03	36.4190267339007	0	1	0	1	0	36.4190267339007	0
3.04	36.4658084147049	0	1	0	1	0	36.4658084147049	0
3.05	36.5133023722721	0	1	0	1	0	36.5133023722721	0
3.06	36.5615049646533	0	1	0	1	0	36.5615049646533	0
3.07	36.6104125973522	0	1	0	1	0	36.6104125973522	0
3.08	36.6600217225538	0	1	0	1	0	36.6600217225538	0
3.09	36.7103288383699	0	1	0	1	0	36.7103288383699	0
3.1	36.7613304880975	0	1	0	1	0	36.7613304880975	0
3.11	36.8130232594933	0	1	0	1	0	36.8130232594933	0
3.12	36.8654037840604	0	1	0	1	0	36.8654037840604	0
3.13	36.9184687363499	0	1	0	1	0	36.9184687363499	0
3.14	36.9722148332751	0	1	0	1	0	36.9722148332751	0
3.15	37.0266388334396	0	1	0	1	0	37.0266388334396	0
3.16	37.0817375364771	0	1	0	1	0	37.0817375364771	0
3.17	37.1375077824046	0	1	0	1	0	37.1375077824046	0
3.18	37.1939464509873	0	1	0	1	0	37.1939464509873	0
3.19	37.2510504611156	0	1	0	1	0	37.2510504611156	0
3.2	37.3088167701936	0	1	0	1	0	37.3088167701936	0
3.21	37.3672423735396	0	1	0	1	0	37.3672423735396	0
3.22	37.4263243037971	0	1	0	1	0	37.4263243037971	0
3.23	37.4860596303569	0	1	0	1	0	37.4860596303569	0
3.24	37.5464454587903	0	1	0	1	0	37.5464454587903	0
3.25	37.6074789302923	0	1	0	1	0	37.6074789302923	0
3.26	37.6691572211352	0	1	0	1	0	37.6691572211352	0
3.27	37.7314775421325	0	1	0	1	0	37.7314775421325	0
3.28	37.7944371381119	0	1	0	1	0	37.7944371381119	0
3.29	37.8580332873988	0	1	0	1	0	37.8580332873988	0
3.3	37.9222633013087	0	1	0	1	0	37.9222633013087	0
3.31	37.9871245236484	0	1	0	1	0	37.9871245236484	0
3.32	38.0526143302275	0	1	0	1	0	38.0526143302275	0
3.33	38.118730128377	0	1	0	1	0	38.118730128377	0
3.34	38.185469356478	0	1	0	1	0	38.185469356478	0
3.35	38.2528294834981	0	1	0	1	0	38.2528294834981	0
3.36	38.3208080085362	0	1	0	1	0	38.3208080085362	0
3.37	38.3894024603756	0	1	0	1	0	38.3894024603756	0
3.38	38.4586103970446	0	1	0	1	0	38.4586103970446	0
3.39	38.5284294053853	0	1	0	1	0	38.5284294053853	0
3.4	38.5988571006302	0	1	0	1	0	38.5988571006302	0
3.41	38.6698911259853	0	1	0	1	0	38.6698911259853	0
3.42	38.7415291522215	0	1	0	1	0	38.7415291522215	0
3.43	38.8137688772729	0	1	0	1	0	38.8137688772729	0
3.44	38.8866080258415	0	1	0	1	0	38.8866080258415	0
3.45	38.9600443490098	0	1	0	1	0	38.9600443490098	0
3.46	39.0340756238594	0	1	0	1	0	39.0340756238594	0
3.47	39.1086996530962	0	1	0	1	0	39.1086996530962	0
3.48	39.1839142646822	0	1	0	1	0	39.1839142646822	0
3.49	39.2597173114741	0	1	0	1	0	39.2597173114741	0
3.5	39.3361066708672	0	1	0	1	0	39.3361066708672	0
3.51	39.4130802444461	0	1	0	1	0	39.4130802444461	0
3.52	39.4906359576411	0	1	0	1	0	39.4906359576411	0
3.53	39.5687717593903	0	1	0	1	0	39.5687717593903	0
3.54	39.6474856218075	0	1	0	1	0	39.6474856218075	0
3.55	39.7267755398561	0	1	0	1	0	39.7267755398561	0
3.56	39.806639531028	0	1	0	1	0	39.806639531028	0
3.57	39.887075635028	0	1	0	1	0	39.887075635028	0
3.58	39.9680819134637	0	1	0	1	0	39.9680819134637	0
3.59	40.0496564495403	0	1	0	1	0	40.0496564495403	0
3.6	40.1317973477608	0	1	0	1	0	40.1317973477608	0
3.61	40.214502733631	0	1	0	1	0	40.214502733631	0
3.62	40.2977707533691	0	1	0	1	0	40.2977707533691	0
3.63	40.3815995736209	0	1	0	1	0	40.3815995736209	0
3.64	40.4659873811789	0	1	0	1	0	40.4659873811789	0
3.65	40.5509323827062	0	1	0	1	0	40.5509323827062	0
3.66	40.6364328044654	0	1	0	1	0	40.6364328044654	0
3.67	40.7224868920513	0	1	0	1	0	40.7224868920513	0
3.68	40.8090929101283	0	1	0	1	0	40.8090929101283	0
3.69	40.8962491421722	0	1	0	1	0	40.8962491421722	0
3.7	40.9839538902155	0	1	0	1	0	40.9839538902155	0
3.71	41.072205474598	0	1	0	1	0	41.072205474598	0
3.72	41.1610022337201	0	1	0	1	0	41.1610022337201	0
3.73	41.250342523801	0	1	0	1	0	41.250342523801	0
3.74	41.3402247186405	0	1	0	1	0	41.3402247186405	0
3.75	41.4306472093845	0	1	0	1	0	41.4306472093845	0
3.76	41.5216084042945	0	1	0	1	0	41.5216084042945	0
3.77	41.6131067285202	0	1	0	1	0	41.6131067285202	0
3.78	41.7051406238766	0	1	0	1	0	41.7051406238766	0
3.79	41.7977085486238	0	1	0	1	0	41.7977085486238	0
3.8	41.890808977251	0	1	0	1	0	41.890808977251	0
3.81	41.9844404002629	0	1	0	1	0	41.9844404002629	0
3.82	42.0786013239706	0	1	0	1	0	42.0786013239706	0
3.83	42.1732902702852	0	1	0	1	0	42.1732902702852	0
3.84	42.2685057765143	0	1	0	1	0	42.2685057765143	0
3.85	42.3642463951626	0	1	0	1	0	42.3642463951626	0
3.86	42.4605106937344	0	1	0	1	0	42.4605106937344	0
3.87	42.5572972545406	0	1	0	1	0	42.5572972545406	0
3.88	42.654604674507	0	1	0	1	0	42.654604674507	0
3.89	42.7524315649872	0	1	0	1	0	42.7524315649872	0
3.9	42.8507765515772	0	1	0	1	0	42.8507765515772	0
3.91	42.9496382739335	0	1	0	1	0	42.9496382739335	0
3.92	43.0490153855935	0	1	0	1	0	43.0490153855935	0
3.93	43.1489065537992	0	1	0	1	0	43.1489065537992	0
3.94	43.249310459323	0	1	0	1	0	43.249310459323	0
3.95	43.3502257962968	0	1	0	1	0	43.3502257962968	0
3.96	43.4516512720428	0	1	0	1	0	43.4516512720428	0
3.97	43.5535856069078	0	1	0	1	0	43.5535856069078	0
3.98	43.6560275340996	0	1	0	1	0	43.6560275340996	0
3.99	43.7589757995252	0	1	0	1	0	43.7589757995252	0
4	43.8624291616331	0	1	0	1	0	43.8624291616331	0
4.01	43.966386391256	0	1	0	1	0	43.966386391256	0
4.02	44.0708462714572	0	1	0	1	0	44.0708462714572	0
4.03	44.1758075973788	0	1	0	1	0	44.1758075973788	0
4.04	44.2812691760921	0	1	0	1	0	44.2812691760921	0
4.05	44.3872298264505	0	1	0	1	0	44.3872298264505	0
4.06	44.4936883789444	0	1	0	1	0	44.4936883789444	0
4.07	44.6006436755579	0	1	0	1	0	44.6006436755579	0
4.08	44.7080945696285	0	1	0	1	0	44.7080945696285	0
4.09	44.8160399257077	0	1	0	1	0	44.8160399257077	0
4.1	44.9244786194247	0	1	0	1	0	44.9244786194247	0
4.11	45.0334095373516	0	1	0	1	0	45.0334095373516	0
4.12	45.1428315768702	0	1	0	1	0	45.1428315768702	0
4.13	45.2527436460417	0	1	0	1	0	45.2527436460417	0
4.14	45.3631446634773	0	1	0	1	0	45.3631446634773	0
4.15	45.474033558211	0	1	0	1	0	45.474033558211	0
4.16	45.585409269575	0	1	0	1	0	45.585409269575	0
4.17	45.6972707470755	0	1	0	1	0	45.6972707470755	0
4.18	45.8096169502713	0	1	0	1	0	45.8096169502713	0
4.19	45.9224468486538	0	1	0	1	0	45.9224468486538	0
4.2	46.0357594215287	0	1	0	1	0	46.0357594215287	0
4.21	46.1495536578999	0	1	0	1	0	46.1495536578999	0
4.22	46.2638285563536	0	1	0	1	0	46.2638285563536	0
4.23	46.3785831249461	0	1	0	1	0	46.3785831249461	0
4.24	46.4938163810914	0	1	0	1	0	46.4938163810914	0
4.25	46.6095273514516	0	1	0	1	0	46.6095273514516	0
4.26	46.7257150718278	0	1	0	1	0	46.7257150718278	0
4.27	46.8423785870538	0	1	0	1	0	46.8423785870538	0
4.28	46.9595169508899	0	1	0	1	0	46.9595169508899	0
4.29	47.0771292259192	0	1	0	1	0	47.0771292259192	0
4.3	47.1952144834451	0	1	0	1	0	47.1952144834451	0
4.31	47.3137718033897	0	1	0	1	0	47.3137718033897	0
4.32	47.4328002741947	0	1	0	1	0	47.4328002741947	0
4.33	47.5522989927224	0	1	0	1	0	47.5522989927224	0
4.34	47.672267064159	0	1	0	1	0	47.672267064159	0
4.35	47.792703601919	0	1	0	1	0	47.792703601919	0
4.36	47.9136077275506	0	1	0	1	0	47.9136077275506	0
4.37	48.0349785706428	0	1	0	1	0	48.0349785706428	0
4.38	48.1568152687334	0	1	0	1	0	48.1568152687334	0
4.39	48.2791169672188	0	1	0	1	0	48.2791169672188	0
4.4	48.4018828192645	0	1	0	1	0	48.4018828192645	0
4.41	48.5251119857171	0	1	0	1	0	48.5251119857171	0
4.42	48.6488036350171	0	1	0	1	0	48.6488036350171	0
4.43	48.7729569431138	0	1	0	1	0	48.7729569431138	0
4.44	48.89757109338	0	1	0	1	0	48.89757109338	0
4.45	49.0226452765292	0	1	0	1	0	49.0226452765292	0
4.46	49.1481786905331	0	1	0	1	0	49.1481786905331	0
4.47	49.2741705405403	0	1	0	1	0	49.2741705405403	0
4.48	49.4006200387962	0	1	0	1	0	49.4006200387962	0
4.49	49.5275264045642	0	1	0	1	0	49.5275264045642	0
4.5	49.6548888640476	0	1	0	1	0	49.6548888640476	0
4.51	49.7827066503125	0	1	0	1	0	49.7827066503125	0
4.52	49.9109790032122	0	1	0	1	0	49.9109790032122	0
4.53	50.039705169312	0	1	0	1	0	50.039705169312	0
4.54	50.1688844018153	0	1	0	1	0	50.1688844018153	0
4.55	50.298515960491	0	1	0	1	0	50.298515960491	0
4.56	50.428599111601	0	1	0	1	0	50.428599111601	0
4.57	50.5591331278296	0	1	0	1	0	50.5591331278296	0
4.58	50.6901172882131	0	1	0	1	0	50.6901172882131	0
4.59	50.8215508780708	0	1	0	1	0	50.8215508780708	0
4.6	50.9534331889364	0	1	0	1	0	50.9534331889364	0
4.61	51.0857635184911	0	1	0	1	0	51.0857635184911	0
4.62	51.2185411704966	0	1	0	1	0	51.2185411704966	0
4.63	51.3517654547297	0	1	0	1	0	51.3517654547297	0
4.64	51.4854356869173	0	1	0	1	0	51.4854356869173	0
4.65	51.6195511886726	0	1	0	1	0	51.6195511886726	0
4.66	51.7541112874319	0	1	0	1	0	51.7541112874319	0
4.67	51.8891153163921	0	1	0	1	0	51.8891153163921	0
4.68	52.0245626144494	0	1	0	1	0	52.0245626144494	0
4.69	52.1604525261383	0	1	0	1	0	52.1604525261383	0
4.7	52.2967844015718	0	1	0	1	0	52.2967844015718	0
4.71	52.4335575963821	0	1	0	1	0	52.4335575963821	0
4.72	52.570771471662	0	1	0	1	0	52.570771471662	0
4.73	52.7084253939077	0	1	0	1	0	52.7084253939077	0
4.74	52.8465187349609	0	1	0	1	0	52.8465187349609	0
4.75	52.9850508719536	0	1	0	1	0	52.9850508719536	0
4.76	53.1240211872515	0	1	0	1	0	53.1240211872515	0
4.77	53.2634290684	0	1	0	1	0	53.2634290684	0
4.78	53.4032739080693	0	1	0	1	0	53.4032739080693	0
4.79	53.5435551040016	0	1	0	1	0	53.5435551040016	0
4.8	53.6842720589577	0	1	0	1	0	53.6842720589577	0
4.81	53.8254241806651	0	1	0	1	0	53.8254241806651	0
4.82	53.9670108817663	0	1	0	1	0	53.9670108817663	0
4.83	54.1090315797682	0	1	0	1	0	54.1090315797682	0
4.84	54.2514856969918	0	1	0	1	0	54.2514856969918	0
4.85	54.3943726605222	0	1	0	1	0	54.3943726605222	0
4.86	54.5376919021599	0	1	0	1	0	54.5376919021599	0
4.87	54.6814428583726	0	1	0	1	0	54.6814428583726	0
4.88	54.8256249702467	0	1	0	1	0	54.8256249702467	0
4.89	54.9702376834408	0	1	0	1	0	54.9702376834408	0
4.9	55.1152804481387	0	1	0	1	0	55.1152804481387	0
4.91	55.2607527190031	0	1	0	1	0	55.2607527190031	0
4.92	55.4066539551308	0	1	0	1	0	55.4066539551308	0
4.93	55.5529836200068	0	1	0	1	0	55.5529836200068	0
