# GHZ S RI R 50
1	54.7076935872338	0	1	0	1	0	54.7076935872338	0
1.01	54.2631678503819	0	1	0	1	0	54.2631678503819	0
1.02	53.8286963633992	0	1	0	1	0	53.8286963633992	0
1.03	53.4039994035424	0	1	0	1	0	53.4039994035424	0
1.04	52.9888080066355	0	1	0	1	0	52.9888080066355	0
1.05	52.5828634547567	0	1	0	1	0	52.5828634547567	0
1.06	52.1859167929245	0	1	0	1	0	52.1859167929245	0
1.07	51.7977283728858	0	1	0	1	0	51.7977283728858	0
1.08	51.4180674222489	0	1	0	1	0	51.4180674222489	0
1.09	51.0467116373334	0	1	0	1	0	51.0467116373334	0
1.1	50.6834467982293	0	1	0	1	0	50.6834467982293	0
1.11	50.328066404663	0	1	0	1	0	50.328066404663	0
1.12	49.9803713313705	0	1	0	1	0	49.9803713313705	0
1.13	49.64016950177	0	1	0	1	0	49.64016950177	0
1.14	49.3072755788085	0	1	0	1	0	49.3072755788085	0
1.15	48.9815106719397	0	1	0	1	0	48.9815106719397	0
1.16	48.6627020592563	0	1	0	1	0	48.6627020592563	0
1.17	48.3506829238737	0	1	0	1	0	48.3506829238737	0
1.18	48.0452921037172	0	1	0	1	0	48.0452921037172	0
1.19	47.7463738539242	0	1	0	1	0	47.7463738539242	0
1.2	47.4537776211278	0	1	0	1	0	47.4537776211278	0
1.21	47.167357828932	0	1	0	1	0	47.167357828932	0
1.22	46.8869736739372	0	1	0	1	0	46.8869736739372	0
1.23	46.6124889317163	0	1	0	1	0	46.6124889317163	0
1.24	46.3437717721783	0	1	0	1	0	46.3437717721783	0
1.25	46.0806945837953	0	1	0	1	0	46.0806945837953	0
1.26	45.8231338061992	0	1	0	1	0	45.8231338061992	0
1.27	45.5709697706867	0	1	0	1	0	45.5709697706867	0
1.28	45.3240865482015	0	1	0	1	0	45.3240865482015	0
1.29	45.0823718043871	0	1	0	1	0	45.0823718043871	0
1.3	44.8457166613282	0	1	0	1	0	44.8457166613282	0
1.31	44.6140155656265	0	1	0	1	0	44.6140155656265	0
1.32	44.3871661624711	0	1	0	1	0	44.3871661624711	0
1.33	44.1650691753916	0	1	0	1	0	44.1650691753916	0
1.34	43.9476282913942	0	1	0	1	0	43.9476282913942	0
1.35	43.7347500512034	0	1	0	1	0	43.7347500512034	0
1.36	43.5263437443459	0	1	0	1	0	43.5263437443459	0
1.37	43.3223213088296	0	1	0	1	0	43.3223213088296	0
1.38	43.1225972351835	0	1	0	1	0	43.1225972351835	0
1.39	42.9270884746413	0	1	0	1	0	42.9270884746413	0
1.4	42.7357143512582	0	1	0	1	0	42.7357143512582	0
1.41	42.5483964777688	0	1	0	1	0	42.5483964777688	0
1.42	42.3650586749998	0	1	0	1	0	42.3650586749998	0
1.43	42.1856268946636	0	1	0	1	0	42.1856268946636	0
1.44	42.0100291453698	0	1	0	1	0	42.0100291453698	0
1.45	41.8381954216973	0	1	0	1	0	41.8381954216973	0
1.46	41.6700576361815	0	1	0	1	0	41.6700576361815	0
1.47	41.5055495540782	0	1	0	1	0	41.5055495540782	0
1.48	41.3446067307713	0	1	0	1	0	41.3446067307713	0
1.49	41.1871664517016	0	1	0	1	0	41.1871664517016	0
1.5	41.033167674698	0	1	0	1	0	41.033167674698	0
1.51	40.8825509746007	0	1	0	1	0	40.8825509746007	0
1.52	40.7352584900698	0	1	0	1	0	40.7352584900698	0
1.53	40.5912338724802	0	1	0	1	0	40.5912338724802	0
1.54	40.4504222368075	0	1	0	1	0	40.4504222368075	0
1.55	40.3127701144149	0	1	0	1	0	40.3127701144149	0
1.56	40.1782254076564	0	1	0	1	0	40.1782254076564	0
1.57	40.0467373462145	0	1	0	1	0	40.0467373462145	0
1.58	39.9182564450963	0	1	0	1	0	39.9182564450963	0
1.59	39.7927344642142	0	1	0	1	0	39.7927344642142	0
1.6	39.670124369483	0	1	0	1	0	39.670124369483	0
1.61	39.550380295366	0	1	0	1	0	39.550380295366	0
1.62	39.433457508809	0	1	0	1	0	39.433457508809	0
1.63	39.3193123745015	0	1	0	1	0	39.3193123745015	0
1.64	39.2079023214087	0	1	0	1	0	39.2079023214087	0
1.65	39.0991858105211	0	1	0	1	0	39.0991858105211	0
1.66	38.9931223037691	0	1	0	1	0	38.9931223037691	0
1.67	38.8896722340547	0	1	0	1	0	38.8896722340547	0
1.68	38.7887969763538	0	1	0	1	0	38.7887969763538	0
1.69	38.690458819844	0	1	0	1	0	38.690458819844	0
1.7	38.5946209410165	0	1	0	1	0	38.5946209410165	0
1.71	38.5012473777309	0	1	0	1	0	38.5012473777309	0
1.72	38.4103030041759	0	1	0	1	0	38.4103030041759	0
1.73	38.3217535066974	0	1	0	1	0	38.3217535066974	0
1.74	38.2355653604611	0	1	0	1	0	38.2355653604611	0
1.75	38.1517058069148	0	1	0	1	0	38.1517058069148	0
1.76	38.0701428320185	0	1	0	1	0	38.0701428320185	0
1.77	37.9908451452135	0	1	0	1	0	37.9908451452135	0
1.78	37.9137821590997	0	1	0	1	0	37.9137821590997	0
1.79	37.8389239697944	0	1	0	1	0	37.8389239697944	0
1.8	37.7662413379456	0	1	0	1	0	37.7662413379456	0
1.81	37.6957056703747	0	1	0	1	0	37.6957056703747	0
1.82	37.6272890023248	0	1	0	1	0	37.6272890023248	0
1.83	37.5609639802902	0	1	0	1	0	37.5609639802902	0
1.84	37.4967038454071	0	1	0	1	0	37.4967038454071	0
1.85	37.4344824173813	0	1	0	1	0	37.4344824173813	0
1.86	37.3742740789359	0	1	0	1	0	37.3742740789359	0
1.87	37.3160537607571	0	1	0	1	0	37.3160537607571	0
1.88	37.2597969269207	0	1	0	1	0	37.2597969269207	0
1.89	37.2054795607815	0	1	0	1	0	37.2054795607815	0
1.9	37.1530781513076	0	1	0	1	0	37.1530781513076	0
1.91	37.1025696798449	0	1	0	1	0	37.1025696798449	0
1.92	37.0539316072946	0	1	0	1	0	37.0539316072946	0
1.93	37.0071418616895	0	1	0	1	0	37.0071418616895	0
1.94	36.9621788261544	0	1	0	1	0	36.9621788261544	0
1.95	36.9190213272373	0	1	0	1	0	36.9190213272373	0
1.96	36.8776486235974	0	1	0	1	0	36.8776486235974	0
1.97	36.8380403950378	0	1	0	1	0	36.8380403950378	0
1.98	36.8001767318708	0	1	0	1	0	36.8001767318708	0
1.99	36.7640381246033	0	1	0	1	0	36.7640381246033	0
2	36.7296054539321	0	1	0	1	0	36.7296054539321	0
2.01	36.6968599810377	0	1	0	1	0	36.6968599810377	0
2.02	36.6657833381662	0	1	0	1	0	36.6657833381662	0
2.03	36.63635751949	0	1	0	1	0	36.63635751949	0
2.04	36.608564872237	0	1	0	1	0	36.608564872237	0
2.05	36.5823880880792	0	1	0	1	0	36.5823880880792	0
2.06	36.5578101947728	0	1	0	1	0	36.5578101947728	0
2.07	36.5348145480402	0	1	0	1	0	36.5348145480402	0
2.08	36.5133848236857	0	1	0	1	0	36.5133848236857	0
2.09	36.4935050099388	0	1	0	1	0	36.4935050099388	0
2.1	36.4751594000147	0	1	0	1	0	36.4751594000147	0
2.11	36.4583325848879	0	1	0	1	0	36.4583325848879	0
2.12	36.4430094462691	0	1	0	1	0	36.4430094462691	0
2.13	36.4291751497805	0	1	0	1	0	36.4291751497805	0
2.14	36.4168151383224	0	1	0	1	0	36.4168151383224	0
2.15	36.4059151256249	0	1	0	1	0	36.4059151256249	0
2.16	36.3964610899786	0	1	0	1	0	36.3964610899786	0
2.17	36.3884392681389	0	1	0	1	0	36.3884392681389	0
2.18	36.3818361493976	0	1	0	1	0	36.3818361493976	0
2.19	36.3766384698177	0	1	0	1	0	36.3766384698177	0
2.2	36.3728332066244	0	1	0	1	0	36.3728332066244	0
2.21	36.3704075727495	0	1	0	1	0	36.3704075727495	0
2.22	36.3693490115222	0	1	0	1	0	36.3693490115222	0
2.23	36.3696451915037	0	1	0	1	0	36.3696451915037	0
2.24	36.3712840014591	0	1	0	1	0	36.3712840014591	0
2.25	36.3742535454647	0	1	0	1	0	36.3742535454647	0
2.26	36.3785421381439	0	1	0	1	0	36.3785421381439	0
2.27	36.3841383000301	0	1	0	1	0	36.3841383000301	0
2.28	36.3910307530505	0	1	0	1	0	36.3910307530505	0
2.29	36.3992084161293	0	1	0	1	0	36.3992084161293	0
2.3	36.4086604009053	0	1	0	1	0	36.4086604009053	0
2.31	36.4193760075601	0	1	0	1	0	36.4193760075601	0
2.32	36.431344720755	0	1	0	1	0	36.431344720755	0
2.33	36.4445562056722	0	1	0	1	0	36.4445562056722	0
2.34	36.4590003041573	0	1	0	1	0	36.4590003041573	0
2.35	36.4746670309608	0	1	0	1	0	36.4746670309608	0
2.36	36.4915465700746	0	1	0	1	0	36.4915465700746	0
2.37	36.5096292711617	0	1	0	1	0	36.5096292711617	0
2.38	36.5289056460758	0	1	0	1	0	36.5289056460758	0
2.39	36.5493663654676	0	1	0	1	0	36.5493663654676	0
2.4	36.5710022554774	0	1	0	1	0	36.5710022554774	0
2.41	36.5938042945084	0	1	0	1	0	36.5938042945084	0
2.42	36.6177636100813	0	1	0	1	0	36.6177636100813	0
2.43	36.6428714757658	0	1	0	1	0	36.6428714757658	0
2.44	36.6691193081879	0	1	0	1	0	36.6691193081879	0
2.45	36.69649866411	0	1	0	1	0	36.69649866411	0
2.46	36.7250012375834	0	1	0	1	0	36.7250012375834	0
2.47	36.7546188571683	0	1	0	1	0	36.7546188571683	0
2.48	36.7853434832226	0	1	0	1	0	36.7853434832226	0
2.49	36.8171672052547	0	1	0	1	0	36.8171672052547	0
2.5	36.8500822393413	0	1	0	1	0	36.8500822393413	0
2.51	36.8840809256054	0	1	0	1	0	36.8840809256054	0
2.52	36.9191557257556	0	1	0	1	0	36.9191557257556	0
2.53	36.9552992206825	0	1	0	1	0	36.9552992206825	0
2.54	36.9925041081137	0	1	0	1	0	36.9925041081137	0
2.55	37.0307632003217	0	1	0	1	0	37.0307632003217	0
2.56	37.0700694218876	0	1	0	1	0	37.0700694218876	0
2.57	37.1104158075156	0	1	0	1	0	37.1104158075156	0
2.58	37.151795499899	0	1	0	1	0	37.151795499899	0
2.59	37.1942017476354	0	1	0	1	0	37.1942017476354	0
2.6	37.2376279031902	0	1	0	1	0	37.2376279031902	0
2.61	37.2820674209068	0	1	0	1	0	37.2820674209068	0
2.62	37.3275138550621	0	1	0	1	0	37.3275138550621	0
2.63	37.3739608579669	0	1	0	1	0	37.3739608579669	0
2.64	37.4214021781093	0	1	0	1	0	37.4214021781093	0
2.65	37.4698316583394	0	1	0	1	0	37.4698316583394	0
2.66	37.5192432340965	0	1	0	1	0	37.5192432340965	0
2.67	37.5696309316743	0	1	0	1	0	37.5696309316743	0
2.68	37.6209888665268	0	1	0	1	0	37.6209888665268	0
2.69	37.67331124161	0	1	0	1	0	37.67331124161	0
2.7	37.7265923457625	0	1	0	1	0	37.7265923457625	0
2.71	37.7808265521201	0	1	0	1	0	37.7808265521201	0
2.72	37.836008316567	0	1	0	1	0	37.836008316567	0
2.73	37.8921321762194	0	1	0	1	0	37.8921321762194	0
2.74	37.9491927479441	0	1	0	1	0	37.9491927479441	0
2.75	38.0071847269077	0	1	0	1	0	38.0071847269077	0
2.76	38.0661028851585	0	1	0	1	0	38.0661028851585	0
2.77	38.1259420702388	0	1	0	1	0	38.1259420702388	0
2.78	38.1866972038268	0	1	0	1	0	38.1866972038268	0
2.79	38.2483632804085	0	1	0	1	0	38.2483632804085	0
2.8	38.3109353659768	0	1	0	1	0	38.3109353659768	0
2.81	38.37440859676	0	1	0	1	0	38.37440859676	0
2.82	38.4387781779758	0	1	0	1	0	38.4387781779758	0
2.83	38.5040393826128	0	1	0	1	0	38.5040393826128	0
2.84	38.570187550237	0	1	0	1	0	38.570187550237	0
2.85	38.6372180858244	0	1	0	1	0	38.6372180858244	0
2.86	38.7051264586168	0	1	0	1	0	38.7051264586168	0
2.87	38.7739082010025	0	1	0	1	0	38.7739082010025	0
2.88	38.8435589074199	0	1	0	1	0	38.8435589074199	0
2.89	38.9140742332841	0	1	0	1	0	38.9140742332841	0
2.9	38.9854498939356	0	1	0	1	0	38.9854498939356	0
2.91	39.0576816636104	0	1	0	1	0	39.0576816636104	0
2.92	39.1307653744318	0	1	0	1	0	39.1307653744318	0
2.93	39.2046969154224	0	1	0	1	0	39.2046969154224	0
2.94	39.2794722315364	0	1	0	1	0	39.2794722315364	0
2.95	39.3550873227117	0	1	0	1	0	39.3550873227117	0
2.96	39.4315382429412	0	1	0	1	0	39.4315382429412	0
2.97	39.5088210993626	0	1	0	1	0	39.5088210993626	0
2.98	39.5869320513667	0	1	0	1	0	39.5869320513667	0
2.99	39.6658673097239	0	1	0	1	0	39.6658673097239	0
3	39.7456231357274	0	1	0	1	0	39.7456231357274	0
3.01	39.8261958403545	0	1	0	1	0	39.8261958403545	0
3.02	39.9075817834433	0	1	0	1	0	39.9075817834433	0
3.03	39.9897773728874	0	1	0	1	0	39.9897773728874	0
3.04	40.0727790638445	0	1	0	1	0	40.0727790638445	0
3.05	40.1565833579623	0	1	0	1	0	40.1565833579623	0
3.06	40.2411868026185	0	1	0	1	0	40.2411868026185	0
3.07	40.326585990176	0	1	0	1	0	40.326585990176	0
3.08	40.4127775572529	0	1	0	1	0	40.4127775572529	0
3.09	40.4997581840062	0	1	0	1	0	40.4997581840062	0
3.1	40.5875245934296	0	1	0	1	0	40.5875245934296	0
3.11	40.6760735506645	0	1	0	1	0	40.6760735506645	0
3.12	40.7654018623253	0	1	0	1	0	40.7654018623253	0
3.13	40.8555063758362	0	1	0	1	0	40.8555063758362	0
3.14	40.9463839787815	0	1	0	1	0	40.9463839787815	0
3.15	41.0380315982685	0	1	0	1	0	41.0380315982685	0
3.16	41.1304462003016	0	1	0	1	0	41.1304462003016	0
3.17	41.2236247891693	0	1	0	1	0	41.2236247891693	0
3.18	41.3175644068418	0	1	0	1	0	41.3175644068418	0
3.19	41.4122621323808	0	1	0	1	0	41.4122621323808	0
3.2	41.5077150813596	0	1	0	1	0	41.5077150813596	0
3.21	41.6039204052944	0	1	0	1	0	41.6039204052944	0
3.22	41.7008752910866	0	1	0	1	0	41.7008752910866	0
3.23	41.7985769604743	0	1	0	1	0	41.7985769604743	0
3.24	41.8970226694956	0	1	0	1	0	41.8970226694956	0
3.25	41.9962097079602	0	1	0	1	0	41.9962097079602	0
3.26	42.0961353989315	0	1	0	1	0	42.0961353989315	0
3.27	42.1967970982187	0	1	0	1	0	42.1967970982187	0
3.28	42.2981921938769	0	1	0	1	0	42.2981921938769	0
3.29	42.4003181057175	0	1	0	1	0	42.4003181057175	0
3.3	42.5031722848269	0	1	0	1	0	42.5031722848269	0
3.31	42.6067522130941	0	1	0	1	0	42.6067522130941	0
3.32	42.7110554027468	0	1	0	1	0	42.7110554027468	0
3.33	42.8160793958957	0	1	0	1	0	42.8160793958957	0
3.34	42.9218217640876	0	1	0	1	0	42.9218217640876	0
3.35	43.0282801078654	0	1	0	1	0	43.0282801078654	0
3.36	43.1354520563372	0	1	0	1	0	43.1354520563372	0
3.37	43.2433352667522	0	1	0	1	0	43.2433352667522	0
3.38	43.3519274240845	0	1	0	1	0	43.3519274240845	0
3.39	43.461226240624	0	1	0	1	0	43.461226240624	0
3.4	43.571229455575	0	1	0	1	0	43.571229455575	0
3.41	43.6819348346613	0	1	0	1	0	43.6819348346613	0
3.42	43.7933401697386	0	1	0	1	0	43.7933401697386	0
3.43	43.9054432784136	0	1	0	1	0	43.9054432784136	0
3.44	44.0182420036695	0	1	0	1	0	44.0182420036695	0
3.45	44.1317342134987	0	1	0	1	0	44.1317342134987	0
3.46	44.2459178005408	0	1	0	1	0	44.2459178005408	0
3.47	44.3607906817279	0	1	0	1	0	44.3607906817279	0
3.48	44.4763507979354	0	1	0	1	0	44.4763507979354	0
3.49	44.5925961136388	0	1	0	1	0	44.5925961136388	0
3.5	44.7095246165769	0	1	0	1	0	44.7095246165769	0
3.51	44.8271343174203	0	1	0	1	0	44.8271343174203	0
3.52	44.9454232494456	0	1	0	1	0	44.9454232494456	0
3.53	45.064389468215	0	1	0	1	0	45.064389468215	0
3.54	45.184031051262	0	1	0	1	0	45.184031051262	0
3.55	45.3043460977816	0	1	0	1	0	45.3043460977816	0
3.56	45.4253327283261	0	1	0	1	0	45.4253327283261	0
3.57	45.5469890845062	0	1	0	1	0	45.5469890845062	0
3.58	45.6693133286965	0	1	0	1	0	45.6693133286965	0
3.59	45.7923036437468	0	1	0	1	0	45.7923036437468	0
3.6	45.9159582326973	0	1	0	1	0	45.9159582326973	0
3.61	46.040275318499	0	1	0	1	0	46.040275318499	0
3.62	46.1652531437391	0	1	0	1	0	46.1652531437391	0
3.63	46.29088997037	0	1	0	1	0	46.29088997037	0
3.64	46.4171840794435	0	1	0	1	0	46.4171840794435	0
3.65	46.5441337708494	0	1	0	1	0	46.5441337708494	0
3.66	46.6717373630577	0	1	0	1	0	46.6717373630577	0
3.67	46.7999931928659	0	1	0	1	0	46.7999931928659	0
3.68	46.9288996151496	0	1	0	1	0	46.9288996151496	0
3.69	47.058455002618	0	1	0	1	0	47.058455002618	0
3.7	47.1886577455724	0	1	0	1	0	47.1886577455724	0
3.71	47.3195062516693	0	1	0	1	0	47.3195062516693	0
3.72	47.4509989456874	0	1	0	1	0	47.4509989456874	0
3.73	47.5831342692977	0	1	0	1	0	47.5831342692977	0
3.74	47.7159106808378	0	1	0	1	0	47.7159106808378	0
3.75	47.8493266550898	0	1	0	1	0	47.8493266550898	0
3.76	47.9833806830615	0	1	0	1	0	47.9833806830615	0
3.77	48.1180712717712	0	1	0	1	0	48.1180712717712	0
3.78	48.2533969440359	0	1	0	1	0	48.2533969440359	0
3.79	48.389356238263	0	1	0	1	0	48.389356238263	0
3.8	48.525947708245	0	1	0	1	0	48.525947708245	0
3.81	48.6631699229578	0	1	0	1	0	48.6631699229578	0
3.82	48.8010214663618	0	1	0	1	0	48.8010214663618	0
3.83	48.9395009372063	0	1	0	1	0	48.9395009372063	0
3.84	49.0786069488369	0	1	0	1	0	49.0786069488369	0
3.85	49.2183381290062	0	1	0	1	0	49.2183381290062	0
3.86	49.3586931196867	0	1	0	1	0	49.3586931196867	0
3.87	49.4996705768877	0	1	0	1	0	49.4996705768877	0
3.88	49.6412691704736	0	1	0	1	0	49.6412691704736	0
3.89	49.7834875839869	0	1	0	1	0	49.7834875839869	0
3.9	49.9263245144716	0	1	0	1	0	49.9263245144716	0
3.91	50.0697786723017	0	1	0	1	0	50.0697786723017	0
3.92	50.2138487810102	0	1	0	1	0	50.2138487810102	0
3.93	50.3585335771226	0	1	0	1	0	50.3585335771226	0
3.94	50.5038318099912	0	1	0	1	0	50.5038318099912	0
3.95	50.6497422416331	0	1	0	1	0	50.6497422416331	0
3.96	50.7962636465705	0	1	0	1	0	50.7962636465705	0
3.97	50.9433948116727	0	1	0	1	0	50.9433948116727	0
3.98	51.0911345360016	0	1	0	1	0	51.0911345360016	0
3.99	51.2394816306583	0	1	0	1	0	51.2394816306583	0
4	51.388434918633	0	1	0	1	0	51.388434918633	0
4.01	51.5379932346566	0	1	0	1	0	51.5379932346566	0
4.02	51.6881554250548	0	1	0	1	0	51.6881554250548	0
4.03	51.8389203476042	0	1	0	1	0	51.8389203476042	0
4.04	51.9902868713903	0	1	0	1	0	51.9902868713903	0
4.05	52.1422538766683	0	1	0	1	0	52.1422538766683	0
4.06	52.2948202547254	0	1	0	1	0	52.2948202547254	0
4.07	52.4479849077453	0	1	0	1	0	52.4479849077453	0
4.08	52.6017467486742	0	1	0	1	0	52.6017467486742	0
4.09	52.7561047010903	0	1	0	1	0	52.7561047010903	0
4.1	52.9110576990728	0	1	0	1	0	52.9110576990728	0
4.11	53.0666046870752	0	1	0	1	0	53.0666046870752	0
4.12	53.2227446197991	0	1	0	1	0	53.2227446197991	0
4.13	53.3794764620698	0	1	0	1	0	53.3794764620698	0
4.14	53.5367991887144	0	1	0	1	0	53.5367991887144	0
4.15	53.6947117844412	0	1	0	1	0	53.6947117844412	0
4.16	53.8532132437209	0	1	0	1	0	53.8532132437209	0
4.17	54.0123025706695	0	1	0	1	0	54.0123025706695	0
4.18	54.1719787789332	0	1	0	1	0	54.1719787789332	0
4.19	54.3322408915742	0	1	0	1	0	54.3322408915742	0
4.2	54.493087940959	0	1	0	1	0	54.493087940959	0
4.21	54.6545189686479	0	1	0	1	0	54.6545189686479	0
4.22	54.8165330252856	0	1	0	1	0	54.8165330252856	0
4.23	54.9791291704945	0	1	0	1	0	54.9791291704945	0
4.24	55.1423064727683	0	1	0	1	0	55.1423064727683	0
4.25	55.3060640093678	0	1	0	1	0	55.3060640093678	0
4.26	55.4704008662181	0	1	0	1	0	55.4704008662181	0
4.27	55.6353161378071	0	1	0	1	0	55.6353161378071	0
4.28	55.8008089270853	0	1	0	1	0	55.8008089270853	0
4.29	55.9668783453674	0	1	0	1	0	55.9668783453674	0
4.3	56.1335235122349	0	1	0	1	0	56.1335235122349	0
4.31	56.3007435554402	0	1	0	1	0	56.3007435554402	0
4.32	56.4685376108121	0	1	0	1	0	56.4685376108121	0
4.33	56.6369048221627	0	1	0	1	0	56.6369048221627	0
4.34	56.8058443411948	0	1	0	1	0	56.8058443411948	0
4.35	56.975355327412	0	1	0	1	0	56.975355327412	0
4.36	57.1454369480288	0	1	0	1	0	57.1454369480288	0
4.37	57.3160883778823	0	1	0	1	0	57.3160883778823	0
4.38	57.4873087993455	0	1	0	1	0	57.4873087993455	0
4.39	57.6590974022413	0	1	0	1	0	57.6590974022413	0
4.4	57.8314533837577	0	1	0	1	0	57.8314533837577	0
4.41	58.0043759483645	0	1	0	1	0	58.0043759483645	0
4.42	58.1778643077311	0	1	0	1	0	58.1778643077311	0
4.43	58.3519176806446	0	1	0	1	0	58.3519176806446	0
4.44	58.5265352929304	0	1	0	1	0	58.5265352929304	0
4.45	58.7017163773726	0	1	0	1	0	58.7017163773726	0
4.46	58.8774601736361	0	1	0	1	0	58.8774601736361	0
4.47	59.05376592819	0	1	0	1	0	59.05376592819	0
4.48	59.230632894231	0	1	0	1	0	59.230632894231	0
4.49	59.408060331609	0	1	0	1	0	59.408060331609	0
4.5	59.586047506753	0	1	0	1	0	59.586047506753	0
4.51	59.7645936925982	0	1	0	1	0	59.7645936925982	0
4.52	59.943698168514	0	1	0	1	0	59.943698168514	0
4.53	60.1233602202328	0	1	0	1	0	60.1233602202328	0
4.54	60.3035791397805	0	1	0	1	0	60.3035791397805	0
4.55	60.4843542254065	0	1	0	1	0	60.4843542254065	0
4.56	60.6656847815162	0	1	0	1	0	60.6656847815162	0
4.57	60.8475701186032	0	1	0	1	0	60.8475701186032	0
4.58	61.0300095531832	0	1	0	1	0	61.0300095531832	0
4.59	61.2130024077279	0	1	0	1	0	61.2130024077279	0
4.6	61.3965480106009	0	1	0	1	0	61.3965480106009	0
4.61	61.580645695993	0	1	0	1	0	61.580645695993	0
4.62	61.76529480386	0	1	0	1	0	61.76529480386	0
4.63	61.9504946798599	0	1	0	1	0	61.9504946798599	0
4.64	62.1362446752914	0	1	0	1	0	62.1362446752914	0
4.65	62.3225441470335	0	1	0	1	0	62.3225441470335	0
4.66	62.5093924574859	0	1	0	1	0	62.5093924574859	0
4.67	62.696788974509	0	1	0	1	0	62.696788974509	0
4.68	62.8847330713665	0	1	0	1	0	62.8847330713665	0
4.69	63.0732241266671	0	1	0	1	0	63.0732241266671	0
4.7	63.2622615243083	0	1	0	1	0	63.2622615243083	0
4.71	63.4518446534196	0	1	0	1	0	63.4518446534196	0
4.72	63.6419729083075	0	1	0	1	0	63.6419729083075	0
4.73	63.8326456884005	0	1	0	1	0	63.8326456884005	0
4.74	64.0238623981953	0	1	0	1	0	64.0238623981953	0
4.75	64.2156224472036	0	1	0	1	0	64.2156224472036	0
4.76	64.4079252498988	0	1	0	1	0	64.4079252498988	0
4.77	64.6007702256645	0	1	0	1	0	64.6007702256645	0
4.78	64.7941567987432	0	1	0	1	0	64.7941567987432	0
4.79	64.9880843981851	0	1	0	1	0	64.9880843981851	0
4.8	65.1825524577987	0	1	0	1	0	65.1825524577987	0
4.81	65.3775604161004	0	1	0	1	0	65.3775604161004	0
4.82	65.5731077162668	0	1	0	1	0	65.5731077162668	0
4.83	65.7691938060856	0	1	0	1	0	65.7691938060856	0
4.84	65.9658181379081	0	1	0	1	0	65.9658181379081	0
4.85	66.1629801686025	0	1	0	1	0	66.1629801686025	0
4.86	66.3606793595072	0	1	0	1	0	66.3606793595072	0
4.87	66.5589151763848	0	1	0	1	0	66.5589151763848	0
4.88	66.7576870893771	0	1	0	1	0	66.7576870893771	0
4.89	66.95699457296	0	1	0	1	0	66.95699457296	0
4.9	67.1568371058993	0	1	0	1	0	67.1568371058993	0
4.91	67.3572141712072	0	1	0	1	0	67.3572141712072	0
4.92	67.5581252560991	0	1	0	1	0	67.5581252560991	0
4.93	67.7595698519508	0	1	0	1	0	67.7595698519508	0
