# GHZ S RI R 50
1	51.0343618006024	0	1	0	1	0	51.0343618006024	0
1.01	50.6068072888013	0	1	0	1	0	50.6068072888013	0
1.02	50.1889645057105	0	1	0	1	0	50.1889645057105	0
1.03	49.7805636093136	0	1	0	1	0	49.7805636093136	0
1.04	49.3813451361336	0	1	0	1	0	49.3813451361336	0
1.05	48.9910595070164	0	1	0	1	0	48.9910595070164	0
1.06	48.609466560889	0	1	0	1	0	48.609466560889	0
1.07	48.2363351146626	0	1	0	1	0	48.2363351146626	0
1.08	47.8714425475851	0	1	0	1	0	47.8714425475851	0
1.09	47.514574408473	0	1	0	1	0	47.514574408473	0
1.1	47.1655240443679	0	1	0	1	0	47.1655240443679	0
1.11	46.8240922492647	0	1	0	1	0	46.8240922492647	0
1.12	46.4900869316588	0	1	0	1	0	46.4900869316588	0
1.13	46.1633227997444	0	1	0	1	0	46.1633227997444	0
1.14	45.8436210631828	0	1	0	1	0	45.8436210631828	0
1.15	45.5308091504299	0	1	0	1	0	45.5308091504299	0
1.16	45.2247204406841	0	1	0	1	0	45.2247204406841	0
1.17	44.9251940095818	0	1	0	1	0	44.9251940095818	0
1.18	44.6320743878224	0	1	0	1	0	44.6320743878224	0
1.19	44.3452113319641	0	1	0	1	0	44.3452113319641	0
1.2	44.06445960668	0	1	0	1	0	44.06445960668	0
1.21	43.7896787778108	0	1	0	1	0	43.7896787778108	0
1.22	43.5207330155962	0	1	0	1	0	43.5207330155962	0
1.23	43.2574909075035	0	1	0	1	0	43.2574909075035	0
1.24	42.9998252801143	0	1	0	1	0	42.9998252801143	0
1.25	42.7476130295592	0	1	0	1	0	42.7476130295592	0
1.26	42.5007349600286	0	1	0	1	0	42.5007349600286	0
1.27	42.2590756299113	0	1	0	1	0	42.2590756299113	0
1.28	42.0225232051466	0	1	0	1	0	42.0225232051466	0
1.29	41.7909693193964	0	1	0	1	0	41.7909693193964	0
1.3	41.5643089406718	0	1	0	1	0	41.5643089406718	0
1.31	41.3424402440673	0	1	0	1	0	41.3424402440673	0
1.32	41.1252644902807	0	1	0	1	0	41.1252644902807	0
1.33	40.9126859096127	0	1	0	1	0	40.9126859096127	0
1.34	40.7046115911612	0	1	0	1	0	40.7046115911612	0
1.35	40.5009513769396	0	1	0	1	0	40.5009513769396	0
1.36	40.3016177606669	0	1	0	1	0	40.3016177606669	0
1.37	40.1065257909899	0	1	0	1	0	40.1065257909899	0
1.38	39.9155929789136	0	1	0	1	0	39.9155929789136	0
1.39	39.7287392092267	0	1	0	1	0	39.7287392092267	0
1.4	39.5458866557244	0	1	0	1	0	39.5458866557244	0
1.41	39.3669597000371	0	1	0	1	0	39.3669597000371	0
1.42	39.1918848538904	0	1	0	1	0	39.1918848538904	0
1.43	39.0205906846258	0	1	0	1	0	39.0205906846258	0
1.44	38.8530077438253	0	1	0	1	0	38.8530077438253	0
1.45	38.6890684988896	0	1	0	1	0	38.6890684988896	0
1.46	38.5287072674272	0	1	0	1	0	38.5287072674272	0
1.47	38.3718601543228	0	1	0	1	0	38.3718601543228	0
1.48	38.218464991356	0	1	0	1	0	38.218464991356	0
1.49	38.0684612792521	0	1	0	1	0	38.0684612792521	0
1.5	37.9217901320503	0	1	0	1	0	37.9217901320503	0
1.51	37.7783942236826	0	1	0	1	0	37.7783942236826	0
1.52	37.638217736662	0	1	0	1	0	37.638217736662	0
1.53	37.5012063127821	0	1	0	1	0	37.5012063127821	0
1.54	37.3673070057379	0	1	0	1	0	37.3673070057379	0
1.55	37.2364682355809	0	1	0	1	0	37.2364682355809	0
1.56	37.108639744925	0	1	0	1	0	37.108639744925	0
1.57	36.9837725568275	0	1	0	1	0	36.9837725568275	0
1.58	36.861818934268	0	1	0	1	0	36.861818934268	0
1.59	36.7427323411574	0	1	0	1	0	36.7427323411574	0
1.6	36.626467404809	0	1	0	1	0	36.626467404809	0
1.61	36.5129798798077	0	1	0	1	0	36.5129798798077	0
1.62	36.402226613218	0	1	0	1	0	36.402226613218	0
1.63	36.2941655110718	0	1	0	1	0	36.2941655110718	0
1.64	36.1887555060834	0	1	0	1	0	36.1887555060834	0
1.65	36.0859565265376	0	1	0	1	0	36.0859565265376	0
1.66	35.9857294663027	0	1	0	1	0	35.9857294663027	0
1.67	35.8880361559208	0	1	0	1	0	35.8880361559208	0
1.68	35.7928393347305	0	1	0	1	0	35.7928393347305	0
1.69	35.7001026239798	0	1	0	1	0	35.7001026239798	0
1.7	35.6097905008872	0	1	0	1	0	35.6097905008872	0
1.71	35.5218682736133	0	1	0	1	0	35.5218682736133	0
1.72	35.436302057106	0	1	0	1	0	35.436302057106	0
1.73	35.3530587497824	0	1	0	1	0	35.3530587497824	0
1.74	35.2721060110155	0	1	0	1	0	35.2721060110155	0
1.75	35.1934122393927	0	1	0	1	0	35.1934122393927	0
1.76	35.1169465517154	0	1	0	1	0	35.1169465517154	0
1.77	35.0426787627102	0	1	0	1	0	35.0426787627102	0
1.78	34.9705793654246	0	1	0	1	0	34.9705793654246	0
1.79	34.9006195122792	0	1	0	1	0	34.9006195122792	0
1.8	34.8327709967523	0	1	0	1	0	34.8327709967523	0
1.81	34.7670062356701	0	1	0	1	0	34.7670062356701	0
1.82	34.703298252083	0	1	0	1	0	34.703298252083	0
1.83	34.6416206587013	0	1	0	1	0	34.6416206587013	0
1.84	34.5819476418718	0	1	0	1	0	34.5819476418718	0
1.85	34.5242539460747	0	1	0	1	0	34.5242539460747	0
1.86	34.4685148589194	0	1	0	1	0	34.4685148589194	0
1.87	34.4147061966227	0	1	0	1	0	34.4147061966227	0
1.88	34.36280428995	0	1	0	1	0	34.36280428995	0
1.89	34.3127859706028	0	1	0	1	0	34.3127859706028	0
1.9	34.2646285580364	0	1	0	1	0	34.2646285580364	0
1.91	34.2183098466911	0	1	0	1	0	34.2183098466911	0
1.92	34.1738080936232	0	1	0	1	0	34.1738080936232	0
1.93	34.1311020065199	0	1	0	1	0	34.1311020065199	0
1.94	34.0901707320852	0	1	0	1	0	34.0901707320852	0
1.95	34.050993844783	0	1	0	1	0	34.050993844783	0
1.96	34.0135513359247	0	1	0	1	0	34.0135513359247	0
1.97	33.9778236030899	0	1	0	1	0	33.9778236030899	0
1.98	33.9437914398663	0	1	0	1	0	33.9437914398663	0
1.99	33.9114360259003	0	1	0	1	0	33.9114360259003	0
2	33.8807389172453	0	1	0	1	0	33.8807389172453	0
2.01	33.8516820369986	0	1	0	1	0	33.8516820369986	0
2.02	33.8242476662157	0	1	0	1	0	33.8242476662157	0
2.03	33.7984184350941	0	1	0	1	0	33.7984184350941	0
2.04	33.7741773144156	0	1	0	1	0	33.7741773144156	0
2.05	33.7515076072392	0	1	0	1	0	33.7515076072392	0
2.06	33.7303929408367	0	1	0	1	0	33.7303929408367	0
2.07	33.710817258861	0	1	0	1	0	33.710817258861	0
2.08	33.6927648137407	0	1	0	1	0	33.6927648137407	0
2.09	33.6762201592936	0	1	0	1	0	33.6762201592936	0
2.1	33.6611681435504	0	1	0	1	0	33.6611681435504	0
2.11	33.6475939017828	0	1	0	1	0	33.6475939017828	0
2.12	33.6354828497293	0	1	0	1	0	33.6354828497293	0
2.13	33.624820677011	0	1	0	1	0	33.624820677011	0
2.14	33.615593340733	0	1	0	1	0	33.615593340733	0
2.15	33.6077870592634	0	1	0	1	0	33.6077870592634	0
2.16	33.6013883061855	0	1	0	1	0	33.6013883061855	0
2.17	33.5963838044179	0	1	0	1	0	33.5963838044179	0
2.18	33.5927605204951	0	1	0	1	0	33.5927605204951	0
2.19	33.5905056590058	0	1	0	1	0	33.5905056590058	0
2.2	33.5896066571825	0	1	0	1	0	33.5896066571825	0
2.21	33.5900511796383	0	1	0	1	0	33.5900511796383	0
2.22	33.5918271132453	0	1	0	1	0	33.5918271132453	0
2.23	33.5949225621515	0	1	0	1	0	33.5949225621515	0
2.24	33.5993258429309	0	1	0	1	0	33.5993258429309	0
2.25	33.6050254798629	0	1	0	1	0	33.6050254798629	0
2.26	33.6120102003367	0	1	0	1	0	33.6120102003367	0
2.27	33.6202689303782	0	1	0	1	0	33.6202689303782	0
2.28	33.6297907902932	0	1	0	1	0	33.6297907902932	0
2.29	33.6405650904262	0	1	0	1	0	33.6405650904262	0
2.3	33.6525813270284	0	1	0	1	0	33.6525813270284	0
2.31	33.6658291782343	0	1	0	1	0	33.6658291782343	0
2.32	33.6802985001415	0	1	0	1	0	33.6802985001415	0
2.33	33.695979322992	0	1	0	1	0	33.695979322992	0
2.34	33.7128618474507	0	1	0	1	0	33.7128618474507	0
2.35	33.7309364409801	0	1	0	1	0	33.7309364409801	0
2.36	33.7501936343057	0	1	0	1	0	33.7501936343057	0
2.37	33.7706241179721	0	1	0	1	0	33.7706241179721	0
2.38	33.7922187389855	0	1	0	1	0	33.7922187389855	0
2.39	33.8149684975401	0	1	0	1	0	33.8149684975401	0
2.4	33.8388645438268	0	1	0	1	0	33.8388645438268	0
2.41	33.8638981749215	0	1	0	1	0	33.8638981749215	0
2.42	33.8900608317499	0	1	0	1	0	33.8900608317499	0
2.43	33.917344096128	0	1	0	1	0	33.917344096128	0
2.44	33.9457396878746	0	1	0	1	0	33.9457396878746	0
2.45	33.9752394619953	0	1	0	1	0	33.9752394619953	0
2.46	34.0058354059346	0	1	0	1	0	34.0058354059346	0
2.47	34.037519636895	0	1	0	1	0	34.037519636895	0
2.48	34.0702843992207	0	1	0	1	0	34.0702843992207	0
2.49	34.104122061845	0	1	0	1	0	34.104122061845	0
2.5	34.1390251157982	0	1	0	1	0	34.1390251157982	0
2.51	34.1749861717754	0	1	0	1	0	34.1749861717754	0
2.52	34.2119979577623	0	1	0	1	0	34.2119979577623	0
2.53	34.2500533167171	0	1	0	1	0	34.2500533167171	0
2.54	34.2891452043073	0	1	0	1	0	34.2891452043073	0
2.55	34.3292666866999	0	1	0	1	0	34.3292666866999	0
2.56	34.370410938403	0	1	0	1	0	34.370410938403	0
2.57	34.4125712401578	0	1	0	1	0	34.4125712401578	0
2.58	34.4557409768803	0	1	0	1	0	34.4557409768803	0
2.59	34.4999136356499	0	1	0	1	0	34.4999136356499	0
2.6	34.5450828037447	0	1	0	1	0	34.5450828037447	0
2.61	34.5912421667222	0	1	0	1	0	34.5912421667222	0
2.62	34.6383855065435	0	1	0	1	0	34.6383855065435	0
2.63	34.6865066997407	0	1	0	1	0	34.6865066997407	0
2.64	34.7355997156256	0	1	0	1	0	34.7355997156256	0
2.65	34.7856586145393	0	1	0	1	0	34.7856586145393	0
2.66	34.8366775461413	0	1	0	1	0	34.8366775461413	0
2.67	34.8886507477363	0	1	0	1	0	34.8886507477363	0
2.68	34.9415725426396	0	1	0	1	0	34.9415725426396	0
2.69	34.9954373385781	0	1	0	1	0	34.9954373385781	0
2.7	35.0502396261273	0	1	0	1	0	35.0502396261273	0
2.71	35.1059739771823	0	1	0	1	0	35.1059739771823	0
2.72	35.1626350434636	0	1	0	1	0	35.1626350434636	0
2.73	35.2202175550548	0	1	0	1	0	35.2202175550548	0
2.74	35.2787163189722	0	1	0	1	0	35.2787163189722	0
2.75	35.3381262177669	0	1	0	1	0	35.3381262177669	0
2.76	35.3984422081555	0	1	0	1	0	35.3984422081555	0
2.77	35.459659319682	0	1	0	1	0	35.459659319682	0
2.78	35.5217726534078	0	1	0	1	0	35.5217726534078	0
2.79	35.5847773806299	0	1	0	1	0	35.5847773806299	0
2.8	35.6486687416267	0	1	0	1	0	35.6486687416267	0
2.81	35.7134420444308	0	1	0	1	0	35.7134420444308	0
2.82	35.7790926636275	0	1	0	1	0	35.7790926636275	0
2.83	35.8456160391789	0	1	0	1	0	35.8456160391789	0
2.84	35.9130076752729	0	1	0	1	0	35.9130076752729	0
2.85	35.9812631391968	0	1	0	1	0	35.9812631391968	0
2.86	36.0503780602337	0	1	0	1	0	36.0503780602337	0
2.87	36.1203481285826	0	1	0	1	0	36.1203481285826	0
2.88	36.1911690943009	0	1	0	1	0	36.1911690943009	0
2.89	36.2628367662688	0	1	0	1	0	36.2628367662688	0
2.9	36.3353470111748	0	1	0	1	0	36.3353470111748	0
2.91	36.408695752523	0	1	0	1	0	36.408695752523	0
2.92	36.4828789696597	0	1	0	1	0	36.4828789696597	0
2.93	36.5578926968208	0	1	0	1	0	36.5578926968208	0
2.94	36.633733022198	0	1	0	1	0	36.633733022198	0
2.95	36.7103960870246	0	1	0	1	0	36.7103960870246	0
2.96	36.7878780846794	0	1	0	1	0	36.7878780846794	0
2.97	36.8661752598088	0	1	0	1	0	36.8661752598088	0
2.98	36.9452839074666	0	1	0	1	0	36.9452839074666	0
2.99	37.0252003722711	0	1	0	1	0	37.0252003722711	0
3	37.1059210475791	0	1	0	1	0	37.1059210475791	0
3.01	37.1874423746762	0	1	0	1	0	37.1874423746762	0
3.02	37.2697608419831	0	1	0	1	0	37.2697608419831	0
3.03	37.3528729842782	0	1	0	1	0	37.3528729842782	0
3.04	37.4367753819349	0	1	0	1	0	37.4367753819349	0
3.05	37.5214646601741	0	1	0	1	0	37.5214646601741	0
3.06	37.6069374883315	0	1	0	1	0	37.6069374883315	0
3.07	37.6931905791389	0	1	0	1	0	37.6931905791389	0
3.08	37.7802206880202	0	1	0	1	0	37.7802206880202	0
3.09	37.8680246124001	0	1	0	1	0	37.8680246124001	0
3.1	37.9565991910268	0	1	0	1	0	37.9565991910268	0
3.11	38.0459413033079	0	1	0	1	0	38.0459413033079	0
3.12	38.1360478686584	0	1	0	1	0	38.1360478686584	0
3.13	38.2269158458619	0	1	0	1	0	38.2269158458619	0
3.14	38.3185422324435	0	1	0	1	0	38.3185422324435	0
3.15	38.4109240640551	0	1	0	1	0	38.4109240640551	0
3.16	38.5040584138719	0	1	0	1	0	38.5040584138719	0
3.17	38.5979423920007	0	1	0	1	0	38.5979423920007	0
3.18	38.6925731448991	0	1	0	1	0	38.6925731448991	0
3.19	38.7879478548059	0	1	0	1	0	38.7879478548059	0
3.2	38.8840637391817	0	1	0	1	0	38.8840637391817	0
3.21	38.9809180501608	0	1	0	1	0	38.9809180501608	0
3.22	39.0785080740123	0	1	0	1	0	39.0785080740123	0
3.23	39.1768311306118	0	1	0	1	0	39.1768311306118	0
3.24	39.2758845729229	0	1	0	1	0	39.2758845729229	0
3.25	39.3756657864883	0	1	0	1	0	39.3756657864883	0
3.26	39.4761721889297	0	1	0	1	0	39.4761721889297	0
3.27	39.5774012294576	0	1	0	1	0	39.5774012294576	0
3.28	39.6793503883897	0	1	0	1	0	39.6793503883897	0
3.29	39.7820171766782	0	1	0	1	0	39.7820171766782	0
3.3	39.8853991354453	0	1	0	1	0	39.8853991354453	0
3.31	39.9894938355282	0	1	0	1	0	39.9894938355282	0
3.32	40.0942988770307	0	1	0	1	0	40.0942988770307	0
3.33	40.1998118888845	0	1	0	1	0	40.1998118888845	0
3.34	40.306030528417	0	1	0	1	0	40.306030528417	0
3.35	40.412952480928	0	1	0	1	0	40.412952480928	0
3.36	40.5205754592734	0	1	0	1	0	40.5205754592734	0
3.37	40.6288972034559	0	1	0	1	0	40.6288972034559	0
3.38	40.7379154802239	0	1	0	1	0	40.7379154802239	0
3.39	40.8476280826769	0	1	0	1	0	40.8476280826769	0
3.4	40.9580328298778	0	1	0	1	0	40.9580328298778	0
3.41	41.0691275664725	0	1	0	1	0	41.0691275664725	0
3.42	41.1809101623155	0	1	0	1	0	41.1809101623155	0
3.43	41.2933785121028	0	1	0	1	0	41.2933785121028	0
3.44	41.4065305350107	0	1	0	1	0	41.4065305350107	0
3.45	41.520364174341	0	1	0	1	0	41.520364174341	0
3.46	41.6348773971721	0	1	0	1	0	41.6348773971721	0
3.47	41.7500681940171	0	1	0	1	0	41.7500681940171	0
3.48	41.8659345784863	0	1	0	1	0	41.8659345784863	0
3.49	41.9824745869567	0	1	0	1	0	41.9824745869567	0
3.5	42.0996862782468	0	1	0	1	0	42.0996862782468	0
3.51	42.2175677332968	0	1	0	1	0	42.2175677332968	0
3.52	42.3361170548543	0	1	0	1	0	42.3361170548543	0
3.53	42.4553323671658	0	1	0	1	0	42.4553323671658	0
3.54	42.5752118156723	0	1	0	1	0	42.5752118156723	0
3.55	42.6957535667117	0	1	0	1	0	42.6957535667117	0
3.56	42.8169558072244	0	1	0	1	0	42.8169558072244	0
3.57	42.9388167444657	0	1	0	1	0	42.9388167444657	0
3.58	43.061334605721	0	1	0	1	0	43.061334605721	0
3.59	43.1845076380279	0	1	0	1	0	43.1845076380279	0
3.6	43.3083341079011	0	1	0	1	0	43.3083341079011	0
3.61	43.4328123010629	0	1	0	1	0	43.4328123010629	0
3.62	43.557940522178	0	1	0	1	0	43.557940522178	0
3.63	43.6837170945923	0	1	0	1	0	43.6837170945923	0
3.64	43.8101403600767	0	1	0	1	0	43.8101403600767	0
3.65	43.9372086785743	0	1	0	1	0	43.9372086785743	0
3.66	44.0649204279525	0	1	0	1	0	44.0649204279525	0
3.67	44.1932740037583	0	1	0	1	0	44.1932740037583	0
3.68	44.3222678189787	0	1	0	1	0	44.3222678189787	0
3.69	44.451900303804	0	1	0	1	0	44.451900303804	0
3.7	44.5821699053954	0	1	0	1	0	44.5821699053954	0
3.71	44.7130750876563	0	1	0	1	0	44.7130750876563	0
3.72	44.8446143310074	0	1	0	1	0	44.8446143310074	0
3.73	44.9767861321648	0	1	0	1	0	44.9767861321648	0
3.74	45.109589003923	0	1	0	1	0	45.109589003923	0
3.75	45.2430214749396	0	1	0	1	0	45.2430214749396	0
3.76	45.3770820895249	0	1	0	1	0	45.3770820895249	0
3.77	45.5117694074344	0	1	0	1	0	45.5117694074344	0
3.78	45.647082003664	0	1	0	1	0	45.647082003664	0
3.79	45.7830184682493	0	1	0	1	0	45.7830184682493	0
3.8	45.9195774060677	0	1	0	1	0	45.9195774060677	0
3.81	46.0567574366436	0	1	0	1	0	46.0567574366436	0
3.82	46.1945571939564	0	1	0	1	0	46.1945571939564	0
3.83	46.3329753262523	0	1	0	1	0	46.3329753262523	0
3.84	46.4720104958581	0	1	0	1	0	46.4720104958581	0
3.85	46.6116613789986	0	1	0	1	0	46.6116613789986	0
3.86	46.7519266656164	0	1	0	1	0	46.7519266656164	0
3.87	46.8928050591949	0	1	0	1	0	46.8928050591949	0
3.88	47.0342952765834	0	1	0	1	0	47.0342952765834	0
3.89	47.1763960478257	0	1	0	1	0	47.1763960478257	0
3.9	47.3191061159909	0	1	0	1	0	47.3191061159909	0
3.91	47.4624242370065	0	1	0	1	0	47.4624242370065	0
3.92	47.6063491794948	0	1	0	1	0	47.6063491794948	0
3.93	47.7508797246111	0	1	0	1	0	47.7508797246111	0
3.94	47.8960146658847	0	1	0	1	0	47.8960146658847	0
3.95	48.0417528090626	0	1	0	1	0	48.0417528090626	0
3.96	48.1880929719546	0	1	0	1	0	48.1880929719546	0
3.97	48.335033984282	0	1	0	1	0	48.335033984282	0
3.98	48.4825746875276	0	1	0	1	0	48.4825746875276	0
3.99	48.6307139347884	0	1	0	1	0	48.6307139347884	0
4	48.7794505906305	0	1	0	1	0	48.7794505906305	0
4.01	48.9287835309458	0	1	0	1	0	48.9287835309458	0
4.02	49.0787116428118	0	1	0	1	0	49.0787116428118	0
4.03	49.2292338243519	0	1	0	1	0	49.2292338243519	0
4.04	49.3803489845994	0	1	0	1	0	49.3803489845994	0
4.05	49.5320560433626	0	1	0	1	0	49.5320560433626	0
4.06	49.6843539310919	0	1	0	1	0	49.6843539310919	0
4.07	49.8372415887496	0	1	0	1	0	49.8372415887496	0
4.08	49.9907179676803	0	1	0	1	0	49.9907179676803	0
4.09	50.1447820294848	0	1	0	1	0	50.1447820294848	0
4.1	50.2994327458942	0	1	0	1	0	50.2994327458942	0
4.11	50.4546690986474	0	1	0	1	0	50.4546690986474	0
4.12	50.6104900793693	0	1	0	1	0	50.6104900793693	0
4.13	50.7668946894511	0	1	0	1	0	50.7668946894511	0
4.14	50.9238819399322	0	1	0	1	0	50.9238819399322	0
4.15	51.0814508513844	0	1	0	1	0	51.0814508513844	0
4.16	51.2396004537971	0	1	0	1	0	51.2396004537971	0
4.17	51.3983297864641	0	1	0	1	0	51.3983297864641	0
4.18	51.5576378978729	0	1	0	1	0	51.5576378978729	0
4.19	51.7175238455944	0	1	0	1	0	51.7175238455944	0
4.2	51.877986696175	0	1	0	1	0	51.877986696175	0
4.21	52.0390255250302	0	1	0	1	0	52.0390255250302	0
4.22	52.2006394163393	0	1	0	1	0	52.2006394163393	0
4.23	52.3628274629417	0	1	0	1	0	52.3628274629417	0
4.24	52.5255887662349	0	1	0	1	0	52.5255887662349	0
4.25	52.6889224360742	0	1	0	1	0	52.6889224360742	0
4.26	52.8528275906725	0	1	0	1	0	52.8528275906725	0
4.27	53.0173033565036	0	1	0	1	0	53.0173033565036	0
4.28	53.1823488682046	0	1	0	1	0	53.1823488682046	0
4.29	53.3479632684816	0	1	0	1	0	53.3479632684816	0
4.3	53.5141457080152	0	1	0	1	0	53.5141457080152	0
4.31	53.6808953453686	0	1	0	1	0	53.6808953453686	0
4.32	53.848211346896	0	1	0	1	0	53.848211346896	0
4.33	54.0160928866527	0	1	0	1	0	54.0160928866527	0
4.34	54.1845391463063	0	1	0	1	0	54.1845391463063	0
4.35	54.3535493150494	0	1	0	1	0	54.3535493150494	0
4.36	54.5231225895133	0	1	0	1	0	54.5231225895133	0
4.37	54.6932581736826	0	1	0	1	0	54.6932581736826	0
4.38	54.8639552788114	0	1	0	1	0	54.8639552788114	0
4.39	55.0352131233409	0	1	0	1	0	55.0352131233409	0
4.4	55.2070309328169	0	1	0	1	0	55.2070309328169	0
4.41	55.3794079398101	0	1	0	1	0	55.3794079398101	0
4.42	55.5523433838362	0	1	0	1	0	55.5523433838362	0
4.43	55.7258365112774	0	1	0	1	0	55.7258365112774	0
4.44	55.8998865753055	0	1	0	1	0	55.8998865753055	0
4.45	56.0744928358051	0	1	0	1	0	56.0744928358051	0
4.46	56.2496545592987	0	1	0	1	0	56.2496545592987	0
4.47	56.4253710188725	0	1	0	1	0	56.4253710188725	0
4.48	56.6016414941029	0	1	0	1	0	56.6016414941029	0
4.49	56.7784652709842	0	1	0	1	0	56.7784652709842	0
4.5	56.9558416418576	0	1	0	1	0	56.9558416418576	0
4.51	57.1337699053406	0	1	0	1	0	57.1337699053406	0
4.52	57.3122493662576	0	1	0	1	0	57.3122493662576	0
4.53	57.4912793355715	0	1	0	1	0	57.4912793355715	0
4.54	57.6708591303158	0	1	0	1	0	57.6708591303158	0
4.55	57.8509880735284	0	1	0	1	0	57.8509880735284	0
4.56	58.0316654941852	0	1	0	1	0	58.0316654941852	0
4.57	58.2128907271355	0	1	0	1	0	58.2128907271355	0
4.58	58.3946631130378	0	1	0	1	0	58.3946631130378	0
4.59	58.5769819982965	0	1	0	1	0	58.5769819982965	0
4.6	58.7598467349994	0	1	0	1	0	58.7598467349994	0
4.61	58.9432566808561	0	1	0	1	0	58.9432566808561	0
4.62	59.1272111991371	0	1	0	1	0	59.1272111991371	0
4.63	59.311709658614	0	1	0	1	0	59.311709658614	0
4.64	59.4967514334999	0	1	0	1	0	59.4967514334999	0
4.65	59.6823359033909	0	1	0	1	0	59.6823359033909	0
4.66	59.8684624532086	0	1	0	1	0	59.8684624532086	0
4.67	60.0551304731429	0	1	0	1	0	60.0551304731429	0
4.68	60.2423393585958	0	1	0	1	0	60.2423393585958	0
4.69	60.4300885101257	0	1	0	1	0	60.4300885101257	0
4.7	60.6183773333926	0	1	0	1	0	60.6183773333926	0
4.71	60.8072052391042	0	1	0	1	0	60.8072052391042	0
4.72	60.9965716429619	0	1	0	1	0	60.9965716429619	0
4.73	61.1864759656086	0	1	0	1	0	61.1864759656086	0
4.74	61.376917632576	0	1	0	1	0	61.376917632576	0
4.75	61.5678960742337	0	1	0	1	0	61.5678960742337	0
4.76	61.7594107257379	0	1	0	1	0	61.7594107257379	0
4.77	61.9514610269815	0	1	0	1	0	61.9514610269815	0
4.78	62.1440464225447	0	1	0	1	0	62.1440464225447	0
4.79	62.3371663616454	0	1	0	1	0	62.3371663616454	0
4.8	62.5308202980919	0	1	0	1	0	62.5308202980919	0
4.81	62.7250076902341	0	1	0	1	0	62.7250076902341	0
4.82	62.9197280009174	0	1	0	1	0	62.9197280009174	0
4.83	63.1149806974353	0	1	0	1	0	63.1149806974353	0
4.84	63.3107652514841	0	1	0	1	0	63.3107652514841	0
4.85	63.5070811391171	0	1	0	1	0	63.5070811391171	0
4.86	63.7039278407	0	1	0	1	0	63.7039278407	0
4.87	63.9013048408665	0	1	0	1	0	63.9013048408665	0
4.88	64.0992116284745	0	1	0	1	0	64.0992116284745	0
4.89	64.2976476965633	0	1	0	1	0	64.2976476965633	0
4.9	64.4966125423105	0	1	0	1	0	64.4966125423105	0
4.91	64.6961056669898	0	1	0	1	0	64.6961056669898	0
4.92	64.89612657593	0	1	0	1	0	64.89612657593	0
4.93	65.0966747784731	0	1	0	1	0	65.0966747784731	0
