# GHZ S RI R 50
1	66.3509197276491	0	1	0	1	0	66.3509197276491	0
1.01	65.8117161888482	0	1	0	1	0	65.8117161888482	0
1.02	65.2844217917462	0	1	0	1	0	65.2844217917462	0
1.03	64.7687027725673	0	1	0	1	0	64.7687027725673	0
1.04	64.2642382046042	0	1	0	1	0	64.2642382046042	0
1.05	63.7707193869286	0	1	0	1	0	63.7707193869286	0
1.06	63.2878492677042	0	1	0	1	0	63.2878492677042	0
1.07	62.8153418998359	0	1	0	1	0	62.8153418998359	0
1.08	62.3529219268621	0	1	0	1	0	62.3529219268621	0
1.09	61.900324097145	0	1	0	1	0	61.900324097145	0
1.1	61.4572928045615	0	1	0	1	0	61.4572928045615	0
1.11	61.0235816540194	0	1	0	1	0	61.0235816540194	0
1.12	60.5989530502516	0	1	0	1	0	60.5989530502516	0
1.13	60.1831778084428	0	1	0	1	0	60.1831778084428	0
1.14	59.7760347853502	0	1	0	1	0	59.7760347853502	0
1.15	59.3773105296698	0	1	0	1	0	59.3773105296698	0
1.16	58.9867989504875	0	1	0	1	0	58.9867989504875	0
1.17	58.6043010027323	0	1	0	1	0	58.6043010027323	0
1.18	58.2296243886239	0	1	0	1	0	58.2296243886239	0
1.19	57.8625832741727	0	1	0	1	0	57.8625832741727	0
1.2	57.5029980198557	0	1	0	1	0	57.5029980198557	0
1.21	57.1506949246463	0	1	0	1	0	57.1506949246463	0
1.22	56.8055059826336	0	1	0	1	0	56.8055059826336	0
1.23	56.4672686515137	0	1	0	1	0	56.4672686515137	0
1.24	56.1358256322826	0	1	0	1	0	56.1358256322826	0
1.25	55.8110246595046	0	1	0	1	0	55.8110246595046	0
1.26	55.4927183015672	0	1	0	1	0	55.4927183015672	0
1.27	55.1807637703734	0	1	0	1	0	55.1807637703734	0
1.28	54.8750227399541	0	1	0	1	0	54.8750227399541	0
1.29	54.5753611735176	0	1	0	1	0	54.5753611735176	0
1.3	54.2816491584813	0	1	0	1	0	54.2816491584813	0
1.31	53.9937607490589	0	1	0	1	0	53.9937607490589	0
1.32	53.7115738160029	0	1	0	1	0	53.7115738160029	0
1.33	53.4349699031262	0	1	0	1	0	53.4349699031262	0
1.34	53.1638340902471	0	1	0	1	0	53.1638340902471	0
1.35	52.8980548622263	0	1	0	1	0	52.8980548622263	0
1.36	52.6375239837817	0	1	0	1	0	52.6375239837817	0
1.37	52.3821363797852	0	1	0	1	0	52.3821363797852	0
1.38	52.1317900207648	0	1	0	1	0	52.1317900207648	0
1.39	51.8863858133482	0	1	0	1	0	51.8863858133482	0
1.4	51.6458274954026	0	1	0	1	0	51.6458274954026	0
1.41	51.4100215356355	0	1	0	1	0	51.4100215356355	0
1.42	51.178877037439	0	1	0	1	0	51.178877037439	0
1.43	50.9523056467675	0	1	0	1	0	50.9523056467675	0
1.44	50.7302214638544	0	1	0	1	0	50.7302214638544	0
1.45	50.5125409585819	0	1	0	1	0	50.5125409585819	0
1.46	50.2991828893287	0	1	0	1	0	50.2991828893287	0
1.47	50.0900682251297	0	1	0	1	0	50.0900682251297	0
1.48	49.8851200709918	0	1	0	1	0	49.8851200709918	0
1.49	49.6842635962171	0	1	0	1	0	49.6842635962171	0
1.5	49.4874259655931	0	1	0	1	0	49.4874259655931	0
1.51	49.2945362733166	0	1	0	1	0	49.2945362733166	0
1.52	49.1055254795269	0	1	0	1	0	49.1055254795269	0
1.53	48.9203263493268	0	1	0	1	0	48.9203263493268	0
1.54	48.7388733941801	0	1	0	1	0	48.7388733941801	0
1.55	48.5611028155773	0	1	0	1	0	48.5611028155773	0
1.56	48.3869524508682	0	1	0	1	0	48.3869524508682	0
1.57	48.2163617211643	0	1	0	1	0	48.2163617211643	0
1.58	48.04927158122	0	1	0	1	0	48.04927158122	0
1.59	47.8856244712046	0	1	0	1	0	47.8856244712046	0
1.6	47.725364270283	0	1	0	1	0	47.725364270283	0
1.61	47.5684362519269	0	1	0	1	0	47.5684362519269	0
1.62	47.4147870408799	0	1	0	1	0	47.4147870408799	0
1.63	47.2643645717082	0	1	0	1	0	47.2643645717082	0
1.64	47.1171180488666	0	1	0	1	0	47.1171180488666	0
1.65	46.9729979082167	0	1	0	1	0	46.9729979082167	0
1.66	46.831955779937	0	1	0	1	0	46.831955779937	0
1.67	46.6939444527647	0	1	0	1	0	46.6939444527647	0
1.68	46.5589178395143	0	1	0	1	0	46.5589178395143	0
1.69	46.4268309438216	0	1	0	1	0	46.4268309438216	0
1.7	46.2976398280602	0	1	0	1	0	46.2976398280602	0
1.71	46.1713015823846	0	1	0	1	0	46.1713015823846	0
1.72	46.0477742948525	0	1	0	1	0	46.0477742948525	0
1.73	45.9270170225838	0	1	0	1	0	45.9270170225838	0
1.74	45.8089897639144	0	1	0	1	0	45.8089897639144	0
1.75	45.6936534315035	0	1	0	1	0	45.6936534315035	0
1.76	45.5809698263594	0	1	0	1	0	45.5809698263594	0
1.77	45.470901612744	0	1	0	1	0	45.470901612744	0
1.78	45.3634122939248	0	1	0	1	0	45.3634122939248	0
1.79	45.2584661887388	0	1	0	1	0	45.2584661887388	0
1.8	45.1560284089375	0	1	0	1	0	45.1560284089375	0
1.81	45.0560648372837	0	1	0	1	0	45.0560648372837	0
1.82	44.9585421063694	0	1	0	1	0	44.9585421063694	0
1.83	44.8634275781289	0	1	0	1	0	44.8634275781289	0
1.84	44.7706893240196	0	1	0	1	0	44.7706893240196	0
1.85	44.680296105846	0	1	0	1	0	44.680296105846	0
1.86	44.5922173572013	0	1	0	1	0	44.5922173572013	0
1.87	44.5064231655062	0	1	0	1	0	44.5064231655062	0
1.88	44.4228842546186	0	1	0	1	0	44.4228842546186	0
1.89	44.3415719679979	0	1	0	1	0	44.3415719679979	0
1.9	44.2624582523986	0	1	0	1	0	44.2624582523986	0
1.91	44.185515642078	0	1	0	1	0	44.185515642078	0
1.92	44.1107172434963	0	1	0	1	0	44.1107172434963	0
1.93	44.0380367204928	0	1	0	1	0	44.0380367204928	0
1.94	43.9674482799204	0	1	0	1	0	43.9674482799204	0
1.95	43.8989266577221	0	1	0	1	0	43.8989266577221	0
1.96	43.832447105434	0	1	0	1	0	43.832447105434	0
1.97	43.7679853770991	0	1	0	1	0	43.7679853770991	0
1.98	43.7055177165778	0	1	0	1	0	43.7055177165778	0
1.99	43.6450208452404	0	1	0	1	0	43.6450208452404	0
2	43.5864719500305	0	1	0	1	0	43.5864719500305	0
2.01	43.5298486718822	0	1	0	1	0	43.5298486718822	0
2.02	43.4751290944838	0	1	0	1	0	43.4751290944838	0
2.03	43.4222917333719	0	1	0	1	0	43.4222917333719	0
2.04	43.3713155253473	0	1	0	1	0	43.3713155253473	0
2.05	43.3221798181998	0	1	0	1	0	43.3221798181998	0
2.06	43.2748643607331	0	1	0	1	0	43.2748643607331	0
2.07	43.2293492930784	0	1	0	1	0	43.2293492930784	0
2.08	43.1856151372875	0	1	0	1	0	43.1856151372875	0
2.09	43.1436427881957	0	1	0	1	0	43.1436427881957	0
2.1	43.1034135045464	0	1	0	1	0	43.1034135045464	0
2.11	43.0649089003674	0	1	0	1	0	43.0649089003674	0
2.12	43.0281109365917	0	1	0	1	0	43.0281109365917	0
2.13	42.9930019129139	0	1	0	1	0	42.9930019129139	0
2.14	42.9595644598757	0	1	0	1	0	42.9595644598757	0
2.15	42.9277815311714	0	1	0	1	0	42.9277815311714	0
2.16	42.8976363961677	0	1	0	1	0	42.8976363961677	0
2.17	42.8691126326298	0	1	0	1	0	42.8691126326298	0
2.18	42.8421941196488	0	1	0	1	0	42.8421941196488	0
2.19	42.8168650307611	0	1	0	1	0	42.8168650307611	0
2.2	42.7931098272574	0	1	0	1	0	42.7931098272574	0
2.21	42.7709132516717	0	1	0	1	0	42.7709132516717	0
2.22	42.7502603214474	0	1	0	1	0	42.7502603214474	0
2.23	42.7311363227735	0	1	0	1	0	42.7311363227735	0
2.24	42.7135268045854	0	1	0	1	0	42.7135268045854	0
2.25	42.6974175727263	0	1	0	1	0	42.6974175727263	0
2.26	42.6827946842636	0	1	0	1	0	42.6827946842636	0
2.27	42.6696444419549	0	1	0	1	0	42.6696444419549	0
2.28	42.6579533888606	0	1	0	1	0	42.6579533888606	0
2.29	42.6477083030965	0	1	0	1	0	42.6477083030965	0
2.3	42.6388961927244	0	1	0	1	0	42.6388961927244	0
2.31	42.6315042907748	0	1	0	1	0	42.6315042907748	0
2.32	42.625520050398	0	1	0	1	0	42.625520050398	0
2.33	42.6209311401414	0	1	0	1	0	42.6209311401414	0
2.34	42.617725439346	0	1	0	1	0	42.617725439346	0
2.35	42.615891033662	0	1	0	1	0	42.615891033662	0
2.36	42.615416210678	0	1	0	1	0	42.615416210678	0
2.37	42.61628945566	0	1	0	1	0	42.61628945566	0
2.38	42.6184994473994	0	1	0	1	0	42.6184994473994	0
2.39	42.6220350541634	0	1	0	1	0	42.6220350541634	0
2.4	42.6268853297486	0	1	0	1	0	42.6268853297486	0
2.41	42.6330395096309	0	1	0	1	0	42.6330395096309	0
2.42	42.6404870072123	0	1	0	1	0	42.6404870072123	0
2.43	42.6492174101601	0	1	0	1	0	42.6492174101601	0
2.44	42.6592204768352	0	1	0	1	0	42.6592204768352	0
2.45	42.6704861328091	0	1	0	1	0	42.6704861328091	0
2.46	42.6830044674652	0	1	0	1	0	42.6830044674652	0
2.47	42.6967657306825	0	1	0	1	0	42.6967657306825	0
2.48	42.7117603296003	0	1	0	1	0	42.7117603296003	0
2.49	42.7279788254598	0	1	0	1	0	42.7279788254598	0
2.5	42.7454119305226	0	1	0	1	0	42.7454119305226	0
2.51	42.7640505050619	0	1	0	1	0	42.7640505050619	0
2.52	42.783885554426	0	1	0	1	0	42.783885554426	0
2.53	42.8049082261711	0	1	0	1	0	42.8049082261711	0
2.54	42.827109807262	0	1	0	1	0	42.827109807262	0
2.55	42.8504817213384	0	1	0	1	0	42.8504817213384	0
2.56	42.8750155260459	0	1	0	1	0	42.8750155260459	0
2.57	42.9007029104285	0	1	0	1	0	42.9007029104285	0
2.58	42.927535692382	0	1	0	1	0	42.927535692382	0
2.59	42.9555058161672	0	1	0	1	0	42.9555058161672	0
2.6	42.9846053499789	0	1	0	1	0	42.9846053499789	0
2.61	43.0148264835725	0	1	0	1	0	43.0148264835725	0
2.62	43.0461615259435	0	1	0	1	0	43.0461615259435	0
2.63	43.078602903061	0	1	0	1	0	43.078602903061	0
2.64	43.112143155652	0	1	0	1	0	43.112143155652	0
2.65	43.1467749370366	0	1	0	1	0	43.1467749370366	0
2.66	43.1824910110109	0	1	0	1	0	43.1824910110109	0
2.67	43.2192842497789	0	1	0	1	0	43.2192842497789	0
2.68	43.2571476319294	0	1	0	1	0	43.2571476319294	0
2.69	43.2960742404588	0	1	0	1	0	43.2960742404588	0
2.7	43.3360572608377	0	1	0	1	0	43.3360572608377	0
2.71	43.3770899791202	0	1	0	1	0	43.3770899791202	0
2.72	43.4191657800948	0	1	0	1	0	43.4191657800948	0
2.73	43.4622781454763	0	1	0	1	0	43.4622781454763	0
2.74	43.5064206521368	0	1	0	1	0	43.5064206521368	0
2.75	43.5515869703758	0	1	0	1	0	43.5515869703758	0
2.76	43.5977708622275	0	1	0	1	0	43.5977708622275	0
2.77	43.6449661798052	0	1	0	1	0	43.6449661798052	0
2.78	43.6931668636809	0	1	0	1	0	43.6931668636809	0
2.79	43.7423669413001	0	1	0	1	0	43.7423669413001	0
2.8	43.7925605254305	0	1	0	1	0	43.7925605254305	0
2.81	43.8437418126438	0	1	0	1	0	43.8437418126438	0
2.82	43.8959050818301	0	1	0	1	0	43.8959050818301	0
2.83	43.9490446927428	0	1	0	1	0	43.9490446927428	0
2.84	44.0031550845757	0	1	0	1	0	44.0031550845757	0
2.85	44.0582307745689	0	1	0	1	0	44.0582307745689	0
2.86	44.1142663566445	0	1	0	1	0	44.1142663566445	0
2.87	44.1712565000706	0	1	0	1	0	44.1712565000706	0
2.88	44.2291959481533	0	1	0	1	0	44.2291959481533	0
2.89	44.2880795169556	0	1	0	1	0	44.2880795169556	0
2.9	44.3479020940431	0	1	0	1	0	44.3479020940431	0
2.91	44.4086586372556	0	1	0	1	0	44.4086586372556	0
2.92	44.4703441735033	0	1	0	1	0	44.4703441735033	0
2.93	44.5329537975886	0	1	0	1	0	44.5329537975886	0
2.94	44.5964826710513	0	1	0	1	0	44.5964826710513	0
2.95	44.6609260210373	0	1	0	1	0	44.6609260210373	0
2.96	44.7262791391906	0	1	0	1	0	44.7262791391906	0
2.97	44.7925373805675	0	1	0	1	0	44.7925373805675	0
2.98	44.8596961625723	0	1	0	1	0	44.8596961625723	0
2.99	44.9277509639152	0	1	0	1	0	44.9277509639152	0
3	44.99669732359	0	1	0	1	0	44.99669732359	0
3.01	45.0665308398733	0	1	0	1	0	45.0665308398733	0
3.02	45.1372471693423	0	1	0	1	0	45.1372471693423	0
3.03	45.2088420259133	0	1	0	1	0	45.2088420259133	0
3.04	45.2813111798986	0	1	0	1	0	45.2813111798986	0
3.05	45.3546504570815	0	1	0	1	0	45.3546504570815	0
3.06	45.4288557378105	0	1	0	1	0	45.4288557378105	0
3.07	45.5039229561101	0	1	0	1	0	45.5039229561101	0
3.08	45.5798480988098	0	1	0	1	0	45.5798480988098	0
3.09	45.6566272046896	0	1	0	1	0	45.6566272046896	0
3.1	45.7342563636418	0	1	0	1	0	45.7342563636418	0
3.11	45.8127317158497	0	1	0	1	0	45.8127317158497	0
3.12	45.8920494509814	0	1	0	1	0	45.8920494509814	0
3.13	45.9722058073992	0	1	0	1	0	45.9722058073992	0
3.14	46.0531970713843	0	1	0	1	0	46.0531970713843	0
3.15	46.1350195763766	0	1	0	1	0	46.1350195763766	0
3.16	46.2176697022278	0	1	0	1	0	46.2176697022278	0
3.17	46.3011438744698	0	1	0	1	0	46.3011438744698	0
3.18	46.3854385635964	0	1	0	1	0	46.3854385635964	0
3.19	46.4705502843585	0	1	0	1	0	46.4705502843585	0
3.2	46.5564755950727	0	1	0	1	0	46.5564755950727	0
3.21	46.6432110969425	0	1	0	1	0	46.6432110969425	0
3.22	46.7307534333924	0	1	0	1	0	46.7307534333924	0
3.23	46.8190992894147	0	1	0	1	0	46.8190992894147	0
3.24	46.9082453909275	0	1	0	1	0	46.9082453909275	0
3.25	46.9981885041453	0	1	0	1	0	46.9981885041453	0
3.26	47.088925434961	0	1	0	1	0	47.088925434961	0
3.27	47.180453028339	0	1	0	1	0	47.180453028339	0
3.28	47.2727681677201	0	1	0	1	0	47.2727681677201	0
3.29	47.3658677744361	0	1	0	1	0	47.3658677744361	0
3.3	47.4597488071359	0	1	0	1	0	47.4597488071359	0
3.31	47.5544082612223	0	1	0	1	0	47.5544082612223	0
3.32	47.6498431682976	0	1	0	1	0	47.6498431682976	0
3.33	47.7460505956208	0	1	0	1	0	47.7460505956208	0
3.34	47.8430276455736	0	1	0	1	0	47.8430276455736	0
3.35	47.9407714551359	0	1	0	1	0	47.9407714551359	0
3.36	48.0392791953714	0	1	0	1	0	48.0392791953714	0
3.37	48.1385480709214	0	1	0	1	0	48.1385480709214	0
3.38	48.2385753195087	0	1	0	1	0	48.2385753195087	0
3.39	48.3393582114491	0	1	0	1	0	48.3393582114491	0
3.4	48.4408940491724	0	1	0	1	0	48.4408940491724	0
3.41	48.5431801667516	0	1	0	1	0	48.5431801667516	0
3.42	48.6462139294398	0	1	0	1	0	48.6462139294398	0
3.43	48.7499927332163	0	1	0	1	0	48.7499927332163	0
3.44	48.8545140043396	0	1	0	1	0	48.8545140043396	0
3.45	48.9597751989087	0	1	0	1	0	48.9597751989087	0
3.46	49.0657738024319	0	1	0	1	0	49.0657738024319	0
3.47	49.1725073294029	0	1	0	1	0	49.1725073294029	0
3.48	49.2799733228845	0	1	0	1	0	49.2799733228845	0
3.49	49.3881693540993	0	1	0	1	0	49.3881693540993	0
3.5	49.4970930220272	0	1	0	1	0	49.4970930220272	0
3.51	49.6067419530103	0	1	0	1	0	49.6067419530103	0
3.52	49.7171138003639	0	1	0	1	0	49.7171138003639	0
3.53	49.8282062439949	0	1	0	1	0	49.8282062439949	0
3.54	49.9400169900257	0	1	0	1	0	49.9400169900257	0
3.55	50.0525437704254	0	1	0	1	0	50.0525437704254	0
3.56	50.1657843426465	0	1	0	1	0	50.1657843426465	0
3.57	50.2797364892679	0	1	0	1	0	50.2797364892679	0
3.58	50.3943980176445	0	1	0	1	0	50.3943980176445	0
3.59	50.5097667595615	0	1	0	1	0	50.5097667595615	0
3.6	50.6258405708956	0	1	0	1	0	50.6258405708956	0
3.61	50.7426173312809	0	1	0	1	0	50.7426173312809	0
3.62	50.8600949437812	0	1	0	1	0	50.8600949437812	0
3.63	50.9782713345667	0	1	0	1	0	50.9782713345667	0
3.64	51.0971444525973	0	1	0	1	0	51.0971444525973	0
3.65	51.2167122693097	0	1	0	1	0	51.2167122693097	0
3.66	51.336972778311	0	1	0	1	0	51.336972778311	0
3.67	51.4579239950761	0	1	0	1	0	51.4579239950761	0
3.68	51.579563956651	0	1	0	1	0	51.579563956651	0
3.69	51.7018907213603	0	1	0	1	0	51.7018907213603	0
3.7	51.8249023685196	0	1	0	1	0	51.8249023685196	0
3.71	51.9485969981528	0	1	0	1	0	51.9485969981528	0
3.72	52.0729727307135	0	1	0	1	0	52.0729727307135	0
3.73	52.1980277068114	0	1	0	1	0	52.1980277068114	0
3.74	52.3237600869428	0	1	0	1	0	52.3237600869428	0
3.75	52.4501680512251	0	1	0	1	0	52.4501680512251	0
3.76	52.5772497991366	0	1	0	1	0	52.5772497991366	0
3.77	52.7050035492589	0	1	0	1	0	52.7050035492589	0
3.78	52.8334275390246	0	1	0	1	0	52.8334275390246	0
3.79	52.9625200244688	0	1	0	1	0	52.9625200244688	0
3.8	53.0922792799841	0	1	0	1	0	53.0922792799841	0
3.81	53.2227035980794	0	1	0	1	0	53.2227035980794	0
3.82	53.3537912891436	0	1	0	1	0	53.3537912891436	0
3.83	53.4855406812112	0	1	0	1	0	53.4855406812112	0
3.84	53.6179501197333	0	1	0	1	0	53.6179501197333	0
3.85	53.751017967351	0	1	0	1	0	53.751017967351	0
3.86	53.8847426036729	0	1	0	1	0	53.8847426036729	0
3.87	54.0191224250557	0	1	0	1	0	54.0191224250557	0
3.88	54.1541558443887	0	1	0	1	0	54.1541558443887	0
3.89	54.2898412908809	0	1	0	1	0	54.2898412908809	0
3.9	54.4261772098523	0	1	0	1	0	54.4261772098523	0
3.91	54.5631620625271	0	1	0	1	0	54.5631620625271	0
3.92	54.7007943258317	0	1	0	1	0	54.7007943258317	0
3.93	54.8390724921944	0	1	0	1	0	54.8390724921944	0
3.94	54.9779950693485	0	1	0	1	0	54.9779950693485	0
3.95	55.1175605801394	0	1	0	1	0	55.1175605801394	0
3.96	55.2577675623328	0	1	0	1	0	55.2577675623328	0
3.97	55.3986145684275	0	1	0	1	0	55.3986145684275	0
3.98	55.5401001654699	0	1	0	1	0	55.5401001654699	0
3.99	55.6822229348719	0	1	0	1	0	55.6822229348719	0
4	55.8249814722313	0	1	0	1	0	55.8249814722313	0
4.01	55.9683743871549	0	1	0	1	0	55.9683743871549	0
4.02	56.1124003030843	0	1	0	1	0	56.1124003030843	0
4.03	56.2570578571241	0	1	0	1	0	56.2570578571241	0
4.04	56.402345699873	0	1	0	1	0	56.402345699873	0
4.05	56.5482624952571	0	1	0	1	0	56.5482624952571	0
4.06	56.6948069203657	0	1	0	1	0	56.6948069203657	0
4.07	56.8419776652899	0	1	0	1	0	56.8419776652899	0
4.08	56.9897734329628	0	1	0	1	0	56.9897734329628	0
4.09	57.1381929390029	0	1	0	1	0	57.1381929390029	0
4.1	57.2872349115591	0	1	0	1	0	57.2872349115591	0
4.11	57.4368980911587	0	1	0	1	0	57.4368980911587	0
4.12	57.5871812305566	0	1	0	1	0	57.5871812305566	0
4.13	57.7380830945877	0	1	0	1	0	57.7380830945877	0
4.14	57.8896024600209	0	1	0	1	0	57.8896024600209	0
4.15	58.0417381154151	0	1	0	1	0	58.0417381154151	0
4.16	58.1944888609777	0	1	0	1	0	58.1944888609777	0
4.17	58.3478535084252	0	1	0	1	0	58.3478535084252	0
4.18	58.5018308808449	0	1	0	1	0	58.5018308808449	0
4.19	58.6564198125596	0	1	0	1	0	58.6564198125596	0
4.2	58.811619148994	0	1	0	1	0	58.811619148994	0
4.21	58.9674277465424	0	1	0	1	0	58.9674277465424	0
4.22	59.123844472439	0	1	0	1	0	59.123844472439	0
4.23	59.2808682046299	0	1	0	1	0	59.2808682046299	0
4.24	59.4384978316464	0	1	0	1	0	59.4384978316464	0
4.25	59.5967322524808	0	1	0	1	0	59.5967322524808	0
4.26	59.7555703764635	0	1	0	1	0	59.7555703764635	0
4.27	59.9150111231419	0	1	0	1	0	59.9150111231419	0
4.28	60.0750534221611	0	1	0	1	0	60.0750534221611	0
4.29	60.2356962131462	0	1	0	1	0	60.2356962131462	0
4.3	60.3969384455864	0	1	0	1	0	60.3969384455864	0
4.31	60.5587790787201	0	1	0	1	0	60.5587790787201	0
4.32	60.7212170814227	0	1	0	1	0	60.7212170814227	0
4.33	60.8842514320948	0	1	0	1	0	60.8842514320948	0
4.34	61.0478811185527	0	1	0	1	0	61.0478811185527	0
4.35	61.2121051379202	0	1	0	1	0	61.2121051379202	0
4.36	61.3769224965218	0	1	0	1	0	61.3769224965218	0
4.37	61.5423322097774	0	1	0	1	0	61.5423322097774	0
4.38	61.7083333020984	0	1	0	1	0	61.7083333020984	0
4.39	61.8749248067855	0	1	0	1	0	61.8749248067855	0
4.4	62.0421057659276	0	1	0	1	0	62.0421057659276	0
4.41	62.2098752303021	0	1	0	1	0	62.2098752303021	0
4.42	62.3782322592766	0	1	0	1	0	62.3782322592766	0
4.43	62.5471759207121	0	1	0	1	0	62.5471759207121	0
4.44	62.7167052908671	0	1	0	1	0	62.7167052908671	0
4.45	62.8868194543035	0	1	0	1	0	62.8868194543035	0
4.46	63.0575175037934	0	1	0	1	0	63.0575175037934	0
4.47	63.2287985402273	0	1	0	1	0	63.2287985402273	0
4.48	63.4006616725234	0	1	0	1	0	63.4006616725234	0
4.49	63.5731060175383	0	1	0	1	0	63.5731060175383	0
4.5	63.7461306999787	0	1	0	1	0	63.7461306999787	0
4.51	63.9197348523145	0	1	0	1	0	63.9197348523145	0
4.52	64.0939176146928	0	1	0	1	0	64.0939176146928	0
4.53	64.2686781348534	0	1	0	1	0	64.2686781348534	0
4.54	64.4440155680447	0	1	0	1	0	64.4440155680447	0
4.55	64.6199290769418	0	1	0	1	0	64.6199290769418	0
4.56	64.7964178315646	0	1	0	1	0	64.7964178315646	0
4.57	64.9734810091974	0	1	0	1	0	64.9734810091974	0
4.58	65.1511177943102	0	1	0	1	0	65.1511177943102	0
4.59	65.3293273784798	0	1	0	1	0	65.3293273784798	0
4.6	65.5081089603127	0	1	0	1	0	65.5081089603127	0
4.61	65.6874617453689	0	1	0	1	0	65.6874617453689	0
4.62	65.867384946087	0	1	0	1	0	65.867384946087	0
4.63	66.0478777817092	0	1	0	1	0	66.0478777817092	0
4.64	66.2289394782086	0	1	0	1	0	66.2289394782086	0
4.65	66.4105692682164	0	1	0	1	0	66.4105692682164	0
4.66	66.5927663909509	0	1	0	1	0	66.5927663909509	0
4.67	66.7755300921465	0	1	0	1	0	66.7755300921465	0
4.68	66.9588596239846	0	1	0	1	0	66.9588596239846	0
4.69	67.1427542450242	0	1	0	1	0	67.1427542450242	0
4.7	67.3272132201347	0	1	0	1	0	67.3272132201347	0
4.71	67.5122358204287	0	1	0	1	0	67.5122358204287	0
4.72	67.6978213231956	0	1	0	1	0	67.6978213231956	0
4.73	67.8839690118366	0	1	0	1	0	67.8839690118366	0
4.74	68.0706781758002	0	1	0	1	0	68.0706781758002	0
4.75	68.2579481105185	0	1	0	1	0	68.2579481105185	0
4.76	68.4457781173442	0	1	0	1	0	68.4457781173442	0
4.77	68.6341675034888	0	1	0	1	0	68.6341675034888	0
4.78	68.8231155819613	0	1	0	1	0	68.8231155819613	0
4.79	69.0126216715073	0	1	0	1	0	69.0126216715073	0
4.8	69.2026850965497	0	1	0	1	0	69.2026850965497	0
4.81	69.3933051871294	0	1	0	1	0	69.3933051871294	0
4.82	69.5844812788473	0	1	0	1	0	69.5844812788473	0
4.83	69.7762127128065	0	1	0	1	0	69.7762127128065	0
4.84	69.9684988355553	0	1	0	1	0	69.9684988355553	0
4.85	70.1613389990317	0	1	0	1	0	70.1613389990317	0
4.86	70.3547325605072	0	1	0	1	0	70.3547325605072	0
4.87	70.5486788825326	0	1	0	1	0	70.5486788825326	0
4.88	70.7431773328835	0	1	0	1	0	70.7431773328835	0
4.89	70.9382272845072	0	1	0	1	0	70.9382272845072	0
4.9	71.1338281154699	0	1	0	1	0	71.1338281154699	0
4.91	71.3299792089042	0	1	0	1	0	71.3299792089042	0
4.92	71.5266799529581	0	1	0	1	0	71.5266799529581	0
4.93	71.7239297407438	0	1	0	1	0	71.7239297407438	0
