# GHZ S RI R 50
1	62.6076222467842	0	1	0	1	0	62.6076222467842	0
1.01	62.0696954436067	0	1	0	1	0	62.0696954436067	0
1.02	61.5432880936936	0	1	0	1	0	61.5432880936936	0
1.03	61.0280742080311	0	1	0	1	0	61.0280742080311	0
1.04	60.5237403356441	0	1	0	1	0	60.5237403356441	0
1.05	60.0299849665472	0	1	0	1	0	60.0299849665472	0
1.06	59.5465179684902	0	1	0	1	0	59.5465179684902	0
1.07	59.0730600552883	0	1	0	1	0	59.0730600552883	0
1.08	58.6093422846896	0	1	0	1	0	58.6093422846896	0
1.09	58.1551055838826	0	1	0	1	0	58.1551055838826	0
1.1	57.7101003008853	0	1	0	1	0	57.7101003008853	0
1.11	57.2740857801833	0	1	0	1	0	57.2740857801833	0
1.12	56.8468299611025	0	1	0	1	0	56.8468299611025	0
1.13	56.4281089975053	0	1	0	1	0	56.4281089975053	0
1.14	56.0177068975052	0	1	0	1	0	56.0177068975052	0
1.15	55.6154151819764	0	1	0	1	0	55.6154151819764	0
1.16	55.2210325607288	0	1	0	1	0	55.2210325607288	0
1.17	54.8343646252882	0	1	0	1	0	54.8343646252882	0
1.18	54.4552235572979	0	1	0	1	0	54.4552235572979	0
1.19	54.0834278516237	0	1	0	1	0	54.0834278516237	0
1.2	53.7188020533021	0	1	0	1	0	53.7188020533021	0
1.21	53.3611765075341	0	1	0	1	0	53.3611765075341	0
1.22	53.0103871219726	0	1	0	1	0	53.0103871219726	0
1.23	52.6662751406076	0	1	0	1	0	52.6662751406076	0
1.24	52.3286869285903	0	1	0	1	0	52.3286869285903	0
1.25	51.9974737673871	0	1	0	1	0	51.9974737673871	0
1.26	51.6724916596879	0	1	0	1	0	51.6724916596879	0
1.27	51.3536011435308	0	1	0	1	0	51.3536011435308	0
1.28	51.0406671151401	0	1	0	1	0	51.0406671151401	0
1.29	50.7335586600047	0	1	0	1	0	50.7335586600047	0
1.3	50.4321488917521	0	1	0	1	0	50.4321488917521	0
1.31	50.1363147984031	0	1	0	1	0	50.1363147984031	0
1.32	49.8459370956139	0	1	0	1	0	49.8459370956139	0
1.33	49.5609000865401	0	1	0	1	0	49.5609000865401	0
1.34	49.2810915279741	0	1	0	1	0	49.2810915279741	0
1.35	49.0064025024333	0	1	0	1	0	49.0064025024333	0
1.36	48.7367272958904	0	1	0	1	0	48.7367272958904	0
1.37	48.4719632808587	0	1	0	1	0	48.4719632808587	0
1.38	48.2120108045618	0	1	0	1	0	48.2120108045618	0
1.39	47.9567730819286	0	1	0	1	0	47.9567730819286	0
1.4	47.7061560931761	0	1	0	1	0	47.7061560931761	0
1.41	47.4600684857491	0	1	0	1	0	47.4600684857491	0
1.42	47.2184214804036	0	1	0	1	0	47.2184214804036	0
1.43	46.9811287812315	0	1	0	1	0	46.9811287812315	0
1.44	46.7481064894328	0	1	0	1	0	46.7481064894328	0
1.45	46.5192730206575	0	1	0	1	0	46.5192730206575	0
1.46	46.2945490257431	0	1	0	1	0	46.2945490257431	0
1.47	46.0738573146881	0	1	0	1	0	46.0738573146881	0
1.48	45.8571227837071	0	1	0	1	0	45.8571227837071	0
1.49	45.6442723452239	0	1	0	1	0	45.6442723452239	0
1.5	45.4352348606641	0	1	0	1	0	45.4352348606641	0
1.51	45.2299410759191	0	1	0	1	0	45.2299410759191	0
1.52	45.0283235593567	0	1	0	1	0	45.0283235593567	0
1.53	44.8303166422632	0	1	0	1	0	44.8303166422632	0
1.54	44.6358563616057	0	1	0	1	0	44.6358563616057	0
1.55	44.4448804050103	0	1	0	1	0	44.4448804050103	0
1.56	44.2573280578564	0	1	0	1	0	44.2573280578564	0
1.57	44.0731401523925	0	1	0	1	0	44.0731401523925	0
1.58	43.892259018785	0	1	0	1	0	43.892259018785	0
1.59	43.7146284380136	0	1	0	1	0	43.7146284380136	0
1.6	43.5401935965336	0	1	0	1	0	43.5401935965336	0
1.61	43.3689010426275	0	1	0	1	0	43.3689010426275	0
1.62	43.2006986443732	0	1	0	1	0	43.2006986443732	0
1.63	43.0355355491598	0	1	0	1	0	43.0355355491598	0
1.64	42.8733621446836	0	1	0	1	0	42.8733621446836	0
1.65	42.7141300213639	0	1	0	1	0	42.7141300213639	0
1.66	42.5577919361154	0	1	0	1	0	42.5577919361154	0
1.67	42.4043017774241	0	1	0	1	0	42.4043017774241	0
1.68	42.253614531669	0	1	0	1	0	42.253614531669	0
1.69	42.1056862506404	0	1	0	1	0	42.1056862506404	0
1.7	41.9604740202039	0	1	0	1	0	41.9604740202039	0
1.71	41.8179359300647	0	1	0	1	0	41.8179359300647	0
1.72	41.6780310445859	0	1	0	1	0	41.6780310445859	0
1.73	41.5407193746194	0	1	0	1	0	41.5407193746194	0
1.74	41.4059618503079	0	1	0	1	0	41.4059618503079	0
1.75	41.2737202948191	0	1	0	1	0	41.2737202948191	0
1.76	41.1439573989764	0	1	0	1	0	41.1439573989764	0
1.77	41.0166366967482	0	1	0	1	0	41.0166366967482	0
1.78	40.8917225415643	0	1	0	1	0	40.8917225415643	0
1.79	40.769180083426	0	1	0	1	0	40.769180083426	0
1.8	40.6489752467788	0	1	0	1	0	40.6489752467788	0
1.81	40.5310747091194	0	1	0	1	0	40.5310747091194	0
1.82	40.415445880307	0	1	0	1	0	40.415445880307	0
1.83	40.3020568825538	0	1	0	1	0	40.3020568825538	0
1.84	40.1908765310671	0	1	0	1	0	40.1908765310671	0
1.85	40.0818743153203	0	1	0	1	0	40.0818743153203	0
1.86	39.975020380927	0	1	0	1	0	39.975020380927	0
1.87	39.8702855120973	0	1	0	1	0	39.8702855120973	0
1.88	39.7676411146538	0	1	0	1	0	39.7676411146538	0
1.89	39.6670591995871	0	1	0	1	0	39.6670591995871	0
1.9	39.5685123671298	0	1	0	1	0	39.5685123671298	0
1.91	39.4719737913319	0	1	0	1	0	39.4719737913319	0
1.92	39.3774172051171	0	1	0	1	0	39.3774172051171	0
1.93	39.2848168858046	0	1	0	1	0	39.2848168858046	0
1.94	39.1941476410782	0	1	0	1	0	39.1941476410782	0
1.95	39.1053847953872	0	1	0	1	0	39.1053847953872	0
1.96	39.0185041767632	0	1	0	1	0	39.0185041767632	0
1.97	38.9334821040397	0	1	0	1	0	38.9334821040397	0
1.98	38.8502953744572	0	1	0	1	0	38.8502953744572	0
1.99	38.7689212516437	0	1	0	1	0	38.7689212516437	0
2	38.6893374539542	0	1	0	1	0	38.6893374539542	0
2.01	38.6115221431598	0	1	0	1	0	38.6115221431598	0
2.02	38.5354539134718	0	1	0	1	0	38.5354539134718	0
2.03	38.4611117808903	0	1	0	1	0	38.4611117808903	0
2.04	38.3884751728666	0	1	0	1	0	38.3884751728666	0
2.05	38.3175239182672	0	1	0	1	0	38.3175239182672	0
2.06	38.2482382376314	0	1	0	1	0	38.2482382376314	0
2.07	38.1805987337103	0	1	0	1	0	38.1805987337103	0
2.08	38.1145863822789	0	1	0	1	0	38.1145863822789	0
2.09	38.0501825232122	0	1	0	1	0	38.0501825232122	0
2.1	37.9873688518162	0	1	0	1	0	37.9873688518162	0
2.11	37.9261274104053	0	1	0	1	0	37.9261274104053	0
2.12	37.8664405801183	0	1	0	1	0	37.8664405801183	0
2.13	37.8082910729644	0	1	0	1	0	37.8082910729644	0
2.14	37.7516619240928	0	1	0	1	0	37.7516619240928	0
2.15	37.6965364842782	0	1	0	1	0	37.6965364842782	0
2.16	37.6428984126138	0	1	0	1	0	37.6428984126138	0
2.17	37.590731669408	0	1	0	1	0	37.590731669408	0
2.18	37.5400205092755	0	1	0	1	0	37.5400205092755	0
2.19	37.4907494744175	0	1	0	1	0	37.4907494744175	0
2.2	37.4429033880867	0	1	0	1	0	37.4429033880867	0
2.21	37.3964673482277	0	1	0	1	0	37.3964673482277	0
2.22	37.3514267212906	0	1	0	1	0	37.3514267212906	0
2.23	37.3077671362108	0	1	0	1	0	37.3077671362108	0
2.24	37.2654744785498	0	1	0	1	0	37.2654744785498	0
2.25	37.2245348847925	0	1	0	1	0	37.2245348847925	0
2.26	37.1849347367958	0	1	0	1	0	37.1849347367958	0
2.27	37.1466606563836	0	1	0	1	0	37.1466606563836	0
2.28	37.109699500085	0	1	0	1	0	37.109699500085	0
2.29	37.0740383540092	0	1	0	1	0	37.0740383540092	0
2.3	37.0396645288548	0	1	0	1	0	37.0396645288548	0
2.31	37.0065655550486	0	1	0	1	0	37.0065655550486	0
2.32	36.9747291780101	0	1	0	1	0	36.9747291780101	0
2.33	36.9441433535376	0	1	0	1	0	36.9441433535376	0
2.34	36.9147962433136	0	1	0	1	0	36.9147962433136	0
2.35	36.8866762105236	0	1	0	1	0	36.8866762105236	0
2.36	36.8597718155872	0	1	0	1	0	36.8597718155872	0
2.37	36.8340718119973	0	1	0	1	0	36.8340718119973	0
2.38	36.8095651422637	0	1	0	1	0	36.8095651422637	0
2.39	36.7862409339585	0	1	0	1	0	36.7862409339585	0
2.4	36.7640884958613	0	1	0	1	0	36.7640884958613	0
2.41	36.7430973141991	0	1	0	1	0	36.7430973141991	0
2.42	36.7232570489804	0	1	0	1	0	36.7232570489804	0
2.43	36.7045575304194	0	1	0	1	0	36.7045575304194	0
2.44	36.6869887554478	0	1	0	1	0	36.6869887554478	0
2.45	36.670540884313	0	1	0	1	0	36.670540884313	0
2.46	36.6552042372582	0	1	0	1	0	36.6552042372582	0
2.47	36.6409692912839	0	1	0	1	0	36.6409692912839	0
2.48	36.6278266769873	0	1	0	1	0	36.6278266769873	0
2.49	36.6157671754781	0	1	0	1	0	36.6157671754781	0
2.5	36.6047817153683	0	1	0	1	0	36.6047817153683	0
2.51	36.5948613698338	0	1	0	1	0	36.5948613698338	0
2.52	36.5859973537461	0	1	0	1	0	36.5859973537461	0
2.53	36.5781810208721	0	1	0	1	0	36.5781810208721	0
2.54	36.5714038611398	0	1	0	1	0	36.5714038611398	0
2.55	36.5656574979685	0	1	0	1	0	36.5656574979685	0
2.56	36.5609336856616	0	1	0	1	0	36.5609336856616	0
2.57	36.5572243068601	0	1	0	1	0	36.5572243068601	0
2.58	36.5545213700558	0	1	0	1	0	36.5545213700558	0
2.59	36.5528170071612	0	1	0	1	0	36.5528170071612	0
2.6	36.5521034711363	0	1	0	1	0	36.5521034711363	0
2.61	36.5523731336699	0	1	0	1	0	36.5523731336699	0
2.62	36.5536184829134	0	1	0	1	0	36.5536184829134	0
2.63	36.5558321212669	0	1	0	1	0	36.5558321212669	0
2.64	36.5590067632153	0	1	0	1	0	36.5590067632153	0
2.65	36.5631352332136	0	1	0	1	0	36.5631352332136	0
2.66	36.5682104636197	0	1	0	1	0	36.5682104636197	0
2.67	36.5742254926738	0	1	0	1	0	36.5742254926738	0
2.68	36.5811734625229	0	1	0	1	0	36.5811734625229	0
2.69	36.5890476172896	0	1	0	1	0	36.5890476172896	0
2.7	36.5978413011835	0	1	0	1	0	36.5978413011835	0
2.71	36.6075479566547	0	1	0	1	0	36.6075479566547	0
2.72	36.6181611225878	0	1	0	1	0	36.6181611225878	0
2.73	36.6296744325359	0	1	0	1	0	36.6296744325359	0
2.74	36.6420816129927	0	1	0	1	0	36.6420816129927	0
2.75	36.655376481703	0	1	0	1	0	36.655376481703	0
2.76	36.6695529460097	0	1	0	1	0	36.6695529460097	0
2.77	36.684605001236	0	1	0	1	0	36.684605001236	0
2.78	36.7005267291035	0	1	0	1	0	36.7005267291035	0
2.79	36.7173122961836	0	1	0	1	0	36.7173122961836	0
2.8	36.7349559523824	0	1	0	1	0	36.7349559523824	0
2.81	36.753452029458	0	1	0	1	0	36.753452029458	0
2.82	36.7727949395689	0	1	0	1	0	36.7727949395689	0
2.83	36.7929791738538	0	1	0	1	0	36.7929791738538	0
2.84	36.8139993010411	0	1	0	1	0	36.8139993010411	0
2.85	36.8358499660872	0	1	0	1	0	36.8358499660872	0
2.86	36.8585258888447	0	1	0	1	0	36.8585258888447	0
2.87	36.8820218627567	0	1	0	1	0	36.8820218627567	0
2.88	36.9063327535799	0	1	0	1	0	36.9063327535799	0
2.89	36.9314534981329	0	1	0	1	0	36.9314534981329	0
2.9	36.9573791030716	0	1	0	1	0	36.9573791030716	0
2.91	36.9841046436887	0	1	0	1	0	36.9841046436887	0
2.92	37.0116252627387	0	1	0	1	0	37.0116252627387	0
2.93	37.0399361692866	0	1	0	1	0	37.0399361692866	0
2.94	37.0690326375802	0	1	0	1	0	37.0690326375802	0
2.95	37.0989100059454	0	1	0	1	0	37.0989100059454	0
2.96	37.1295636757036	0	1	0	1	0	37.1295636757036	0
2.97	37.1609891101113	0	1	0	1	0	37.1609891101113	0
2.98	37.1931818333208	0	1	0	1	0	37.1931818333208	0
2.99	37.226137429362	0	1	0	1	0	37.226137429362	0
3	37.2598515411445	0	1	0	1	0	37.2598515411445	0
3.01	37.2943198694793	0	1	0	1	0	37.2943198694793	0
3.02	37.3295381721204	0	1	0	1	0	37.3295381721204	0
3.03	37.365502262825	0	1	0	1	0	37.365502262825	0
3.04	37.4022080104325	0	1	0	1	0	37.4022080104325	0
3.05	37.4396513379613	0	1	0	1	0	37.4396513379613	0
3.06	37.4778282217238	0	1	0	1	0	37.4778282217238	0
3.07	37.5167346904584	0	1	0	1	0	37.5167346904584	0
3.08	37.556366824478	0	1	0	1	0	37.556366824478	0
3.09	37.5967207548362	0	1	0	1	0	37.5967207548362	0
3.1	37.6377926625082	0	1	0	1	0	37.6377926625082	0
3.11	37.6795787775885	0	1	0	1	0	37.6795787775885	0
3.12	37.7220753785038	0	1	0	1	0	37.7220753785038	0
3.13	37.765278791241	0	1	0	1	0	37.765278791241	0
3.14	37.8091853885893	0	1	0	1	0	37.8091853885893	0
3.15	37.8537915893982	0	1	0	1	0	37.8537915893982	0
3.16	37.8990938578479	0	1	0	1	0	37.8990938578479	0
3.17	37.9450887027347	0	1	0	1	0	37.9450887027347	0
3.18	37.9917726767693	0	1	0	1	0	37.9917726767693	0
3.19	38.039142375889	0	1	0	1	0	38.039142375889	0
3.2	38.0871944385813	0	1	0	1	0	38.0871944385813	0
3.21	38.1359255452223	0	1	0	1	0	38.1359255452223	0
3.22	38.1853324174251	0	1	0	1	0	38.1853324174251	0
3.23	38.2354118174025	0	1	0	1	0	38.2354118174025	0
3.24	38.2861605473397	0	1	0	1	0	38.2861605473397	0
3.25	38.3375754487796	0	1	0	1	0	38.3375754487796	0
3.26	38.3896534020194	0	1	0	1	0	38.3896534020194	0
3.27	38.4423913255177	0	1	0	1	0	38.4423913255177	0
3.28	38.4957861753127	0	1	0	1	0	38.4957861753127	0
3.29	38.5498349444515	0	1	0	1	0	38.5498349444515	0
3.3	38.604534662429	0	1	0	1	0	38.604534662429	0
3.31	38.6598823946374	0	1	0	1	0	38.6598823946374	0
3.32	38.7158752418258	0	1	0	1	0	38.7158752418258	0
3.33	38.7725103395689	0	1	0	1	0	38.7725103395689	0
3.34	38.829784857746	0	1	0	1	0	38.829784857746	0
3.35	38.887696000029	0	1	0	1	0	38.887696000029	0
3.36	38.9462410033792	0	1	0	1	0	38.9462410033792	0
3.37	39.0054171375538	0	1	0	1	0	39.0054171375538	0
3.38	39.0652217046204	0	1	0	1	0	39.0652217046204	0
3.39	39.1256520384808	0	1	0	1	0	39.1256520384808	0
3.4	39.1867055044026	0	1	0	1	0	39.1867055044026	0
3.41	39.2483794985592	0	1	0	1	0	39.2483794985592	0
3.42	39.3106714475782	0	1	0	1	0	39.3106714475782	0
3.43	39.3735788080975	0	1	0	1	0	39.3735788080975	0
3.44	39.4370990663289	0	1	0	1	0	39.4370990663289	0
3.45	39.5012297376295	0	1	0	1	0	39.5012297376295	0
3.46	39.5659683660806	0	1	0	1	0	39.5659683660806	0
3.47	39.6313125240739	0	1	0	1	0	39.6313125240739	0
3.48	39.6972598119045	0	1	0	1	0	39.6972598119045	0
3.49	39.7638078573715	0	1	0	1	0	39.7638078573715	0
3.5	39.8309543153847	0	1	0	1	0	39.8309543153847	0
3.51	39.8986968675787	0	1	0	1	0	39.8986968675787	0
3.52	39.9670332219328	0	1	0	1	0	39.9670332219328	0
3.53	40.0359611123988	0	1	0	1	0	40.0359611123988	0
3.54	40.105478298533	0	1	0	1	0	40.105478298533	0
3.55	40.1755825651365	0	1	0	1	0	40.1755825651365	0
3.56	40.2462717219002	0	1	0	1	0	40.2462717219002	0
3.57	40.3175436030561	0	1	0	1	0	40.3175436030561	0
3.58	40.3893960670349	0	1	0	1	0	40.3893960670349	0
3.59	40.4618269961289	0	1	0	1	0	40.4618269961289	0
3.6	40.5348342961601	0	1	0	1	0	40.5348342961601	0
3.61	40.6084158961552	0	1	0	1	0	40.6084158961552	0
3.62	40.6825697480241	0	1	0	1	0	40.6825697480241	0
3.63	40.7572938262454	0	1	0	1	0	40.7572938262454	0
3.64	40.8325861275563	0	1	0	1	0	40.8325861275563	0
3.65	40.9084446706474	0	1	0	1	0	40.9084446706474	0
3.66	40.984867495863	0	1	0	1	0	40.984867495863	0
3.67	41.061852664906	0	1	0	1	0	41.061852664906	0
3.68	41.1393982605479	0	1	0	1	0	41.1393982605479	0
3.69	41.2175023863428	0	1	0	1	0	41.2175023863428	0
3.7	41.2961631663475	0	1	0	1	0	41.2961631663475	0
3.71	41.375378744844	0	1	0	1	0	41.375378744844	0
3.72	41.4551472860686	0	1	0	1	0	41.4551472860686	0
3.73	41.5354669739441	0	1	0	1	0	41.5354669739441	0
3.74	41.6163360118164	0	1	0	1	0	41.6163360118164	0
3.75	41.6977526221959	0	1	0	1	0	41.6977526221959	0
3.76	41.7797150465022	0	1	0	1	0	41.7797150465022	0
3.77	41.8622215448139	0	1	0	1	0	41.8622215448139	0
3.78	41.9452703956212	0	1	0	1	0	41.9452703956212	0
3.79	42.0288598955834	0	1	0	1	0	42.0288598955834	0
3.8	42.1129883592898	0	1	0	1	0	42.1129883592898	0
3.81	42.197654119024	0	1	0	1	0	42.197654119024	0
3.82	42.2828555245328	0	1	0	1	0	42.2828555245328	0
3.83	42.3685909427981	0	1	0	1	0	42.3685909427981	0
3.84	42.4548587578123	0	1	0	1	0	42.4548587578123	0
3.85	42.5416573703574	0	1	0	1	0	42.5416573703574	0
3.86	42.6289851977878	0	1	0	1	0	42.6289851977878	0
3.87	42.7168406738158	0	1	0	1	0	42.7168406738158	0
3.88	42.8052222483011	0	1	0	1	0	42.8052222483011	0
3.89	42.8941283870433	0	1	0	1	0	42.8941283870433	0
3.9	42.983557571577	0	1	0	1	0	42.983557571577	0
3.91	43.0735082989713	0	1	0	1	0	43.0735082989713	0
3.92	43.1639790816312	0	1	0	1	0	43.1639790816312	0
3.93	43.2549684471028	0	1	0	1	0	43.2549684471028	0
3.94	43.3464749378806	0	1	0	1	0	43.3464749378806	0
3.95	43.4384971112189	0	1	0	1	0	43.4384971112189	0
3.96	43.5310335389452	0	1	0	1	0	43.5310335389452	0
3.97	43.6240828072767	0	1	0	1	0	43.6240828072767	0
3.98	43.7176435166392	0	1	0	1	0	43.7176435166392	0
3.99	43.8117142814896	0	1	0	1	0	43.8117142814896	0
4	43.9062937301401	0	1	0	1	0	43.9062937301401	0
4.01	44.0013805045855	0	1	0	1	0	44.0013805045855	0
4.02	44.0969732603333	0	1	0	1	0	44.0969732603333	0
4.03	44.1930706662357	0	1	0	1	0	44.1930706662357	0
4.04	44.2896714043246	0	1	0	1	0	44.2896714043246	0
4.05	44.3867741696488	0	1	0	1	0	44.3867741696488	0
4.06	44.484377670114	0	1	0	1	0	44.484377670114	0
4.07	44.5824806263242	0	1	0	1	0	44.5824806263242	0
4.08	44.681081771427	0	1	0	1	0	44.681081771427	0
4.09	44.7801798509594	0	1	0	1	0	44.7801798509594	0
4.1	44.8797736226971	0	1	0	1	0	44.8797736226971	0
4.11	44.9798618565057	0	1	0	1	0	44.9798618565057	0
4.12	45.0804433341939	0	1	0	1	0	45.0804433341939	0
4.13	45.1815168493685	0	1	0	1	0	45.1815168493685	0
4.14	45.2830812072928	0	1	0	1	0	45.2830812072928	0
4.15	45.3851352247452	0	1	0	1	0	45.3851352247452	0
4.16	45.4876777298814	0	1	0	1	0	45.4876777298814	0
4.17	45.5907075620978	0	1	0	1	0	45.5907075620978	0
4.18	45.6942235718972	0	1	0	1	0	45.6942235718972	0
4.19	45.7982246207558	0	1	0	1	0	45.7982246207558	0
4.2	45.9027095809932	0	1	0	1	0	45.9027095809932	0
4.21	46.0076773356431	0	1	0	1	0	46.0076773356431	0
4.22	46.1131267783266	0	1	0	1	0	46.1131267783266	0
4.23	46.2190568131271	0	1	0	1	0	46.2190568131271	0
4.24	46.3254663544668	0	1	0	1	0	46.3254663544668	0
4.25	46.4323543269849	0	1	0	1	0	46.4323543269849	0
4.26	46.5397196654183	0	1	0	1	0	46.5397196654183	0
4.27	46.6475613144825	0	1	0	1	0	46.6475613144825	0
4.28	46.7558782287559	0	1	0	1	0	46.7558782287559	0
4.29	46.864669372564	0	1	0	1	0	46.864669372564	0
4.3	46.9739337198668	0	1	0	1	0	46.9739337198668	0
4.31	47.0836702541465	0	1	0	1	0	47.0836702541465	0
4.32	47.1938779682976	0	1	0	1	0	47.1938779682976	0
4.33	47.3045558645182	0	1	0	1	0	47.3045558645182	0
4.34	47.4157029542026	0	1	0	1	0	47.4157029542026	0
4.35	47.5273182578357	0	1	0	1	0	47.5273182578357	0
4.36	47.639400804889	0	1	0	1	0	47.639400804889	0
4.37	47.7519496337173	0	1	0	1	0	47.7519496337173	0
4.38	47.8649637914576	0	1	0	1	0	47.8649637914576	0
4.39	47.9784423339292	0	1	0	1	0	47.9784423339292	0
4.4	48.0923843255346	0	1	0	1	0	48.0923843255346	0
4.41	48.2067888391627	0	1	0	1	0	48.2067888391627	0
4.42	48.3216549560923	0	1	0	1	0	48.3216549560923	0
4.43	48.4369817658979	0	1	0	1	0	48.4369817658979	0
4.44	48.5527683663558	0	1	0	1	0	48.5527683663558	0
4.45	48.6690138633524	0	1	0	1	0	48.6690138633524	0
4.46	48.7857173707929	0	1	0	1	0	48.7857173707929	0
4.47	48.9028780105117	0	1	0	1	0	48.9028780105117	0
4.48	49.0204949121841	0	1	0	1	0	49.0204949121841	0
4.49	49.1385672132389	0	1	0	1	0	49.1385672132389	0
4.5	49.2570940587721	0	1	0	1	0	49.2570940587721	0
4.51	49.3760746014619	0	1	0	1	0	49.3760746014619	0
4.52	49.4955080014851	0	1	0	1	0	49.4955080014851	0
4.53	49.6153934264341	0	1	0	1	0	49.6153934264341	0
4.54	49.7357300512353	0	1	0	1	0	49.7357300512353	0
4.55	49.8565170580685	0	1	0	1	0	49.8565170580685	0
4.56	49.9777536362871	0	1	0	1	0	49.9777536362871	0
4.57	50.0994389823404	0	1	0	1	0	50.0994389823404	0
4.58	50.2215722996952	0	1	0	1	0	50.2215722996952	0
4.59	50.3441527987598	0	1	0	1	0	50.3441527987598	0
4.6	50.4671796968088	0	1	0	1	0	50.4671796968088	0
4.61	50.5906522179079	0	1	0	1	0	50.5906522179079	0
4.62	50.7145695928413	0	1	0	1	0	50.7145695928413	0
4.63	50.8389310590384	0	1	0	1	0	50.8389310590384	0
4.64	50.9637358605025	0	1	0	1	0	50.9637358605025	0
4.65	51.0889832477403	0	1	0	1	0	51.0889832477403	0
4.66	51.2146724776916	0	1	0	1	0	51.2146724776916	0
4.67	51.3408028136611	0	1	0	1	0	51.3408028136611	0
4.68	51.4673735252498	0	1	0	1	0	51.4673735252498	0
4.69	51.5943838882881	0	1	0	1	0	51.5943838882881	0
4.7	51.7218331847697	0	1	0	1	0	51.7218331847697	0
4.71	51.849720702786	0	1	0	1	0	51.849720702786	0
4.72	51.9780457364614	0	1	0	1	0	51.9780457364614	0
4.73	52.1068075858897	0	1	0	1	0	52.1068075858897	0
4.74	52.2360055570711	0	1	0	1	0	52.2360055570711	0
4.75	52.3656389618501	0	1	0	1	0	52.3656389618501	0
4.76	52.4957071178538	0	1	0	1	0	52.4957071178538	0
4.77	52.6262093484317	0	1	0	1	0	52.6262093484317	0
4.78	52.7571449825956	0	1	0	1	0	52.7571449825956	0
4.79	52.8885133549604	0	1	0	1	0	52.8885133549604	0
4.8	53.0203138056862	0	1	0	1	0	53.0203138056862	0
4.81	53.1525456804199	0	1	0	1	0	53.1525456804199	0
4.82	53.2852083302391	0	1	0	1	0	53.2852083302391	0
4.83	53.4183011115953	0	1	0	1	0	53.4183011115953	0
4.84	53.5518233862586	0	1	0	1	0	53.5518233862586	0
4.85	53.685774521263	0	1	0	1	0	53.685774521263	0
4.86	53.8201538888518	0	1	0	1	0	53.8201538888518	0
4.87	53.9549608664247	0	1	0	1	0	53.9549608664247	0
4.88	54.0901948364846	0	1	0	1	0	54.0901948364846	0
4.89	54.2258551865854	0	1	0	1	0	54.2258551865854	0
4.9	54.3619413092806	0	1	0	1	0	54.3619413092806	0
4.91	54.4984526020724	0	1	0	1	0	54.4984526020724	0
4.92	54.6353884673614	0	1	0	1	0	54.6353884673614	0
4.93	54.7727483123968	0	1	0	1	0	54.7727483123968	0
