# GHZ S RI R 50
1	51.4955132695988	0	1	0	1	0	51.4955132695988	0
1.01	51.0626347826574	0	1	0	1	0	51.0626347826574	0
1.02	50.6393019712755	0	1	0	1	0	50.6393019712755	0
1.03	50.2252471782618	0	1	0	1	0	50.2252471782618	0
1.04	49.8202130409322	0	1	0	1	0	49.8202130409322	0
1.05	49.4239520008956	0	1	0	1	0	49.4239520008956	0
1.06	49.0362258415867	0	1	0	1	0	49.0362258415867	0
1.07	48.6568052517326	0	1	0	1	0	48.6568052517326	0
1.08	48.2854694130705	0	1	0	1	0	48.2854694130705	0
1.09	47.9220056107598	0	1	0	1	0	47.9220056107598	0
1.1	47.5662088650453	0	1	0	1	0	47.5662088650453	0
1.11	47.2178815828295	0	1	0	1	0	47.2178815828295	0
1.12	46.8768332279114	0	1	0	1	0	46.8768332279114	0
1.13	46.5428800087342	0	1	0	1	0	46.5428800087342	0
1.14	46.2158445825674	0	1	0	1	0	46.2158445825674	0
1.15	45.8955557751238	0	1	0	1	0	45.8955557751238	0
1.16	45.5818483146773	0	1	0	1	0	45.5818483146773	0
1.17	45.2745625798178	0	1	0	1	0	45.2745625798178	0
1.18	44.9735443600298	0	1	0	1	0	44.9735443600298	0
1.19	44.6786446283451	0	1	0	1	0	44.6786446283451	0
1.2	44.3897193253608	0	1	0	1	0	44.3897193253608	0
1.21	44.1066291539685	0	1	0	1	0	44.1066291539685	0
1.22	43.8292393841778	0	1	0	1	0	43.8292393841778	0
1.23	43.5574196674618	0	1	0	1	0	43.5574196674618	0
1.24	43.2910438600845	0	1	0	1	0	43.2910438600845	0
1.25	43.0299898549096	0	1	0	1	0	43.0299898549096	0
1.26	42.7741394212177	0	1	0	1	0	42.7741394212177	0
1.27	42.5233780520917	0	1	0	1	0	42.5233780520917	0
1.28	42.2775948189557	0	1	0	1	0	42.2775948189557	0
1.29	42.0366822328793	0	1	0	1	0	42.0366822328793	0
1.3	41.8005361122842	0	1	0	1	0	41.8005361122842	0
1.31	41.5690554567086	0	1	0	1	0	41.5690554567086	0
1.32	41.342142326311	0	1	0	1	0	41.342142326311	0
1.33	41.119701726809	0	1	0	1	0	41.119701726809	0
1.34	40.9016414995704	0	1	0	1	0	40.9016414995704	0
1.35	40.6878722165892	0	1	0	1	0	40.6878722165892	0
1.36	40.4783070800947	0	1	0	1	0	40.4783070800947	0
1.37	40.2728618265578	0	1	0	1	0	40.2728618265578	0
1.38	40.0714546348706	0	1	0	1	0	40.0714546348706	0
1.39	39.8740060384893	0	1	0	1	0	39.8740060384893	0
1.4	39.680438841343	0	1	0	1	0	39.680438841343	0
1.41	39.4906780373199	0	1	0	1	0	39.4906780373199	0
1.42	39.3046507331568	0	1	0	1	0	39.3046507331568	0
1.43	39.1222860745627	0	1	0	1	0	39.1222860745627	0
1.44	38.9435151754214	0	1	0	1	0	38.9435151754214	0
1.45	38.7682710499233	0	1	0	1	0	38.7682710499233	0
1.46	38.5964885474865	0	1	0	1	0	38.5964885474865	0
1.47	38.428104290334	0	1	0	1	0	38.428104290334	0
1.48	38.2630566136019	0	1	0	1	0	38.2630566136019	0
1.49	38.1012855078586	0	1	0	1	0	38.1012855078586	0
1.5	37.9427325639242	0	1	0	1	0	37.9427325639242	0
1.51	37.7873409198818	0	1	0	1	0	37.7873409198818	0
1.52	37.6350552101806	0	1	0	1	0	37.6350552101806	0
1.53	37.4858215167353	0	1	0	1	0	37.4858215167353	0
1.54	37.3395873219305	0	1	0	1	0	37.3395873219305	0
1.55	37.1963014634439	0	1	0	1	0	37.1963014634439	0
1.56	37.0559140908076	0	1	0	1	0	37.0559140908076	0
1.57	36.9183766236293	0	1	0	1	0	36.9183766236293	0
1.58	36.7836417114003	0	1	0	1	0	36.7836417114003	0
1.59	36.6516631948195	0	1	0	1	0	36.6516631948195	0
1.6	36.5223960685681	0	1	0	1	0	36.5223960685681	0
1.61	36.3957964454723	0	1	0	1	0	36.3957964454723	0
1.62	36.271821521992	0	1	0	1	0	36.271821521992	0
1.63	36.1504295449806	0	1	0	1	0	36.1504295449806	0
1.64	36.0315797796611	0	1	0	1	0	36.0315797796611	0
1.65	35.9152324787663	0	1	0	1	0	35.9152324787663	0
1.66	35.8013488527943	0	1	0	1	0	35.8013488527943	0
1.67	35.6898910413332	0	1	0	1	0	35.6898910413332	0
1.68	35.5808220854093	0	1	0	1	0	35.5808220854093	0
1.69	35.4741059008178	0	1	0	1	0	35.4741059008178	0
1.7	35.3697072523937	0	1	0	1	0	35.3697072523937	0
1.71	35.2675917291867	0	1	0	1	0	35.2675917291867	0
1.72	35.1677257205008	0	1	0	1	0	35.1677257205008	0
1.73	35.0700763927662	0	1	0	1	0	35.0700763927662	0
1.74	34.9746116672078	0	1	0	1	0	34.9746116672078	0
1.75	34.8813001982794	0	1	0	1	0	34.8813001982794	0
1.76	34.7901113528339	0	1	0	1	0	34.7901113528339	0
1.77	34.7010151899984	0	1	0	1	0	34.7010151899984	0
1.78	34.6139824417288	0	1	0	1	0	34.6139824417288	0
1.79	34.5289844940155	0	1	0	1	0	34.5289844940155	0
1.8	34.4459933687158	0	1	0	1	0	34.4459933687158	0
1.81	34.3649817059883	0	1	0	1	0	34.3649817059883	0
1.82	34.285922747307	0	1	0	1	0	34.285922747307	0
1.83	34.2087903190316	0	1	0	1	0	34.2087903190316	0
1.84	34.1335588165141	0	1	0	1	0	34.1335588165141	0
1.85	34.0602031887205	0	1	0	1	0	34.0602031887205	0
1.86	33.9886989233484	0	1	0	1	0	33.9886989233484	0
1.87	33.9190220324232	0	1	0	1	0	33.9190220324232	0
1.88	33.8511490383524	0	1	0	1	0	33.8511490383524	0
1.89	33.785056960424	0	1	0	1	0	33.785056960424	0
1.9	33.7207233017302	0	1	0	1	0	33.7207233017302	0
1.91	33.6581260365028	0	1	0	1	0	33.6581260365028	0
1.92	33.5972435978438	0	1	0	1	0	33.5972435978438	0
1.93	33.5380548658375	0	1	0	1	0	33.5380548658375	0
1.94	33.4805391560303	0	1	0	1	0	33.4805391560303	0
1.95	33.4246762082652	0	1	0	1	0	33.4246762082652	0
1.96	33.3704461758576	0	1	0	1	0	33.3704461758576	0
1.97	33.3178296151016	0	1	0	1	0	33.3178296151016	0
1.98	33.2668074750932	0	1	0	1	0	33.2668074750932	0
1.99	33.2173610878611	0	1	0	1	0	33.2173610878611	0
2	33.1694721587936	0	1	0	1	0	33.1694721587936	0
2.01	33.1231227573507	0	1	0	1	0	33.1231227573507	0
2.02	33.0782953080528	0	1	0	1	0	33.0782953080528	0
2.03	33.034972581735	0	1	0	1	0	33.034972581735	0
2.04	32.9931376870593	0	1	0	1	0	32.9931376870593	0
2.05	32.9527740622745	0	1	0	1	0	32.9527740622745	0
2.06	32.9138654672172	0	1	0	1	0	32.9138654672172	0
2.07	32.8763959755434	0	1	0	1	0	32.8763959755434	0
2.08	32.8403499671848	0	1	0	1	0	32.8403499671848	0
2.09	32.8057121210219	0	1	0	1	0	32.8057121210219	0
2.1	32.7724674077662	0	1	0	1	0	32.7724674077662	0
2.11	32.7406010830444	0	1	0	1	0	32.7406010830444	0
2.12	32.710098680679	0	1	0	1	0	32.710098680679	0
2.13	32.6809460061579	0	1	0	1	0	32.6809460061579	0
2.14	32.6531291302867	0	1	0	1	0	32.6531291302867	0
2.15	32.6266343830191	0	1	0	1	0	32.6266343830191	0
2.16	32.6014483474578	0	1	0	1	0	32.6014483474578	0
2.17	32.5775578540213	0	1	0	1	0	32.5775578540213	0
2.18	32.5549499747721	0	1	0	1	0	32.5549499747721	0
2.19	32.5336120178992	0	1	0	1	0	32.5336120178992	0
2.2	32.5135315223519	0	1	0	1	0	32.5135315223519	0
2.21	32.4946962526189	0	1	0	1	0	32.4946962526189	0
2.22	32.4770941936485	0	1	0	1	0	32.4770941936485	0
2.23	32.4607135459058	0	1	0	1	0	32.4607135459058	0
2.24	32.4455427205615	0	1	0	1	0	32.4455427205615	0
2.25	32.4315703348103	0	1	0	1	0	32.4315703348103	0
2.26	32.4187852073123	0	1	0	1	0	32.4187852073123	0
2.27	32.4071763537557	0	1	0	1	0	32.4071763537557	0
2.28	32.3967329825359	0	1	0	1	0	32.3967329825359	0
2.29	32.3874444905478	0	1	0	1	0	32.3874444905478	0
2.3	32.3793004590884	0	1	0	1	0	32.3793004590884	0
2.31	32.372290649865	0	1	0	1	0	32.372290649865	0
2.32	32.3664050011071	0	1	0	1	0	32.3664050011071	0
2.33	32.3616336237786	0	1	0	1	0	32.3616336237786	0
2.34	32.3579667978866	0	1	0	1	0	32.3579667978866	0
2.35	32.3553949688851	0	1	0	1	0	32.3553949688851	0
2.36	32.3539087441694	0	1	0	1	0	32.3539087441694	0
2.37	32.3534988896598	0	1	0	1	0	32.3534988896598	0
2.38	32.3541563264713	0	1	0	1	0	32.3541563264713	0
2.39	32.3558721276666	0	1	0	1	0	32.3558721276666	0
2.4	32.3586375150909	0	1	0	1	0	32.3586375150909	0
2.41	32.3624438562846	0	1	0	1	0	32.3624438562846	0
2.42	32.3672826614738	0	1	0	1	0	32.3672826614738	0
2.43	32.3731455806337	0	1	0	1	0	32.3731455806337	0
2.44	32.3800244006251	0	1	0	1	0	32.3800244006251	0
2.45	32.3879110424011	0	1	0	1	0	32.3879110424011	0
2.46	32.3967975582812	0	1	0	1	0	32.3967975582812	0
2.47	32.4066761292924	0	1	0	1	0	32.4066761292924	0
2.48	32.4175390625741	0	1	0	1	0	32.4175390625741	0
2.49	32.4293787888459	0	1	0	1	0	32.4293787888459	0
2.5	32.4421878599357	0	1	0	1	0	32.4421878599357	0
2.51	32.4559589463675	0	1	0	1	0	32.4559589463675	0
2.52	32.4706848350062	0	1	0	1	0	32.4706848350062	0
2.53	32.4863584267583	0	1	0	1	0	32.4863584267583	0
2.54	32.5029727343271	0	1	0	1	0	32.5029727343271	0
2.55	32.5205208800206	0	1	0	1	0	32.5205208800206	0
2.56	32.5389960936105	0	1	0	1	0	32.5389960936105	0
2.57	32.558391710242	0	1	0	1	0	32.558391710242	0
2.58	32.5787011683912	0	1	0	1	0	32.5787011683912	0
2.59	32.5999180078705	0	1	0	1	0	32.5999180078705	0
2.6	32.6220358678799	0	1	0	1	0	32.6220358678799	0
2.61	32.6450484851029	0	1	0	1	0	32.6450484851029	0
2.62	32.6689496918459	0	1	0	1	0	32.6689496918459	0
2.63	32.693733414221	0	1	0	1	0	32.693733414221	0
2.64	32.7193936703684	0	1	0	1	0	32.7193936703684	0
2.65	32.7459245687209	0	1	0	1	0	32.7459245687209	0
2.66	32.7733203063061	0	1	0	1	0	32.7733203063061	0
2.67	32.8015751670876	0	1	0	1	0	32.8015751670876	0
2.68	32.830683520343	0	1	0	1	0	32.830683520343	0
2.69	32.8606398190779	0	1	0	1	0	32.8606398190779	0
2.7	32.891438598476	0	1	0	1	0	32.891438598476	0
2.71	32.923074474382	0	1	0	1	0	32.923074474382	0
2.72	32.9555421418198	0	1	0	1	0	32.9555421418198	0
2.73	32.9888363735416	0	1	0	1	0	32.9888363735416	0
2.74	33.0229520186099	0	1	0	1	0	33.0229520186099	0
2.75	33.05788400101	0	1	0	1	0	33.05788400101	0
2.76	33.0936273182923	0	1	0	1	0	33.0936273182923	0
2.77	33.1301770402453	0	1	0	1	0	33.1301770402453	0
2.78	33.1675283075952	0	1	0	1	0	33.1675283075952	0
2.79	33.2056763307356	0	1	0	1	0	33.2056763307356	0
2.8	33.2446163884829	0	1	0	1	0	33.2446163884829	0
2.81	33.2843438268591	0	1	0	1	0	33.2843438268591	0
2.82	33.3248540578998	0	1	0	1	0	33.3248540578998	0
2.83	33.3661425584884	0	1	0	1	0	33.3661425584884	0
2.84	33.4082048692141	0	1	0	1	0	33.4082048692141	0
2.85	33.4510365932543	0	1	0	1	0	33.4510365932543	0
2.86	33.4946333952804	0	1	0	1	0	33.4946333952804	0
2.87	33.5389910003865	0	1	0	1	0	33.5389910003865	0
2.88	33.5841051930405	0	1	0	1	0	33.5841051930405	0
2.89	33.6299718160566	0	1	0	1	0	33.6299718160566	0
2.9	33.6765867695897	0	1	0	1	0	33.6765867695897	0
2.91	33.7239460101497	0	1	0	1	0	33.7239460101497	0
2.92	33.772045549637	0	1	0	1	0	33.772045549637	0
2.93	33.8208814543969	0	1	0	1	0	33.8208814543969	0
2.94	33.870449844294	0	1	0	1	0	33.870449844294	0
2.95	33.9207468918046	0	1	0	1	0	33.9207468918046	0
2.96	33.9717688211285	0	1	0	1	0	33.9717688211285	0
2.97	34.0235119073181	0	1	0	1	0	34.0235119073181	0
2.98	34.075972475425	0	1	0	1	0	34.075972475425	0
2.99	34.1291468996639	0	1	0	1	0	34.1291468996639	0
3	34.1830316025933	0	1	0	1	0	34.1830316025933	0
3.01	34.2376230543128	0	1	0	1	0	34.2376230543128	0
3.02	34.2929177716751	0	1	0	1	0	34.2929177716751	0
3.03	34.3489123175156	0	1	0	1	0	34.3489123175156	0
3.04	34.405603299895	0	1	0	1	0	34.405603299895	0
3.05	34.4629873713589	0	1	0	1	0	34.4629873713589	0
3.06	34.5210612282104	0	1	0	1	0	34.5210612282104	0
3.07	34.5798216097971	0	1	0	1	0	34.5798216097971	0
3.08	34.6392652978134	0	1	0	1	0	34.6392652978134	0
3.09	34.699389115614	0	1	0	1	0	34.699389115614	0
3.1	34.7601899275429	0	1	0	1	0	34.7601899275429	0
3.11	34.8216646382741	0	1	0	1	0	34.8216646382741	0
3.12	34.8838101921651	0	1	0	1	0	34.8838101921651	0
3.13	34.9466235726232	0	1	0	1	0	34.9466235726232	0
3.14	35.0101018014837	0	1	0	1	0	35.0101018014837	0
3.15	35.0742419383999	0	1	0	1	0	35.0742419383999	0
3.16	35.1390410802445	0	1	0	1	0	35.1390410802445	0
3.17	35.2044963605228	0	1	0	1	0	35.2044963605228	0
3.18	35.2706049487968	0	1	0	1	0	35.2706049487968	0
3.19	35.3373640501196	0	1	0	1	0	35.3373640501196	0
3.2	35.4047709044813	0	1	0	1	0	35.4047709044813	0
3.21	35.4728227862647	0	1	0	1	0	35.4728227862647	0
3.22	35.541517003711	0	1	0	1	0	35.541517003711	0
3.23	35.6108508983962	0	1	0	1	0	35.6108508983962	0
3.24	35.6808218447159	0	1	0	1	0	35.6808218447159	0
3.25	35.7514272493813	0	1	0	1	0	35.7514272493813	0
3.26	35.8226645509228	0	1	0	1	0	35.8226645509228	0
3.27	35.8945312192038	0	1	0	1	0	35.8945312192038	0
3.28	35.9670247549431	0	1	0	1	0	35.9670247549431	0
3.29	36.0401426892458	0	1	0	1	0	36.0401426892458	0
3.3	36.1138825831432	0	1	0	1	0	36.1138825831432	0
3.31	36.1882420271402	0	1	0	1	0	36.1882420271402	0
3.32	36.2632186407721	0	1	0	1	0	36.2632186407721	0
3.33	36.3388100721682	0	1	0	1	0	36.3388100721682	0
3.34	36.415013997624	0	1	0	1	0	36.415013997624	0
3.35	36.4918281211805	0	1	0	1	0	36.4918281211805	0
3.36	36.5692501742119	0	1	0	1	0	36.5692501742119	0
3.37	36.6472779150195	0	1	0	1	0	36.6472779150195	0
3.38	36.7259091284335	0	1	0	1	0	36.7259091284335	0
3.39	36.805141625422	0	1	0	1	0	36.805141625422	0
3.4	36.8849732427063	0	1	0	1	0	36.8849732427063	0
3.41	36.9654018423834	0	1	0	1	0	36.9654018423834	0
3.42	37.046425311555	0	1	0	1	0	37.046425311555	0
3.43	37.1280415619631	0	1	0	1	0	37.1280415619631	0
3.44	37.2102485296318	0	1	0	1	0	37.2102485296318	0
3.45	37.2930441745151	0	1	0	1	0	37.2930441745151	0
3.46	37.3764264801517	0	1	0	1	0	37.3764264801517	0
3.47	37.4603934533245	0	1	0	1	0	37.4603934533245	0
3.48	37.5449431237271	0	1	0	1	0	37.5449431237271	0
3.49	37.6300735436354	0	1	0	1	0	37.6300735436354	0
3.5	37.715782787585	0	1	0	1	0	37.715782787585	0
3.51	37.8020689520541	0	1	0	1	0	37.8020689520541	0
3.52	37.8889301551518	0	1	0	1	0	37.8889301551518	0
3.53	37.9763645363118	0	1	0	1	0	37.9763645363118	0
3.54	38.0643702559911	0	1	0	1	0	38.0643702559911	0
3.55	38.152945495374	0	1	0	1	0	38.152945495374	0
3.56	38.2420884560808	0	1	0	1	0	38.2420884560808	0
3.57	38.3317973598819	0	1	0	1	0	38.3317973598819	0
3.58	38.4220704484161	0	1	0	1	0	38.4220704484161	0
3.59	38.5129059829139	0	1	0	1	0	38.5129059829139	0
3.6	38.6043022439257	0	1	0	1	0	38.6043022439257	0
3.61	38.6962575310535	0	1	0	1	0	38.6962575310535	0
3.62	38.7887701626888	0	1	0	1	0	38.7887701626888	0
3.63	38.8818384757528	0	1	0	1	0	38.8818384757528	0
3.64	38.9754608254425	0	1	0	1	0	38.9754608254425	0
3.65	39.06963558498	0	1	0	1	0	39.06963558498	0
3.66	39.1643611453666	0	1	0	1	0	39.1643611453666	0
3.67	39.2596359151401	0	1	0	1	0	39.2596359151401	0
3.68	39.3554583201371	0	1	0	1	0	39.3554583201371	0
3.69	39.451826803258	0	1	0	1	0	39.451826803258	0
3.7	39.548739824237	0	1	0	1	0	39.548739824237	0
3.71	39.6461958594146	0	1	0	1	0	39.6461958594146	0
3.72	39.7441934015152	0	1	0	1	0	39.7441934015152	0
3.73	39.8427309594264	0	1	0	1	0	39.8427309594264	0
3.74	39.9418070579842	0	1	0	1	0	39.9418070579842	0
3.75	40.0414202377591	0	1	0	1	0	40.0414202377591	0
3.76	40.1415690548479	0	1	0	1	0	40.1415690548479	0
3.77	40.242252080667	0	1	0	1	0	40.242252080667	0
3.78	40.3434679017503	0	1	0	1	0	40.3434679017503	0
3.79	40.4452151195493	0	1	0	1	0	40.4452151195493	0
3.8	40.5474923502374	0	1	0	1	0	40.5474923502374	0
3.81	40.6502982245161	0	1	0	1	0	40.6502982245161	0
3.82	40.7536313874252	0	1	0	1	0	40.7536313874252	0
3.83	40.8574904981556	0	1	0	1	0	40.8574904981556	0
3.84	40.9618742298647	0	1	0	1	0	40.9618742298647	0
3.85	41.0667812694956	0	1	0	1	0	41.0667812694956	0
3.86	41.1722103175979	0	1	0	1	0	41.1722103175979	0
3.87	41.2781600881526	0	1	0	1	0	41.2781600881526	0
3.88	41.3846293083982	0	1	0	1	0	41.3846293083982	0
3.89	41.491616718661	0	1	0	1	0	41.491616718661	0
3.9	41.599121072187	0	1	0	1	0	41.599121072187	0
3.91	41.7071411349766	0	1	0	1	0	41.7071411349766	0
3.92	41.815675685622	0	1	0	1	0	41.815675685622	0
3.93	41.9247235151474	0	1	0	1	0	41.9247235151474	0
3.94	42.0342834268503	0	1	0	1	0	42.0342834268503	0
3.95	42.1443542361472	0	1	0	1	0	42.1443542361472	0
3.96	42.2549347704198	0	1	0	1	0	42.2549347704198	0
3.97	42.3660238688648	0	1	0	1	0	42.3660238688648	0
3.98	42.477620382345	0	1	0	1	0	42.477620382345	0
3.99	42.5897231732436	0	1	0	1	0	42.5897231732436	0
4	42.7023311153199	0	1	0	1	0	42.7023311153199	0
4.01	42.8154430935675	0	1	0	1	0	42.8154430935675	0
4.02	42.9290580040745	0	1	0	1	0	42.9290580040745	0
4.03	43.0431747538863	0	1	0	1	0	43.0431747538863	0
4.04	43.1577922608692	0	1	0	1	0	43.1577922608692	0
4.05	43.2729094535774	0	1	0	1	0	43.2729094535774	0
4.06	43.3885252711213	0	1	0	1	0	43.3885252711213	0
4.07	43.5046386630377	0	1	0	1	0	43.5046386630377	0
4.08	43.6212485891619	0	1	0	1	0	43.6212485891619	0
4.09	43.7383540195023	0	1	0	1	0	43.7383540195023	0
4.1	43.8559539341155	0	1	0	1	0	43.8559539341155	0
4.11	43.9740473229851	0	1	0	1	0	43.9740473229851	0
4.12	44.0926331859003	0	1	0	1	0	44.0926331859003	0
4.13	44.2117105323377	0	1	0	1	0	44.2117105323377	0
4.14	44.3312783813443	0	1	0	1	0	44.3312783813443	0
4.15	44.4513357614217	0	1	0	1	0	44.4513357614217	0
4.16	44.5718817104133	0	1	0	1	0	44.5718817104133	0
4.17	44.6929152753915	0	1	0	1	0	44.6929152753915	0
4.18	44.8144355125477	0	1	0	1	0	44.8144355125477	0
4.19	44.9364414870834	0	1	0	1	0	44.9364414870834	0
4.2	45.0589322731031	0	1	0	1	0	45.0589322731031	0
4.21	45.1819069535082	0	1	0	1	0	45.1819069535082	0
4.22	45.305364619893	0	1	0	1	0	45.305364619893	0
4.23	45.429304372442	0	1	0	1	0	45.429304372442	0
4.24	45.5537253198285	0	1	0	1	0	45.5537253198285	0
4.25	45.6786265791147	0	1	0	1	0	45.6786265791147	0
4.26	45.8040072756535	0	1	0	1	0	45.8040072756535	0
4.27	45.929866542991	0	1	0	1	0	45.929866542991	0
4.28	46.0562035227711	0	1	0	1	0	46.0562035227711	0
4.29	46.1830173646409	0	1	0	1	0	46.1830173646409	0
4.3	46.3103072261579	0	1	0	1	0	46.3103072261579	0
4.31	46.438072272698	0	1	0	1	0	46.438072272698	0
4.32	46.5663116773652	0	1	0	1	0	46.5663116773652	0
4.33	46.6950246209022	0	1	0	1	0	46.6950246209022	0
4.34	46.8242102916025	0	1	0	1	0	46.8242102916025	0
4.35	46.9538678852234	0	1	0	1	0	46.9538678852234	0
4.36	47.0839966049008	0	1	0	1	0	47.0839966049008	0
4.37	47.2145956610645	0	1	0	1	0	47.2145956610645	0
4.38	47.3456642713548	0	1	0	1	0	47.3456642713548	0
4.39	47.4772016605408	0	1	0	1	0	47.4772016605408	0
4.4	47.6092070604391	0	1	0	1	0	47.6092070604391	0
4.41	47.7416797098338	0	1	0	1	0	47.7416797098338	0
4.42	47.8746188543979	0	1	0	1	0	47.8746188543979	0
4.43	48.0080237466157	0	1	0	1	0	48.0080237466157	0
4.44	48.1418936457056	0	1	0	1	0	48.1418936457056	0
4.45	48.2762278175448	0	1	0	1	0	48.2762278175448	0
4.46	48.4110255345945	0	1	0	1	0	48.4110255345945	0
4.47	48.5462860758264	0	1	0	1	0	48.5462860758264	0
4.48	48.6820087266501	0	1	0	1	0	48.6820087266501	0
4.49	48.8181927788409	0	1	0	1	0	48.8181927788409	0
4.5	48.9548375304697	0	1	0	1	0	48.9548375304697	0
4.51	49.0919422858328	0	1	0	1	0	49.0919422858328	0
4.52	49.2295063553834	0	1	0	1	0	49.2295063553834	0
4.53	49.367529055663	0	1	0	1	0	49.367529055663	0
4.54	49.5060097092352	0	1	0	1	0	49.5060097092352	0
4.55	49.6449476446188	0	1	0	1	0	49.6449476446188	0
4.56	49.7843421962229	0	1	0	1	0	49.7843421962229	0
4.57	49.9241927042822	0	1	0	1	0	49.9241927042822	0
4.58	50.0644985147939	0	1	0	1	0	50.0644985147939	0
4.59	50.2052589794541	0	1	0	1	0	50.2052589794541	0
4.6	50.3464734555967	0	1	0	1	0	50.3464734555967	0
4.61	50.4881413061316	0	1	0	1	0	50.4881413061316	0
4.62	50.6302618994849	0	1	0	1	0	50.6302618994849	0
4.63	50.7728346095389	0	1	0	1	0	50.7728346095389	0
4.64	50.9158588155734	0	1	0	1	0	50.9158588155734	0
4.65	51.0593339022079	0	1	0	1	0	51.0593339022079	0
4.66	51.2032592593441	0	1	0	1	0	51.2032592593441	0
4.67	51.3476342821092	0	1	0	1	0	51.3476342821092	0
4.68	51.4924583708004	0	1	0	1	0	51.4924583708004	0
4.69	51.6377309308298	0	1	0	1	0	51.6377309308298	0
4.7	51.7834513726695	0	1	0	1	0	51.7834513726695	0
4.71	51.9296191117984	0	1	0	1	0	51.9296191117984	0
4.72	52.076233568649	0	1	0	1	0	52.076233568649	0
4.73	52.2232941685547	0	1	0	1	0	52.2232941685547	0
4.74	52.3708003416989	0	1	0	1	0	52.3708003416989	0
4.75	52.5187515230631	0	1	0	1	0	52.5187515230631	0
4.76	52.6671471523768	0	1	0	1	0	52.6671471523768	0
4.77	52.8159866740682	0	1	0	1	0	52.8159866740682	0
4.78	52.9652695372142	0	1	0	1	0	52.9652695372142	0
4.79	53.1149951954924	0	1	0	1	0	53.1149951954924	0
4.8	53.2651631071334	0	1	0	1	0	53.2651631071334	0
4.81	53.4157727348728	0	1	0	1	0	53.4157727348728	0
4.82	53.5668235459049	0	1	0	1	0	53.5668235459049	0
4.83	53.7183150118366	0	1	0	1	0	53.7183150118366	0
4.84	53.8702466086416	0	1	0	1	0	53.8702466086416	0
4.85	54.0226178166154	0	1	0	1	0	54.0226178166154	0
4.86	54.175428120331	0	1	0	1	0	54.175428120331	0
4.87	54.3286770085949	0	1	0	1	0	54.3286770085949	0
4.88	54.4823639744037	0	1	0	1	0	54.4823639744037	0
4.89	54.6364885149012	0	1	0	1	0	54.6364885149012	0
4.9	54.7910501313361	0	1	0	1	0	54.7910501313361	0
4.91	54.9460483290205	0	1	0	1	0	54.9460483290205	0
4.92	55.1014826172881	0	1	0	1	0	55.1014826172881	0
4.93	55.2573525094537	0	1	0	1	0	55.2573525094537	0
