# GHZ S RI R 50
1	42.2211943502116	0	1	0	1	0	42.2211943502116	0
1.01	41.8995594830141	0	1	0	1	0	41.8995594830141	0
1.02	41.5853828069909	0	1	0	1	0	41.5853828069909	0
1.03	41.2784583848011	0	1	0	1	0	41.2784583848011	0
1.04	40.9785881997703	0	1	0	1	0	40.9785881997703	0
1.05	40.6855817787167	0	1	0	1	0	40.6855817787167	0
1.06	40.3992558361255	0	1	0	1	0	40.3992558361255	0
1.07	40.1194339382773	0	1	0	1	0	40.1194339382773	0
1.08	39.8459461860343	0	1	0	1	0	39.8459461860343	0
1.09	39.57862891509	0	1	0	1	0	39.57862891509	0
1.1	39.3173244125669	0	1	0	1	0	39.3173244125669	0
1.11	39.0618806489344	0	1	0	1	0	39.0618806489344	0
1.12	38.8121510242883	0	1	0	1	0	38.8121510242883	0
1.13	38.5679941281013	0	1	0	1	0	38.5679941281013	0
1.14	38.3292735116189	0	1	0	1	0	38.3292735116189	0
1.15	38.0958574721306	0	1	0	1	0	38.0958574721306	0
1.16	37.8676188483982	0	1	0	1	0	37.8676188483982	0
1.17	37.6444348265767	0	1	0	1	0	37.6444348265767	0
1.18	37.426186756002	0	1	0	1	0	37.426186756002	0
1.19	37.2127599742678	0	1	0	1	0	37.2127599742678	0
1.2	37.0040436410479	0	1	0	1	0	37.0040436410479	0
1.21	36.799930580159	0	1	0	1	0	36.799930580159	0
1.22	36.6003171293913	0	1	0	1	0	36.6003171293913	0
1.23	36.4051029976636	0	1	0	1	0	36.4051029976636	0
1.24	36.2141911290909	0	1	0	1	0	36.2141911290909	0
1.25	36.0274875735766	0	1	0	1	0	36.0274875735766	0
1.26	35.8449013635666	0	1	0	1	0	35.8449013635666	0
1.27	35.6663443966269	0	1	0	1	0	35.6663443966269	0
1.28	35.4917313235244	0	1	0	1	0	35.4917313235244	0
1.29	35.320979441514	0	1	0	1	0	35.320979441514	0
1.3	35.1540085925502	0	1	0	1	0	35.1540085925502	0
1.31	34.9907410661616	0	1	0	1	0	34.9907410661616	0
1.32	34.8311015067396	0	1	0	1	0	34.8311015067396	0
1.33	34.6750168250095	0	1	0	1	0	34.6750168250095	0
1.34	34.5224161134662	0	1	0	1	0	34.5224161134662	0
1.35	34.3732305655676	0	1	0	1	0	34.3732305655676	0
1.36	34.2273933984934	0	1	0	1	0	34.2273933984934	0
1.37	34.0848397792868	0	1	0	1	0	34.0848397792868	0
1.38	33.945506754207	0	1	0	1	0	33.945506754207	0
1.39	33.8093331811317	0	1	0	1	0	33.8093331811317	0
1.4	33.6762596648564	0	1	0	1	0	33.6762596648564	0
1.41	33.5462284951469	0	1	0	1	0	33.5462284951469	0
1.42	33.4191835874094	0	1	0	1	0	33.4191835874094	0
1.43	33.29507042585	0	1	0	1	0	33.29507042585	0
1.44	33.1738360090023	0	1	0	1	0	33.1738360090023	0
1.45	33.0554287975094	0	1	0	1	0	33.0554287975094	0
1.46	32.9397986640515	0	1	0	1	0	32.9397986640515	0
1.47	32.8268968453176	0	1	0	1	0	32.8268968453176	0
1.48	32.716675895924	0	1	0	1	0	32.716675895924	0
1.49	32.6090896441885	0	1	0	1	0	32.6090896441885	0
1.5	32.5040931496737	0	1	0	1	0	32.5040931496737	0
1.51	32.4016426624176	0	1	0	1	0	32.4016426624176	0
1.52	32.3016955837729	0	1	0	1	0	32.3016955837729	0
1.53	32.2042104287823	0	1	0	1	0	32.2042104287823	0
1.54	32.1091467900199	0	1	0	1	0	32.1091467900199	0
1.55	32.0164653028322	0	1	0	1	0	32.0164653028322	0
1.56	31.9261276119158	0	1	0	1	0	31.9261276119158	0
1.57	31.8380963391722	0	1	0	1	0	31.8380963391722	0
1.58	31.7523350527841	0	1	0	1	0	31.7523350527841	0
1.59	31.668808237458	0	1	0	1	0	31.668808237458	0
1.6	31.5874812657826	0	1	0	1	0	31.5874812657826	0
1.61	31.5083203706548	0	1	0	1	0	31.5083203706548	0
1.62	31.4312926187275	0	1	0	1	0	31.4312926187275	0
1.63	31.3563658848336	0	1	0	1	0	31.3563658848336	0
1.64	31.2835088273468	0	1	0	1	0	31.2835088273468	0
1.65	31.2126908644377	0	1	0	1	0	31.2126908644377	0
1.66	31.1438821511886	0	1	0	1	0	31.1438821511886	0
1.67	31.0770535575299	0	1	0	1	0	31.0770535575299	0
1.68	31.0121766469654	0	1	0	1	0	31.0121766469654	0
1.69	30.9492236560517	0	1	0	1	0	30.9492236560517	0
1.7	30.8881674746033	0	1	0	1	0	30.8881674746033	0
1.71	30.8289816265907	0	1	0	1	0	30.8289816265907	0
1.72	30.7716402517062	0	1	0	1	0	30.7716402517062	0
1.73	30.7161180875683	0	1	0	1	0	30.7161180875683	0
1.74	30.6623904525399	0	1	0	1	0	30.6623904525399	0
1.75	30.6104332291356	0	1	0	1	0	30.6104332291356	0
1.76	30.5602228479946	0	1	0	1	0	30.5602228479946	0
1.77	30.5117362723971	0	1	0	1	0	30.5117362723971	0
1.78	30.4649509833024	0	1	0	1	0	30.4649509833024	0
1.79	30.4198449648884	0	1	0	1	0	30.4198449648884	0
1.8	30.3763966905738	0	1	0	1	0	30.3763966905738	0
1.81	30.3345851095027	0	1	0	1	0	30.3345851095027	0
1.82	30.2943896334753	0	1	0	1	0	30.2943896334753	0
1.83	30.2557901243072	0	1	0	1	0	30.2557901243072	0
1.84	30.2187668816005	0	1	0	1	0	30.2187668816005	0
1.85	30.1833006309121	0	1	0	1	0	30.1833006309121	0
1.86	30.1493725123028	0	1	0	1	0	30.1493725123028	0
1.87	30.1169640692546	0	1	0	1	0	30.1169640692546	0
1.88	30.0860572379415	0	1	0	1	0	30.0860572379415	0
1.89	30.0566343368406	0	1	0	1	0	30.0566343368406	0
1.9	30.0286780566716	0	1	0	1	0	30.0286780566716	0
1.91	30.0021714506522	0	1	0	1	0	30.0021714506522	0
1.92	29.9770979250582	0	1	0	1	0	29.9770979250582	0
1.93	29.9534412300764	0	1	0	1	0	29.9534412300764	0
1.94	29.9311854509418	0	1	0	1	0	29.9311854509418	0
1.95	29.9103149993458	0	1	0	1	0	29.9103149993458	0
1.96	29.8908146051086	0	1	0	1	0	29.8908146051086	0
1.97	29.8726693081049	0	1	0	1	0	29.8726693081049	0
1.98	29.8558644504341	0	1	0	1	0	29.8558644504341	0
1.99	29.8403856688267	0	1	0	1	0	29.8403856688267	0
2	29.8262188872786	0	1	0	1	0	29.8262188872786	0
2.01	29.8133503099054	0	1	0	1	0	29.8133503099054	0
2.02	29.8017664140082	0	1	0	1	0	29.8017664140082	0
2.03	29.7914539433455	0	1	0	1	0	29.7914539433455	0
2.04	29.7823999016019	0	1	0	1	0	29.7823999016019	0
2.05	29.7745915460488	0	1	0	1	0	29.7745915460488	0
2.06	29.7680163813892	0	1	0	1	0	29.7680163813892	0
2.07	29.7626621537809	0	1	0	1	0	29.7626621537809	0
2.08	29.7585168450329	0	1	0	1	0	29.7585168450329	0
2.09	29.755568666967	0	1	0	1	0	29.755568666967	0
2.1	29.753806055942	0	1	0	1	0	29.753806055942	0
2.11	29.7532176675327	0	1	0	1	0	29.7532176675327	0
2.12	29.7537923713593	0	1	0	1	0	29.7537923713593	0
2.13	29.7555192460637	0	1	0	1	0	29.7555192460637	0
2.14	29.758387574425	0	1	0	1	0	29.758387574425	0
2.15	29.7623868386125	0	1	0	1	0	29.7623868386125	0
2.16	29.7675067155702	0	1	0	1	0	29.7675067155702	0
2.17	29.7737370725289	0	1	0	1	0	29.7737370725289	0
2.18	29.7810679626416	0	1	0	1	0	29.7810679626416	0
2.19	29.7894896207391	0	1	0	1	0	29.7894896207391	0
2.2	29.7989924592005	0	1	0	1	0	29.7989924592005	0
2.21	29.8095670639367	0	1	0	1	0	29.8095670639367	0
2.22	29.8212041904817	0	1	0	1	0	29.8212041904817	0
2.23	29.8338947601895	0	1	0	1	0	29.8338947601895	0
2.24	29.8476298565329	0	1	0	1	0	29.8476298565329	0
2.25	29.8624007215006	0	1	0	1	0	29.8624007215006	0
2.26	29.8781987520905	0	1	0	1	0	29.8781987520905	0
2.27	29.8950154968951	0	1	0	1	0	29.8950154968951	0
2.28	29.9128426527774	0	1	0	1	0	29.9128426527774	0
2.29	29.9316720616331	0	1	0	1	0	29.9316720616331	0
2.3	29.9514957072382	0	1	0	1	0	29.9514957072382	0
2.31	29.9723057121776	0	1	0	1	0	29.9723057121776	0
2.32	29.9940943348539	0	1	0	1	0	29.9940943348539	0
2.33	30.0168539665724	0	1	0	1	0	30.0168539665724	0
2.34	30.0405771287019	0	1	0	1	0	30.0405771287019	0
2.35	30.0652564699067	0	1	0	1	0	30.0652564699067	0
2.36	30.0908847634502	0	1	0	1	0	30.0908847634502	0
2.37	30.1174549045661	0	1	0	1	0	30.1174549045661	0
2.38	30.1449599078957	0	1	0	1	0	30.1449599078957	0
2.39	30.1733929049903	0	1	0	1	0	30.1733929049903	0
2.4	30.2027471418752	0	1	0	1	0	30.2027471418752	0
2.41	30.2330159766749	0	1	0	1	0	30.2330159766749	0
2.42	30.2641928772971	0	1	0	1	0	30.2641928772971	0
2.43	30.2962714191735	0	1	0	1	0	30.2962714191735	0
2.44	30.3292452830565	0	1	0	1	0	30.3292452830565	0
2.45	30.3631082528702	0	1	0	1	0	30.3631082528702	0
2.46	30.3978542136129	0	1	0	1	0	30.3978542136129	0
2.47	30.4334771493111	0	1	0	1	0	30.4334771493111	0
2.48	30.4699711410236	0	1	0	1	0	30.4699711410236	0
2.49	30.5073303648921	0	1	0	1	0	30.5073303648921	0
2.5	30.5455490902404	0	1	0	1	0	30.5455490902404	0
2.51	30.5846216777175	0	1	0	1	0	30.5846216777175	0
2.52	30.6245425774862	0	1	0	1	0	30.6245425774862	0
2.53	30.6653063274537	0	1	0	1	0	30.6653063274537	0
2.54	30.7069075515441	0	1	0	1	0	30.7069075515441	0
2.55	30.7493409580126	0	1	0	1	0	30.7493409580126	0
2.56	30.7926013377976	0	1	0	1	0	30.7926013377976	0
2.57	30.8366835629123	0	1	0	1	0	30.8366835629123	0
2.58	30.8815825848739	0	1	0	1	0	30.8815825848739	0
2.59	30.9272934331682	0	1	0	1	0	30.9272934331682	0
2.6	30.9738112137505	0	1	0	1	0	30.9738112137505	0
2.61	31.0211311075806	0	1	0	1	0	31.0211311075806	0
2.62	31.0692483691915	0	1	0	1	0	31.0692483691915	0
2.63	31.1181583252906	0	1	0	1	0	31.1181583252906	0
2.64	31.1678563733928	0	1	0	1	0	31.1678563733928	0
2.65	31.2183379804842	0	1	0	1	0	31.2183379804842	0
2.66	31.2695986817169	0	1	0	1	0	31.2695986817169	0
2.67	31.3216340791318	0	1	0	1	0	31.3216340791318	0
2.68	31.3744398404113	0	1	0	1	0	31.3744398404113	0
2.69	31.4280116976585	0	1	0	1	0	31.4280116976585	0
2.7	31.4823454462049	0	1	0	1	0	31.4823454462049	0
2.71	31.5374369434435	0	1	0	1	0	31.5374369434435	0
2.72	31.5932821076877	0	1	0	1	0	31.5932821076877	0
2.73	31.6498769170562	0	1	0	1	0	31.6498769170562	0
2.74	31.7072174083811	0	1	0	1	0	31.7072174083811	0
2.75	31.7652996761407	0	1	0	1	0	31.7652996761407	0
2.76	31.8241198714149	0	1	0	1	0	31.8241198714149	0
2.77	31.8836742008638	0	1	0	1	0	31.8836742008638	0
2.78	31.9439589257278	0	1	0	1	0	31.9439589257278	0
2.79	32.0049703608498	0	1	0	1	0	32.0049703608498	0
2.8	32.0667048737176	0	1	0	1	0	32.0667048737176	0
2.81	32.1291588835275	0	1	0	1	0	32.1291588835275	0
2.82	32.1923288602672	0	1	0	1	0	32.1923288602672	0
2.83	32.2562113238187	0	1	0	1	0	32.2562113238187	0
2.84	32.3208028430797	0	1	0	1	0	32.3208028430797	0
2.85	32.3861000351037	0	1	0	1	0	32.3861000351037	0
2.86	32.4520995642582	0	1	0	1	0	32.4520995642582	0
2.87	32.5187981414002	0	1	0	1	0	32.5187981414002	0
2.88	32.5861925230694	0	1	0	1	0	32.5861925230694	0
2.89	32.6542795106976	0	1	0	1	0	32.6542795106976	0
2.9	32.7230559498349	0	1	0	1	0	32.7230559498349	0
2.91	32.7925187293913	0	1	0	1	0	32.7925187293913	0
2.92	32.8626647808948	0	1	0	1	0	32.8626647808948	0
2.93	32.9334910777635	0	1	0	1	0	32.9334910777635	0
2.94	33.0049946345936	0	1	0	1	0	33.0049946345936	0
2.95	33.0771725064614	0	1	0	1	0	33.0771725064614	0
2.96	33.1500217882394	0	1	0	1	0	33.1500217882394	0
2.97	33.2235396139265	0	1	0	1	0	33.2235396139265	0
2.98	33.2977231559912	0	1	0	1	0	33.2977231559912	0
2.99	33.3725696247287	0	1	0	1	0	33.3725696247287	0
3	33.4480762676303	0	1	0	1	0	33.4480762676303	0
3.01	33.5242403687652	0	1	0	1	0	33.5242403687652	0
3.02	33.6010592481756	0	1	0	1	0	33.6010592481756	0
3.03	33.6785302612823	0	1	0	1	0	33.6785302612823	0
3.04	33.7566507983034	0	1	0	1	0	33.7566507983034	0
3.05	33.8354182836837	0	1	0	1	0	33.8354182836837	0
3.06	33.9148301755353	0	1	0	1	0	33.9148301755353	0
3.07	33.9948839650892	0	1	0	1	0	33.9948839650892	0
3.08	34.0755771761581	0	1	0	1	0	34.0755771761581	0
3.09	34.1569073646088	0	1	0	1	0	34.1569073646088	0
3.1	34.2388721178452	0	1	0	1	0	34.2388721178452	0
3.11	34.3214690543016	0	1	0	1	0	34.3214690543016	0
3.12	34.4046958229448	0	1	0	1	0	34.4046958229448	0
3.13	34.4885501027873	0	1	0	1	0	34.4885501027873	0
3.14	34.5730296024078	0	1	0	1	0	34.5730296024078	0
3.15	34.6581320594827	0	1	0	1	0	34.6581320594827	0
3.16	34.7438552403254	0	1	0	1	0	34.7438552403254	0
3.17	34.8301969394345	0	1	0	1	0	34.8301969394345	0
3.18	34.9171549790509	0	1	0	1	0	34.9171549790509	0
3.19	35.0047272087226	0	1	0	1	0	35.0047272087226	0
3.2	35.0929115048786	0	1	0	1	0	35.0929115048786	0
3.21	35.1817057704095	0	1	0	1	0	35.1817057704095	0
3.22	35.2711079342571	0	1	0	1	0	35.2711079342571	0
3.23	35.3611159510109	0	1	0	1	0	35.3611159510109	0
3.24	35.4517278005126	0	1	0	1	0	35.4517278005126	0
3.25	35.5429414874672	0	1	0	1	0	35.5429414874672	0
3.26	35.6347550410618	0	1	0	1	0	35.6347550410618	0
3.27	35.7271665145915	0	1	0	1	0	35.7271665145915	0
3.28	35.8201739850915	0	1	0	1	0	35.8201739850915	0
3.29	35.9137755529765	0	1	0	1	0	35.9137755529765	0
3.3	36.0079693416868	0	1	0	1	0	36.0079693416868	0
3.31	36.1027534973399	0	1	0	1	0	36.1027534973399	0
3.32	36.1981261883891	0	1	0	1	0	36.1981261883891	0
3.33	36.2940856052886	0	1	0	1	0	36.2940856052886	0
3.34	36.3906299601635	0	1	0	1	0	36.3906299601635	0
3.35	36.4877574864869	0	1	0	1	0	36.4877574864869	0
3.36	36.5854664387619	0	1	0	1	0	36.5854664387619	0
3.37	36.6837550922095	0	1	0	1	0	36.6837550922095	0
3.38	36.7826217424626	0	1	0	1	0	36.7826217424626	0
3.39	36.8820647052643	0	1	0	1	0	36.8820647052643	0
3.4	36.9820823161728	0	1	0	1	0	36.9820823161728	0
3.41	37.0826729302702	0	1	0	1	0	37.0826729302702	0
3.42	37.1838349218778	0	1	0	1	0	37.1838349218778	0
3.43	37.2855666842749	0	1	0	1	0	37.2855666842749	0
3.44	37.3878666294238	0	1	0	1	0	37.3878666294238	0
3.45	37.4907331876987	0	1	0	1	0	37.4907331876987	0
3.46	37.59416480762	0	1	0	1	0	37.59416480762	0
3.47	37.6981599555923	0	1	0	1	0	37.6981599555923	0
3.48	37.8027171156478	0	1	0	1	0	37.8027171156478	0
3.49	37.9078347891939	0	1	0	1	0	37.9078347891939	0
3.5	38.0135114947646	0	1	0	1	0	38.0135114947646	0
3.51	38.1197457677767	0	1	0	1	0	38.1197457677767	0
3.52	38.2265361602899	0	1	0	1	0	38.2265361602899	0
3.53	38.3338812407715	0	1	0	1	0	38.3338812407715	0
3.54	38.4417795938639	0	1	0	1	0	38.4417795938639	0
3.55	38.5502298201575	0	1	0	1	0	38.5502298201575	0
3.56	38.6592305359661	0	1	0	1	0	38.6592305359661	0
3.57	38.7687803731074	0	1	0	1	0	38.7687803731074	0
3.58	38.8788779786857	0	1	0	1	0	38.8788779786857	0
3.59	38.9895220148794	0	1	0	1	0	38.9895220148794	0
3.6	39.1007111587318	0	1	0	1	0	39.1007111587318	0
3.61	39.2124441019448	0	1	0	1	0	39.2124441019448	0
3.62	39.3247195506766	0	1	0	1	0	39.3247195506766	0
3.63	39.4375362253427	0	1	0	1	0	39.4375362253427	0
3.64	39.5508928604201	0	1	0	1	0	39.5508928604201	0
3.65	39.6647882042543	0	1	0	1	0	39.6647882042543	0
3.66	39.7792210188702	0	1	0	1	0	39.7792210188702	0
3.67	39.8941900797856	0	1	0	1	0	39.8941900797856	0
3.68	40.0096941758279	0	1	0	1	0	40.0096941758279	0
3.69	40.1257321089537	0	1	0	1	0	40.1257321089537	0
3.7	40.2423026940716	0	1	0	1	0	40.2423026940716	0
3.71	40.3594047588672	0	1	0	1	0	40.3594047588672	0
3.72	40.4770371436317	0	1	0	1	0	40.4770371436317	0
3.73	40.5951987010931	0	1	0	1	0	40.5951987010931	0
3.74	40.7138882962494	0	1	0	1	0	40.7138882962494	0
3.75	40.8331048062053	0	1	0	1	0	40.8331048062053	0
3.76	40.9528471200114	0	1	0	1	0	40.9528471200114	0
3.77	41.0731141385055	0	1	0	1	0	41.0731141385055	0
3.78	41.1939047741565	0	1	0	1	0	41.1939047741565	0
3.79	41.3152179509115	0	1	0	1	0	41.3152179509115	0
3.8	41.4370526040444	0	1	0	1	0	41.4370526040444	0
3.81	41.5594076800073	0	1	0	1	0	41.5594076800073	0
3.82	41.6822821362841	0	1	0	1	0	41.6822821362841	0
3.83	41.8056749412467	0	1	0	1	0	41.8056749412467	0
3.84	41.9295850740132	0	1	0	1	0	41.9295850740132	0
3.85	42.0540115243082	0	1	0	1	0	42.0540115243082	0
3.86	42.1789532923255	0	1	0	1	0	42.1789532923255	0
3.87	42.3044093885926	0	1	0	1	0	42.3044093885926	0
3.88	42.4303788338382	0	1	0	1	0	42.4303788338382	0
3.89	42.5568606588601	0	1	0	1	0	42.5568606588601	0
3.9	42.6838539043971	0	1	0	1	0	42.6838539043971	0
3.91	42.8113576210011	0	1	0	1	0	42.8113576210011	0
3.92	42.9393708689123	0	1	0	1	0	42.9393708689123	0
3.93	43.0678927179361	0	1	0	1	0	43.0678927179361	0
3.94	43.1969222473212	0	1	0	1	0	43.1969222473212	0
3.95	43.3264585456405	0	1	0	1	0	43.3264585456405	0
3.96	43.4565007106734	0	1	0	1	0	43.4565007106734	0
3.97	43.5870478492893	0	1	0	1	0	43.5870478492893	0
3.98	43.7180990773342	0	1	0	1	0	43.7180990773342	0
3.99	43.8496535195174	0	1	0	1	0	43.8496535195174	0
4	43.9817103093015	0	1	0	1	0	43.9817103093015	0
4.01	44.1142685887927	0	1	0	1	0	44.1142685887927	0
4.02	44.2473275086332	0	1	0	1	0	44.2473275086332	0
4.03	44.380886227896	0	1	0	1	0	44.380886227896	0
4.04	44.5149439139799	0	1	0	1	0	44.5149439139799	0
4.05	44.6494997425067	0	1	0	1	0	44.6494997425067	0
4.06	44.7845528972206	0	1	0	1	0	44.7845528972206	0
4.07	44.9201025698876	0	1	0	1	0	44.9201025698876	0
4.08	45.0561479601978	0	1	0	1	0	45.0561479601978	0
4.09	45.1926882756682	0	1	0	1	0	45.1926882756682	0
4.1	45.3297227315472	0	1	0	1	0	45.3297227315472	0
4.11	45.4672505507209	0	1	0	1	0	45.4672505507209	0
4.12	45.6052709636202	0	1	0	1	0	45.6052709636202	0
4.13	45.7437832081292	0	1	0	1	0	45.7437832081292	0
4.14	45.8827865294958	0	1	0	1	0	45.8827865294958	0
4.15	46.0222801802422	0	1	0	1	0	46.0222801802422	0
4.16	46.1622634200783	0	1	0	1	0	46.1622634200783	0
4.17	46.3027355158149	0	1	0	1	0	46.3027355158149	0
4.18	46.4436957412789	0	1	0	1	0	46.4436957412789	0
4.19	46.5851433772297	0	1	0	1	0	46.5851433772297	0
4.2	46.7270777112768	0	1	0	1	0	46.7270777112768	0
4.21	46.8694980377979	0	1	0	1	0	46.8694980377979	0
4.22	47.0124036578594	0	1	0	1	0	47.0124036578594	0
4.23	47.1557938791368	0	1	0	1	0	47.1557938791368	0
4.24	47.299668015837	0	1	0	1	0	47.299668015837	0
4.25	47.4440253886214	0	1	0	1	0	47.4440253886214	0
4.26	47.5888653245302	0	1	0	1	0	47.5888653245302	0
4.27	47.7341871569078	0	1	0	1	0	47.7341871569078	0
4.28	47.8799902253289	0	1	0	1	0	47.8799902253289	0
4.29	48.0262738755259	0	1	0	1	0	48.0262738755259	0
4.3	48.1730374593175	0	1	0	1	0	48.1730374593175	0
4.31	48.3202803345382	0	1	0	1	0	48.3202803345382	0
4.32	48.4680018649682	0	1	0	1	0	48.4680018649682	0
4.33	48.6162014202651	0	1	0	1	0	48.6162014202651	0
4.34	48.7648783758962	0	1	0	1	0	48.7648783758962	0
4.35	48.9140321130716	0	1	0	1	0	48.9140321130716	0
4.36	49.0636620186782	0	1	0	1	0	49.0636620186782	0
4.37	49.2137674852151	0	1	0	1	0	49.2137674852151	0
4.38	49.3643479107294	0	1	0	1	0	49.3643479107294	0
4.39	49.5154026987528	0	1	0	1	0	49.5154026987528	0
4.4	49.6669312582395	0	1	0	1	0	49.6669312582395	0
4.41	49.8189330035047	0	1	0	1	0	49.8189330035047	0
4.42	49.9714073541639	0	1	0	1	0	49.9714073541639	0
4.43	50.124353735073	0	1	0	1	0	50.124353735073	0
4.44	50.2777715762696	0	1	0	1	0	50.2777715762696	0
4.45	50.4316603129143	0	1	0	1	0	50.4316603129143	0
4.46	50.5860193852336	0	1	0	1	0	50.5860193852336	0
4.47	50.7408482384633	0	1	0	1	0	50.7408482384633	0
4.48	50.8961463227923	0	1	0	1	0	50.8961463227923	0
4.49	51.0519130933076	0	1	0	1	0	51.0519130933076	0
4.5	51.20814800994	0	1	0	1	0	51.20814800994	0
4.51	51.3648505374102	0	1	0	1	0	51.3648505374102	0
4.52	51.5220201451758	0	1	0	1	0	51.5220201451758	0
4.53	51.6796563073792	0	1	0	1	0	51.6796563073792	0
4.54	51.8377585027958	0	1	0	1	0	51.8377585027958	0
4.55	51.9963262147834	0	1	0	1	0	51.9963262147834	0
4.56	52.1553589312315	0	1	0	1	0	52.1553589312315	0
4.57	52.3148561445122	0	1	0	1	0	52.3148561445122	0
4.58	52.4748173514309	0	1	0	1	0	52.4748173514309	0
4.59	52.635242053178	0	1	0	1	0	52.635242053178	0
4.6	52.7961297552818	0	1	0	1	0	52.7961297552818	0
4.61	52.9574799675605	0	1	0	1	0	52.9574799675605	0
4.62	53.1192922040768	0	1	0	1	0	53.1192922040768	0
4.63	53.2815659830911	0	1	0	1	0	53.2815659830911	0
4.64	53.4443008270171	0	1	0	1	0	53.4443008270171	0
4.65	53.6074962623766	0	1	0	1	0	53.6074962623766	0
4.66	53.7711518197555	0	1	0	1	0	53.7711518197555	0
4.67	53.9352670337606	0	1	0	1	0	53.9352670337606	0
4.68	54.0998414429762	0	1	0	1	0	54.0998414429762	0
4.69	54.2648745899221	0	1	0	1	0	54.2648745899221	0
4.7	54.4303660210115	0	1	0	1	0	54.4303660210115	0
4.71	54.5963152865096	0	1	0	1	0	54.5963152865096	0
4.72	54.762721940493	0	1	0	1	0	54.762721940493	0
4.73	54.9295855408094	0	1	0	1	0	54.9295855408094	0
4.74	55.0969056490376	0	1	0	1	0	55.0969056490376	0
4.75	55.2646818304485	0	1	0	1	0	55.2646818304485	0
4.76	55.432913653966	0	1	0	1	0	55.432913653966	0
4.77	55.6016006921291	0	1	0	1	0	55.6016006921291	0
4.78	55.7707425210538	0	1	0	1	0	55.7707425210538	0
4.79	55.9403387203958	0	1	0	1	0	55.9403387203958	0
4.8	56.1103888733136	0	1	0	1	0	56.1103888733136	0
4.81	56.2808925664325	0	1	0	1	0	56.2808925664325	0
4.82	56.4518493898078	0	1	0	1	0	56.4518493898078	0
4.83	56.6232589368902	0	1	0	1	0	56.6232589368902	0
4.84	56.7951208044901	0	1	0	1	0	56.7951208044901	0
4.85	56.9674345927432	0	1	0	1	0	56.9674345927432	0
4.86	57.1401999050763	0	1	0	1	0	57.1401999050763	0
4.87	57.3134163481735	0	1	0	1	0	57.3134163481735	0
4.88	57.4870835319428	0	1	0	1	0	57.4870835319428	0
4.89	57.6612010694831	0	1	0	1	0	57.6612010694831	0
4.9	57.8357685770516	0	1	0	1	0	57.8357685770516	0
4.91	58.0107856740318	0	1	0	1	0	58.0107856740318	0
4.92	58.1862519829016	0	1	0	1	0	58.1862519829016	0
