# GHZ S RI R 50
1	54.6966817876394	0	1	0	1	0	54.6966817876394	0
1.01	54.2563427227192	0	1	0	1	0	54.2563427227192	0
1.02	53.8258482448739	0	1	0	1	0	53.8258482448739	0
1.03	53.4049234872256	0	1	0	1	0	53.4049234872256	0
1.04	52.9933041546992	0	1	0	1	0	52.9933041546992	0
1.05	52.5907360206036	0	1	0	1	0	52.5907360206036	0
1.06	52.1969744517076	0	1	0	1	0	52.1969744517076	0
1.07	51.8117839599475	0	1	0	1	0	51.8117839599475	0
1.08	51.4349377790399	0	1	0	1	0	51.4349377790399	0
1.09	51.0662174643998	0	1	0	1	0	51.0662174643998	0
1.1	50.7054125148815	0	1	0	1	0	50.7054125148815	0
1.11	50.3523200149664	0	1	0	1	0	50.3523200149664	0
1.12	50.0067442961185	0	1	0	1	0	50.0067442961185	0
1.13	49.668496616122	0	1	0	1	0	49.668496616122	0
1.14	49.3373948552945	0	1	0	1	0	49.3373948552945	0
1.15	49.0132632285517	0	1	0	1	0	49.0132632285517	0
1.16	48.6959320123637	0	1	0	1	0	48.6959320123637	0
1.17	48.3852372857144	0	1	0	1	0	48.3852372857144	0
1.18	48.0810206842324	0	1	0	1	0	48.0810206842324	0
1.19	47.7831291667185	0	1	0	1	0	47.7831291667185	0
1.2	47.4914147933468	0	1	0	1	0	47.4914147933468	0
1.21	47.2057345148639	0	1	0	1	0	47.2057345148639	0
1.22	46.9259499721563	0	1	0	1	0	46.9259499721563	0
1.23	46.6519273055935	0	1	0	1	0	46.6519273055935	0
1.24	46.3835369735977	0	1	0	1	0	46.3835369735977	0
1.25	46.1206535799217	0	1	0	1	0	46.1206535799217	0
1.26	45.8631557091514	0	1	0	1	0	45.8631557091514	0
1.27	45.6109257699803	0	1	0	1	0	45.6109257699803	0
1.28	45.3638498458303	0	1	0	1	0	45.3638498458303	0
1.29	45.1218175524201	0	1	0	1	0	45.1218175524201	0
1.3	44.8847219019079	0	1	0	1	0	44.8847219019079	0
1.31	44.6524591732564	0	1	0	1	0	44.6524591732564	0
1.32	44.4249287884898	0	1	0	1	0	44.4249287884898	0
1.33	44.202033194534	0	1	0	1	0	44.202033194534	0
1.34	43.9836777503469	0	1	0	1	0	43.9836777503469	0
1.35	43.7697706190654	0	1	0	1	0	43.7697706190654	0
1.36	43.5602226649105	0	1	0	1	0	43.5602226649105	0
1.37	43.354947354608	0	1	0	1	0	43.354947354608	0
1.38	43.1538606630944	0	1	0	1	0	43.1538606630944	0
1.39	42.9568809832934	0	1	0	1	0	42.9568809832934	0
1.4	42.7639290397598	0	1	0	1	0	42.7639290397598	0
1.41	42.574927805997	0	1	0	1	0	42.574927805997	0
1.42	42.389802425269	0	1	0	1	0	42.389802425269	0
1.43	42.2084801347344	0	1	0	1	0	42.2084801347344	0
1.44	42.0308901927419	0	1	0	1	0	42.0308901927419	0
1.45	41.856963809134	0	1	0	1	0	41.856963809134	0
1.46	41.686634078415	0	1	0	1	0	41.686634078415	0
1.47	41.5198359156471	0	1	0	1	0	41.5198359156471	0
1.48	41.3565059949446	0	1	0	1	0	41.3565059949446	0
1.49	41.1965826904458	0	1	0	1	0	41.1965826904458	0
1.5	41.0400060196451	0	1	0	1	0	41.0400060196451	0
1.51	40.8867175889778	0	1	0	1	0	40.8867175889778	0
1.52	40.7366605415515	0	1	0	1	0	40.7366605415515	0
1.53	40.5897795069289	0	1	0	1	0	40.5897795069289	0
1.54	40.4460205528656	0	1	0	1	0	40.4460205528656	0
1.55	40.3053311389172	0	1	0	1	0	40.3053311389172	0
1.56	40.1676600718302	0	1	0	1	0	40.1676600718302	0
1.57	40.0329574626376	0	1	0	1	0	40.0329574626376	0
1.58	39.9011746853846	0	1	0	1	0	39.9011746853846	0
1.59	39.7722643374104	0	1	0	1	0	39.7722643374104	0
1.6	39.6461802011212	0	1	0	1	0	39.6461802011212	0
1.61	39.522877207186	0	1	0	1	0	39.522877207186	0
1.62	39.402311399097	0	1	0	1	0	39.402311399097	0
1.63	39.2844398990337	0	1	0	1	0	39.2844398990337	0
1.64	39.1692208749759	0	1	0	1	0	39.1692208749759	0
1.65	39.0566135090133	0	1	0	1	0	39.0566135090133	0
1.66	38.9465779667995	0	1	0	1	0	38.9465779667995	0
1.67	38.8390753681043	0	1	0	1	0	38.8390753681043	0
1.68	38.734067758417	0	1	0	1	0	38.734067758417	0
1.69	38.6315180815589	0	1	0	1	0	38.6315180815589	0
1.7	38.531390153261	0	1	0	1	0	38.531390153261	0
1.71	38.4336486356703	0	1	0	1	0	38.4336486356703	0
1.72	38.3382590127441	0	1	0	1	0	38.3382590127441	0
1.73	38.2451875664986	0	1	0	1	0	38.2451875664986	0
1.74	38.154401354076	0	1	0	1	0	38.154401354076	0
1.75	38.0658681855981	0	1	0	1	0	38.0658681855981	0
1.76	37.979556602775	0	1	0	1	0	37.979556602775	0
1.77	37.8954358582383	0	1	0	1	0	37.8954358582383	0
1.78	37.8134758955721	0	1	0	1	0	37.8134758955721	0
1.79	37.7336473300119	0	1	0	1	0	37.7336473300119	0
1.8	37.6559214297881	0	1	0	1	0	37.6559214297881	0
1.81	37.5802700980874	0	1	0	1	0	37.5802700980874	0
1.82	37.5066658556087	0	1	0	1	0	37.5066658556087	0
1.83	37.4350818236916	0	1	0	1	0	37.4350818236916	0
1.84	37.3654917079943	0	1	0	1	0	37.3654917079943	0
1.85	37.2978697827012	0	1	0	1	0	37.2978697827012	0
1.86	37.2321908752401	0	1	0	1	0	37.2321908752401	0
1.87	37.1684303514897	0	1	0	1	0	37.1684303514897	0
1.88	37.1065641014587	0	1	0	1	0	37.1065641014587	0
1.89	37.0465685254204	0	1	0	1	0	37.0465685254204	0
1.9	36.9884205204842	0	1	0	1	0	36.9884205204842	0
1.91	36.93209746759	0	1	0	1	0	36.93209746759	0
1.92	36.8775772189077	0	1	0	1	0	36.8775772189077	0
1.93	36.82483808563	0	1	0	1	0	36.82483808563	0
1.94	36.7738588261412	0	1	0	1	0	36.7738588261412	0
1.95	36.7246186345512	0	1	0	1	0	36.7246186345512	0
1.96	36.6770971295799	0	1	0	1	0	36.6770971295799	0
1.97	36.6312743437802	0	1	0	1	0	36.6312743437802	0
1.98	36.5871307130879	0	1	0	1	0	36.5871307130879	0
1.99	36.5446470666862	0	1	0	1	0	36.5446470666862	0
2	36.5038046171748	0	1	0	1	0	36.5038046171748	0
2.01	36.4645849510317	0	1	0	1	0	36.4645849510317	0
2.02	36.4269700193595	0	1	0	1	0	36.4269700193595	0
2.03	36.3909421289037	0	1	0	1	0	36.3909421289037	0
2.04	36.3564839333368	0	1	0	1	0	36.3564839333368	0
2.05	36.3235784247958	0	1	0	1	0	36.3235784247958	0
2.06	36.2922089256678	0	1	0	1	0	36.2922089256678	0
2.07	36.2623590806123	0	1	0	1	0	36.2623590806123	0
2.08	36.2340128488149	0	1	0	1	0	36.2340128488149	0
2.09	36.2071544964622	0	1	0	1	0	36.2071544964622	0
2.1	36.1817685894326	0	1	0	1	0	36.1817685894326	0
2.11	36.1578399861944	0	1	0	1	0	36.1578399861944	0
2.12	36.1353538309053	0	1	0	1	0	36.1353538309053	0
2.13	36.1142955467057	0	1	0	1	0	36.1142955467057	0
2.14	36.0946508292011	0	1	0	1	0	36.0946508292011	0
2.15	36.0764056401248	0	1	0	1	0	36.0764056401248	0
2.16	36.0595462011783	0	1	0	1	0	36.0595462011783	0
2.17	36.0440589880408	0	1	0	1	0	36.0440589880408	0
2.18	36.0299307245444	0	1	0	1	0	36.0299307245444	0
2.19	36.0171483770079	0	1	0	1	0	36.0171483770079	0
2.2	36.0056991487266	0	1	0	1	0	36.0056991487266	0
2.21	35.9955704746099	0	1	0	1	0	35.9955704746099	0
2.22	35.9867500159656	0	1	0	1	0	35.9867500159656	0
2.23	35.979225655423	0	1	0	1	0	35.979225655423	0
2.24	35.9729854919933	0	1	0	1	0	35.9729854919933	0
2.25	35.9680178362608	0	1	0	1	0	35.9680178362608	0
2.26	35.9643112057019	0	1	0	1	0	35.9643112057019	0
2.27	35.9618543201285	0	1	0	1	0	35.9618543201285	0
2.28	35.9606360972503	0	1	0	1	0	35.9606360972503	0
2.29	35.9606456483542	0	1	0	1	0	35.9606456483542	0
2.3	35.9618722740961	0	1	0	1	0	35.9618722740961	0
2.31	35.9643054604018	0	1	0	1	0	35.9643054604018	0
2.32	35.9679348744744	0	1	0	1	0	35.9679348744744	0
2.33	35.972750360904	0	1	0	1	0	35.972750360904	0
2.34	35.9787419378773	0	1	0	1	0	35.9787419378773	0
2.35	35.9858997934845	0	1	0	1	0	35.9858997934845	0
2.36	35.9942142821191	0	1	0	1	0	35.9942142821191	0
2.37	36.0036759209697	0	1	0	1	0	36.0036759209697	0
2.38	36.0142753866	0	1	0	1	0	36.0142753866	0
2.39	36.0260035116144	0	1	0	1	0	36.0260035116144	0
2.4	36.0388512814072	0	1	0	1	0	36.0388512814072	0
2.41	36.0528098309928	0	1	0	1	0	36.0528098309928	0
2.42	36.0678704419141	0	1	0	1	0	36.0678704419141	0
2.43	36.0840245392278	0	1	0	1	0	36.0840245392278	0
2.44	36.1012636885637	0	1	0	1	0	36.1012636885637	0
2.45	36.1195795932551	0	1	0	1	0	36.1195795932551	0
2.46	36.1389640915408	0	1	0	1	0	36.1389640915408	0
2.47	36.1594091538339	0	1	0	1	0	36.1594091538339	0
2.48	36.1809068800567	0	1	0	1	0	36.1809068800567	0
2.49	36.2034494970406	0	1	0	1	0	36.2034494970406	0
2.5	36.2270293559877	0	1	0	1	0	36.2270293559877	0
2.51	36.251638929993	0	1	0	1	0	36.251638929993	0
2.52	36.2772708116266	0	1	0	1	0	36.2772708116266	0
2.53	36.3039177105719	0	1	0	1	0	36.3039177105719	0
2.54	36.3315724513204	0	1	0	1	0	36.3315724513204	0
2.55	36.3602279709206	0	1	0	1	0	36.3602279709206	0
2.56	36.3898773167798	0	1	0	1	0	36.3898773167798	0
2.57	36.4205136445166	0	1	0	1	0	36.4205136445166	0
2.58	36.4521302158643	0	1	0	1	0	36.4521302158643	0
2.59	36.4847203966219	0	1	0	1	0	36.4847203966219	0
2.6	36.518277654653	0	1	0	1	0	36.518277654653	0
2.61	36.5527955579308	0	1	0	1	0	36.5527955579308	0
2.62	36.5882677726272	0	1	0	1	0	36.5882677726272	0
2.63	36.6246880612462	0	1	0	1	0	36.6246880612462	0
2.64	36.6620502807991	0	1	0	1	0	36.6620502807991	0
2.65	36.7003483810218	0	1	0	1	0	36.7003483810218	0
2.66	36.7395764026315	0	1	0	1	0	36.7395764026315	0
2.67	36.7797284756231	0	1	0	1	0	36.7797284756231	0
2.68	36.8207988176034	0	1	0	1	0	36.8207988176034	0
2.69	36.862781732163	0	1	0	1	0	36.862781732163	0
2.7	36.9056716072833	0	1	0	1	0	36.9056716072833	0
2.71	36.9494629137804	0	1	0	1	0	36.9494629137804	0
2.72	36.9941502037817	0	1	0	1	0	36.9941502037817	0
2.73	37.0397281092369	0	1	0	1	0	37.0397281092369	0
2.74	37.0861913404615	0	1	0	1	0	37.0861913404615	0
2.75	37.1335346847117	0	1	0	1	0	37.1335346847117	0
2.76	37.1817530047908	0	1	0	1	0	37.1817530047908	0
2.77	37.2308412376856	0	1	0	1	0	37.2308412376856	0
2.78	37.2807943932317	0	1	0	1	0	37.2807943932317	0
2.79	37.3316075528085	0	1	0	1	0	37.3316075528085	0
2.8	37.3832758680614	0	1	0	1	0	37.3832758680614	0
2.81	37.4357945596514	0	1	0	1	0	37.4357945596514	0
2.82	37.4891589160317	0	1	0	1	0	37.4891589160317	0
2.83	37.5433642922497	0	1	0	1	0	37.5433642922497	0
2.84	37.5984061087746	0	1	0	1	0	37.5984061087746	0
2.85	37.6542798503498	0	1	0	1	0	37.6542798503498	0
2.86	37.7109810648693	0	1	0	1	0	37.7109810648693	0
2.87	37.7685053622771	0	1	0	1	0	37.7685053622771	0
2.88	37.8268484134902	0	1	0	1	0	37.8268484134902	0
2.89	37.886005949344	0	1	0	1	0	37.886005949344	0
2.9	37.9459737595587	0	1	0	1	0	37.9459737595587	0
2.91	38.0067476917276	0	1	0	1	0	38.0067476917276	0
2.92	38.0683236503267	0	1	0	1	0	38.0683236503267	0
2.93	38.1306975957433	0	1	0	1	0	38.1306975957433	0
2.94	38.1938655433255	0	1	0	1	0	38.1938655433255	0
2.95	38.2578235624505	0	1	0	1	0	38.2578235624505	0
2.96	38.3225677756121	0	1	0	1	0	38.3225677756121	0
2.97	38.3880943575265	0	1	0	1	0	38.3880943575265	0
2.98	38.4543995342558	0	1	0	1	0	38.4543995342558	0
2.99	38.5214795823497	0	1	0	1	0	38.5214795823497	0
3	38.5893308280037	0	1	0	1	0	38.5893308280037	0
3.01	38.657949646235	0	1	0	1	0	38.657949646235	0
3.02	38.7273324600735	0	1	0	1	0	38.7273324600735	0
3.03	38.7974757397698	0	1	0	1	0	38.7974757397698	0
3.04	38.8683760020189	0	1	0	1	0	38.8683760020189	0
3.05	38.9400298091982	0	1	0	1	0	38.9400298091982	0
3.06	39.0124337686214	0	1	0	1	0	39.0124337686214	0
3.07	39.0855845318066	0	1	0	1	0	39.0855845318066	0
3.08	39.1594787937587	0	1	0	1	0	39.1594787937587	0
3.09	39.2341132922656	0	1	0	1	0	39.2341132922656	0
3.1	39.3094848072086	0	1	0	1	0	39.3094848072086	0
3.11	39.3855901598848	0	1	0	1	0	39.3855901598848	0
3.12	39.4624262123443	0	1	0	1	0	39.4624262123443	0
3.13	39.5399898667387	0	1	0	1	0	39.5399898667387	0
3.14	39.6182780646825	0	1	0	1	0	39.6182780646825	0
3.15	39.697287786627	0	1	0	1	0	39.697287786627	0
3.16	39.7770160512456	0	1	0	1	0	39.7770160512456	0
3.17	39.8574599148309	0	1	0	1	0	39.8574599148309	0
3.18	39.9386164707033	0	1	0	1	0	39.9386164707033	0
3.19	40.0204828486306	0	1	0	1	0	40.0204828486306	0
3.2	40.1030562142586	0	1	0	1	0	40.1030562142586	0
3.21	40.186333768552	0	1	0	1	0	40.186333768552	0
3.22	40.2703127472462	0	1	0	1	0	40.2703127472462	0
3.23	40.3549904203089	0	1	0	1	0	40.3549904203089	0
3.24	40.440364091412	0	1	0	1	0	40.440364091412	0
3.25	40.5264310974129	0	1	0	1	0	40.5264310974129	0
3.26	40.6131888078458	0	1	0	1	0	40.6131888078458	0
3.27	40.7006346244215	0	1	0	1	0	40.7006346244215	0
3.28	40.7887659805376	0	1	0	1	0	40.7887659805376	0
3.29	40.8775803407963	0	1	0	1	0	40.8775803407963	0
3.3	40.9670752005321	0	1	0	1	0	40.9670752005321	0
3.31	41.0572480853473	0	1	0	1	0	41.0572480853473	0
3.32	41.1480965506562	0	1	0	1	0	41.1480965506562	0
3.33	41.2396181812375	0	1	0	1	0	41.2396181812375	0
3.34	41.3318105907947	0	1	0	1	0	41.3318105907947	0
3.35	41.4246714215245	0	1	0	1	0	41.4246714215245	0
3.36	41.5181983436924	0	1	0	1	0	41.5181983436924	0
3.37	41.6123890552169	0	1	0	1	0	41.6123890552169	0
3.38	41.7072412812599	0	1	0	1	0	41.7072412812599	0
3.39	41.8027527738249	0	1	0	1	0	41.8027527738249	0
3.4	41.8989213113626	0	1	0	1	0	41.8989213113626	0
3.41	41.995744698383	0	1	0	1	0	41.995744698383	0
3.42	42.0932207650741	0	1	0	1	0	42.0932207650741	0
3.43	42.1913473669281	0	1	0	1	0	42.1913473669281	0
3.44	42.290122384373	0	1	0	1	0	42.290122384373	0
3.45	42.389543722412	0	1	0	1	0	42.389543722412	0
3.46	42.4896093102675	0	1	0	1	0	42.4896093102675	0
3.47	42.5903171010327	0	1	0	1	0	42.5903171010327	0
3.48	42.6916650713286	0	1	0	1	0	42.6916650713286	0
3.49	42.7936512209664	0	1	0	1	0	42.7936512209664	0
3.5	42.8962735726172	0	1	0	1	0	42.8962735726172	0
3.51	42.9995301714851	0	1	0	1	0	42.9995301714851	0
3.52	43.1034190849883	0	1	0	1	0	43.1034190849883	0
3.53	43.2079384024437	0	1	0	1	0	43.2079384024437	0
3.54	43.3130862347579	0	1	0	1	0	43.3130862347579	0
3.55	43.418860714123	0	1	0	1	0	43.418860714123	0
3.56	43.5252599937178	0	1	0	1	0	43.5252599937178	0
3.57	43.6322822474138	0	1	0	1	0	43.6322822474138	0
3.58	43.739925669486	0	1	0	1	0	43.739925669486	0
3.59	43.848188474329	0	1	0	1	0	43.848188474329	0
3.6	43.9570688961775	0	1	0	1	0	43.9570688961775	0
3.61	44.0665651888314	0	1	0	1	0	44.0665651888314	0
3.62	44.1766756253857	0	1	0	1	0	44.1766756253857	0
3.63	44.2873984979646	0	1	0	1	0	44.2873984979646	0
3.64	44.3987321174601	0	1	0	1	0	44.3987321174601	0
3.65	44.5106748132752	0	1	0	1	0	44.5106748132752	0
3.66	44.6232249330705	0	1	0	1	0	44.6232249330705	0
3.67	44.7363808425159	0	1	0	1	0	44.7363808425159	0
3.68	44.8501409250459	0	1	0	1	0	44.8501409250459	0
3.69	44.9645035816184	0	1	0	1	0	44.9645035816184	0
3.7	45.0794672304786	0	1	0	1	0	45.0794672304786	0
3.71	45.1950303069254	0	1	0	1	0	45.1950303069254	0
3.72	45.3111912630825	0	1	0	1	0	45.3111912630825	0
3.73	45.4279485676729	0	1	0	1	0	45.4279485676729	0
3.74	45.5453007057969	0	1	0	1	0	45.5453007057969	0
3.75	45.6632461787136	0	1	0	1	0	45.6632461787136	0
3.76	45.7817835036262	0	1	0	1	0	45.7817835036262	0
3.77	45.9009112134706	0	1	0	1	0	45.9009112134706	0
3.78	46.020627856707	0	1	0	1	0	46.020627856707	0
3.79	46.1409319971155	0	1	0	1	0	46.1409319971155	0
3.8	46.2618222135941	0	1	0	1	0	46.2618222135941	0
3.81	46.3832970999606	0	1	0	1	0	46.3832970999606	0
3.82	46.5053552647572	0	1	0	1	0	46.5053552647572	0
3.83	46.6279953310584	0	1	0	1	0	46.6279953310584	0
3.84	46.7512159362816	0	1	0	1	0	46.7512159362816	0
3.85	46.8750157320007	0	1	0	1	0	46.8750157320007	0
3.86	46.9993933837634	0	1	0	1	0	46.9993933837634	0
3.87	47.1243475709096	0	1	0	1	0	47.1243475709096	0
3.88	47.2498769863948	0	1	0	1	0	47.2498769863948	0
3.89	47.3759803366142	0	1	0	1	0	47.3759803366142	0
3.9	47.5026563412308	0	1	0	1	0	47.5026563412308	0
3.91	47.6299037330058	0	1	0	1	0	47.6299037330058	0
3.92	47.7577212576313	0	1	0	1	0	47.7577212576313	0
3.93	47.8861076735659	0	1	0	1	0	47.8861076735659	0
3.94	48.0150617518728	0	1	0	1	0	48.0150617518728	0
3.95	48.1445822760599	0	1	0	1	0	48.1445822760599	0
3.96	48.2746680419231	0	1	0	1	0	48.2746680419231	0
3.97	48.4053178573913	0	1	0	1	0	48.4053178573913	0
3.98	48.536530542374	0	1	0	1	0	48.536530542374	0
3.99	48.668304928611	0	1	0	1	0	48.668304928611	0
4	48.8006398595251	0	1	0	1	0	48.8006398595251	0
4.01	48.9335341900756	0	1	0	1	0	48.9335341900756	0
4.02	49.0669867866155	0	1	0	1	0	49.0669867866155	0
4.03	49.20099652675	0	1	0	1	0	49.20099652675	0
4.04	49.3355622991966	0	1	0	1	0	49.3355622991966	0
4.05	49.4706830036491	0	1	0	1	0	49.4706830036491	0
4.06	49.6063575506411	0	1	0	1	0	49.6063575506411	0
4.07	49.7425848614141	0	1	0	1	0	49.7425848614141	0
4.08	49.8793638677852	0	1	0	1	0	49.8793638677852	0
4.09	50.0166935120185	0	1	0	1	0	50.0166935120185	0
4.1	50.1545727466974	0	1	0	1	0	50.1545727466974	0
4.11	50.2930005345992	0	1	0	1	0	50.2930005345992	0
4.12	50.4319758485713	0	1	0	1	0	50.4319758485713	0
4.13	50.5714976714092	0	1	0	1	0	50.5714976714092	0
4.14	50.7115649957366	0	1	0	1	0	50.7115649957366	0
4.15	50.8521768238869	0	1	0	1	0	50.8521768238869	0
4.16	50.9933321677861	0	1	0	1	0	50.9933321677861	0
4.17	51.1350300488387	0	1	0	1	0	51.1350300488387	0
4.18	51.2772694978132	0	1	0	1	0	51.2772694978132	0
4.19	51.4200495547312	0	1	0	1	0	51.4200495547312	0
4.2	51.563369268757	0	1	0	1	0	51.563369268757	0
4.21	51.7072276980887	0	1	0	1	0	51.7072276980887	0
4.22	51.8516239098516	0	1	0	1	0	51.8516239098516	0
4.23	51.9965569799926	0	1	0	1	0	51.9965569799926	0
4.24	52.1420259931759	0	1	0	1	0	52.1420259931759	0
4.25	52.2880300426808	0	1	0	1	0	52.2880300426808	0
4.26	52.4345682303003	0	1	0	1	0	52.4345682303003	0
4.27	52.5816396662414	0	1	0	1	0	52.5816396662414	0
4.28	52.7292434690272	0	1	0	1	0	52.7292434690272	0
4.29	52.8773787653995	0	1	0	1	0	52.8773787653995	0
4.3	53.0260446902235	0	1	0	1	0	53.0260446902235	0
4.31	53.1752403863934	0	1	0	1	0	53.1752403863934	0
4.32	53.3249650047398	0	1	0	1	0	53.3249650047398	0
4.33	53.4752177039376	0	1	0	1	0	53.4752177039376	0
4.34	53.6259976504159	0	1	0	1	0	53.6259976504159	0
4.35	53.7773040182688	0	1	0	1	0	53.7773040182688	0
4.36	53.9291359891676	0	1	0	1	0	53.9291359891676	0
4.37	54.081492752274	0	1	0	1	0	54.081492752274	0
4.38	54.2343735041545	0	1	0	1	0	54.2343735041545	0
4.39	54.3877774486964	0	1	0	1	0	54.3877774486964	0
4.4	54.5417037970241	0	1	0	1	0	54.5417037970241	0
4.41	54.6961517674176	0	1	0	1	0	54.6961517674176	0
4.42	54.8511205852312	0	1	0	1	0	54.8511205852312	0
4.43	55.0066094828137	0	1	0	1	0	55.0066094828137	0
4.44	55.1626176994297	0	1	0	1	0	55.1626176994297	0
4.45	55.3191444811818	0	1	0	1	0	55.3191444811818	0
4.46	55.4761890809342	0	1	0	1	0	55.4761890809342	0
4.47	55.6337507582367	0	1	0	1	0	55.6337507582367	0
4.48	55.7918287792504	0	1	0	1	0	55.7918287792504	0
4.49	55.9504224166737	0	1	0	1	0	55.9504224166737	0
4.5	56.1095309496703	0	1	0	1	0	56.1095309496703	0
4.51	56.2691536637967	0	1	0	1	0	56.2691536637967	0
4.52	56.4292898509321	0	1	0	1	0	56.4292898509321	0
4.53	56.5899388092086	0	1	0	1	0	56.5899388092086	0
4.54	56.7510998429419	0	1	0	1	0	56.7510998429419	0
4.55	56.9127722625637	0	1	0	1	0	56.9127722625637	0
4.56	57.0749553845545	0	1	0	1	0	57.0749553845545	0
4.57	57.2376485313775	0	1	0	1	0	57.2376485313775	0
4.58	57.4008510314133	0	1	0	1	0	57.4008510314133	0
4.59	57.5645622188953	0	1	0	1	0	57.5645622188953	0
4.6	57.7287814338462	0	1	0	1	0	57.7287814338462	0
4.61	57.8935080220153	0	1	0	1	0	57.8935080220153	0
4.62	58.0587413348163	0	1	0	1	0	58.0587413348163	0
4.63	58.2244807292662	0	1	0	1	0	58.2244807292662	0
4.64	58.390725567925	0	1	0	1	0	58.390725567925	0
4.65	58.557475218836	0	1	0	1	0	58.557475218836	0
4.66	58.7247290554673	0	1	0	1	0	58.7247290554673	0
4.67	58.892486456653	0	1	0	1	0	58.892486456653	0
4.68	59.0607468065366	0	1	0	1	0	59.0607468065366	0
4.69	59.2295094945142	0	1	0	1	0	59.2295094945142	0
4.7	59.3987739151781	0	1	0	1	0	59.3987739151781	0
4.71	59.5685394682625	0	1	0	1	0	59.5685394682625	0
4.72	59.7388055585885	0	1	0	1	0	59.7388055585885	0
4.73	59.9095715960101	0	1	0	1	0	59.9095715960101	0
4.74	60.080836995362	0	1	0	1	0	60.080836995362	0
4.75	60.2526011764061	0	1	0	1	0	60.2526011764061	0
4.76	60.4248635637805	0	1	0	1	0	60.4248635637805	0
4.77	60.5976235869482	0	1	0	1	0	60.5976235869482	0
4.78	60.7708806801463	0	1	0	1	0	60.7708806801463	0
4.79	60.9446342823367	0	1	0	1	0	60.9446342823367	0
4.8	61.1188838371564	0	1	0	1	0	61.1188838371564	0
4.81	61.2936287928694	0	1	0	1	0	61.2936287928694	0
4.82	61.4688686023181	0	1	0	1	0	61.4688686023181	0
4.83	61.6446027228765	0	1	0	1	0	61.6446027228765	0
4.84	61.8208306164028	0	1	0	1	0	61.8208306164028	0
4.85	61.9975517491939	0	1	0	1	0	61.9975517491939	0
4.86	62.174765591939	0	1	0	1	0	62.174765591939	0
4.87	62.3524716196749	0	1	0	1	0	62.3524716196749	0
4.88	62.5306693117413	0	1	0	1	0	62.5306693117413	0
4.89	62.7093581517372	0	1	0	1	0	62.7093581517372	0
4.9	62.8885376274766	0	1	0	1	0	62.8885376274766	0
4.91	63.0682072309466	0	1	0	1	0	63.0682072309466	0
4.92	63.2483664582643	0	1	0	1	0	63.2483664582643	0
4.93	63.4290148096349	0	1	0	1	0	63.4290148096349	0
