# GHZ S RI R 50
1	56.209260415436	0	1	0	1	0	56.209260415436	0
1.01	55.7484804604455	0	1	0	1	0	55.7484804604455	0
1.02	55.2979978346388	0	1	0	1	0	55.2979978346388	0
1.03	54.8575249937427	0	1	0	1	0	54.8575249937427	0
1.04	54.4267854528789	0	1	0	1	0	54.4267854528789	0
1.05	54.0055132599264	0	1	0	1	0	54.0055132599264	0
1.06	53.5934524986933	0	1	0	1	0	53.5934524986933	0
1.07	53.1903568199482	0	1	0	1	0	53.1903568199482	0
1.08	52.7959889985052	0	1	0	1	0	52.7959889985052	0
1.09	52.41012051469	0	1	0	1	0	52.41012051469	0
1.1	52.0325311586344	0	1	0	1	0	52.0325311586344	0
1.11	51.6630086559611	0	1	0	1	0	51.6630086559611	0
1.12	51.3013483135205	0	1	0	1	0	51.3013483135205	0
1.13	50.9473526839383	0	1	0	1	0	50.9473526839383	0
1.14	50.6008312478181	0	1	0	1	0	50.6008312478181	0
1.15	50.2616001125251	0	1	0	1	0	50.2616001125251	0
1.16	49.9294817265501	0	1	0	1	0	49.9294817265501	0
1.17	49.6043046085207	0	1	0	1	0	49.6043046085207	0
1.18	49.2859030899925	0	1	0	1	0	49.2859030899925	0
1.19	48.9741170712082	0	1	0	1	0	48.9741170712082	0
1.2	48.6687917890692	0	1	0	1	0	48.6687917890692	0
1.21	48.3697775966124	0	1	0	1	0	48.3697775966124	0
1.22	48.0769297533324	0	1	0	1	0	48.0769297533324	0
1.23	47.7901082257321	0	1	0	1	0	47.7901082257321	0
1.24	47.5091774975241	0	1	0	1	0	47.5091774975241	0
1.25	47.2340063889421	0	1	0	1	0	47.2340063889421	0
1.26	46.964467884657	0	1	0	1	0	46.964467884657	0
1.27	46.7004389698222	0	1	0	1	0	46.7004389698222	0
1.28	46.4418004738052	0	1	0	1	0	46.4418004738052	0
1.29	46.1884369211871	0	1	0	1	0	46.1884369211871	0
1.3	45.9402363896385	0	1	0	1	0	45.9402363896385	0
1.31	45.697090374306	0	1	0	1	0	45.697090374306	0
1.32	45.4588936583617	0	1	0	1	0	45.4588936583617	0
1.33	45.225544189394	0	1	0	1	0	45.225544189394	0
1.34	44.9969429613317	0	1	0	1	0	44.9969429613317	0
1.35	44.7729939016167	0	1	0	1	0	44.7729939016167	0
1.36	44.5536037633547	0	1	0	1	0	44.5536037633547	0
1.37	44.3386820221882	0	1	0	1	0	44.3386820221882	0
1.38	44.1281407776543	0	1	0	1	0	44.1281407776543	0
1.39	43.9218946587996	0	1	0	1	0	43.9218946587996	0
1.4	43.7198607338411	0	1	0	1	0	43.7198607338411	0
1.41	43.5219584236701	0	1	0	1	0	43.5219584236701	0
1.42	43.3281094190124	0	1	0	1	0	43.3281094190124	0
1.43	43.1382376010626	0	1	0	1	0	43.1382376010626	0
1.44	42.9522689654269	0	1	0	1	0	42.9522689654269	0
1.45	42.7701315492118	0	1	0	1	0	42.7701315492118	0
1.46	42.5917553611099	0	1	0	1	0	42.5917553611099	0
1.47	42.4170723143394	0	1	0	1	0	42.4170723143394	0
1.48	42.2460161623015	0	1	0	1	0	42.2460161623015	0
1.49	42.0785224368299	0	1	0	1	0	42.0785224368299	0
1.5	41.9145283889091	0	1	0	1	0	41.9145283889091	0
1.51	41.7539729317494	0	1	0	1	0	41.7539729317494	0
1.52	41.596796586108	0	1	0	1	0	41.596796586108	0
1.53	41.4429414277552	0	1	0	1	0	41.4429414277552	0
1.54	41.2923510369865	0	1	0	1	0	41.2923510369865	0
1.55	41.1449704500901	0	1	0	1	0	41.1449704500901	0
1.56	41.0007461126798	0	1	0	1	0	41.0007461126798	0
1.57	40.8596258348125	0	1	0	1	0	40.8596258348125	0
1.58	40.7215587478096	0	1	0	1	0	40.7215587478096	0
1.59	40.5864952627076	0	1	0	1	0	40.5864952627076	0
1.6	40.454387030267	0	1	0	1	0	40.454387030267	0
1.61	40.3251869024717	0	1	0	1	0	40.3251869024717	0
1.62	40.1988488954542	0	1	0	1	0	40.1988488954542	0
1.63	40.0753281537853	0	1	0	1	0	40.0753281537853	0
1.64	39.954580916071	0	1	0	1	0	39.954580916071	0
1.65	39.8365644817992	0	1	0	1	0	39.8365644817992	0
1.66	39.721237179386	0	1	0	1	0	39.721237179386	0
1.67	39.6085583353693	0	1	0	1	0	39.6085583353693	0
1.68	39.4984882447026	0	1	0	1	0	39.4984882447026	0
1.69	39.3909881421039	0	1	0	1	0	39.3909881421039	0
1.7	39.2860201744156	0	1	0	1	0	39.2860201744156	0
1.71	39.1835473739339	0	1	0	1	0	39.1835473739339	0
1.72	39.0835336326691	0	1	0	1	0	39.0835336326691	0
1.73	38.9859436774984	0	1	0	1	0	38.9859436774984	0
1.74	38.8907430461752	0	1	0	1	0	38.8907430461752	0
1.75	38.7978980641616	0	1	0	1	0	38.7978980641616	0
1.76	38.70737582225	0	1	0	1	0	38.70737582225	0
1.77	38.6191441549438	0	1	0	1	0	38.6191441549438	0
1.78	38.5331716195663	0	1	0	1	0	38.5331716195663	0
1.79	38.4494274760707	0	1	0	1	0	38.4494274760707	0
1.8	38.3678816675223	0	1	0	1	0	38.3678816675223	0
1.81	38.2885048012279	0	1	0	1	0	38.2885048012279	0
1.82	38.2112681304879	0	1	0	1	0	38.2112681304879	0
1.83	38.1361435369454	0	1	0	1	0	38.1361435369454	0
1.84	38.0631035135125	0	1	0	1	0	38.0631035135125	0
1.85	37.9921211478489	0	1	0	1	0	37.9921211478489	0
1.86	37.9231701063746	0	1	0	1	0	37.9231701063746	0
1.87	37.8562246187944	0	1	0	1	0	37.8562246187944	0
1.88	37.7912594631174	0	1	0	1	0	37.7912594631174	0
1.89	37.7282499511515	0	1	0	1	0	37.7282499511515	0
1.9	37.667171914456	0	1	0	1	0	37.667171914456	0
1.91	37.6080016907355	0	1	0	1	0	37.6080016907355	0
1.92	37.5507161106591	0	1	0	1	0	37.5507161106591	0
1.93	37.4952924850892	0	1	0	1	0	37.4952924850892	0
1.94	37.4417085927058	0	1	0	1	0	37.4417085927058	0
1.95	37.3899426680104	0	1	0	1	0	37.3899426680104	0
1.96	37.3399733896986	0	1	0	1	0	37.3399733896986	0
1.97	37.2917798693859	0	1	0	1	0	37.2917798693859	0
1.98	37.2453416406753	0	1	0	1	0	37.2453416406753	0
1.99	37.2006386485546	0	1	0	1	0	37.2006386485546	0
2	37.157651239112	0	1	0	1	0	37.157651239112	0
2.01	37.1163601495583	0	1	0	1	0	37.1163601495583	0
2.02	37.0767464985455	0	1	0	1	0	37.0767464985455	0
2.03	37.038791776772	0	1	0	1	0	37.038791776772	0
2.04	37.0024778378638	0	1	0	1	0	37.0024778378638	0
2.05	36.9677868895221	0	1	0	1	0	36.9677868895221	0
2.06	36.9347014849301	0	1	0	1	0	36.9347014849301	0
2.07	36.9032045144073	0	1	0	1	0	36.9032045144073	0
2.08	36.8732791973055	0	1	0	1	0	36.8732791973055	0
2.09	36.8449090741372	0	1	0	1	0	36.8449090741372	0
2.1	36.8180779989293	0	1	0	1	0	36.8180779989293	0
2.11	36.792770131793	0	1	0	1	0	36.792770131793	0
2.12	36.7689699317056	0	1	0	1	0	36.7689699317056	0
2.13	36.7466621494946	0	1	0	1	0	36.7466621494946	0
2.14	36.7258318210188	0	1	0	1	0	36.7258318210188	0
2.15	36.7064642605393	0	1	0	1	0	36.7064642605393	0
2.16	36.6885450542758	0	1	0	1	0	36.6885450542758	0
2.17	36.6720600541395	0	1	0	1	0	36.6720600541395	0
2.18	36.6569953716396	0	1	0	1	0	36.6569953716396	0
2.19	36.6433373719563	0	1	0	1	0	36.6433373719563	0
2.2	36.6310726681759	0	1	0	1	0	36.6310726681759	0
2.21	36.6201881156815	0	1	0	1	0	36.6201881156815	0
2.22	36.6106708066963	0	1	0	1	0	36.6106708066963	0
2.23	36.6025080649729	0	1	0	1	0	36.6025080649729	0
2.24	36.5956874406258	0	1	0	1	0	36.5956874406258	0
2.25	36.5901967051005	0	1	0	1	0	36.5901967051005	0
2.26	36.5860238462773	0	1	0	1	0	36.5860238462773	0
2.27	36.5831570637037	0	1	0	1	0	36.5831570637037	0
2.28	36.5815847639527	0	1	0	1	0	36.5815847639527	0
2.29	36.5812955561025	0	1	0	1	0	36.5812955561025	0
2.3	36.5822782473345	0	1	0	1	0	36.5822782473345	0
2.31	36.5845218386449	0	1	0	1	0	36.5845218386449	0
2.32	36.5880155206681	0	1	0	1	0	36.5880155206681	0
2.33	36.5927486696069	0	1	0	1	0	36.5927486696069	0
2.34	36.5987108432674	0	1	0	1	0	36.5987108432674	0
2.35	36.6058917771953	0	1	0	1	0	36.6058917771953	0
2.36	36.61428138091	0	1	0	1	0	36.61428138091	0
2.37	36.6238697342345	0	1	0	1	0	36.6238697342345	0
2.38	36.6346470837175	0	1	0	1	0	36.6346470837175	0
2.39	36.646603839145	0	1	0	1	0	36.646603839145	0
2.4	36.6597305701404	0	1	0	1	0	36.6597305701404	0
2.41	36.6740180028475	0	1	0	1	0	36.6740180028475	0
2.42	36.6894570166972	0	1	0	1	0	36.6894570166972	0
2.43	36.7060386412531	0	1	0	1	0	36.7060386412531	0
2.44	36.7237540531353	0	1	0	1	0	36.7237540531353	0
2.45	36.7425945730187	0	1	0	1	0	36.7425945730187	0
2.46	36.762551662706	0	1	0	1	0	36.762551662706	0
2.47	36.7836169222698	0	1	0	1	0	36.7836169222698	0
2.48	36.8057820872657	0	1	0	1	0	36.8057820872657	0
2.49	36.8290390260113	0	1	0	1	0	36.8290390260113	0
2.5	36.8533797369313	0	1	0	1	0	36.8533797369313	0
2.51	36.8787963459652	0	1	0	1	0	36.8787963459652	0
2.52	36.905281104038	0	1	0	1	0	36.905281104038	0
2.53	36.9328263845895	0	1	0	1	0	36.9328263845895	0
2.54	36.9614246811628	0	1	0	1	0	36.9614246811628	0
2.55	36.9910686050494	0	1	0	1	0	36.9910686050494	0
2.56	37.0217508829893	0	1	0	1	0	37.0217508829893	0
2.57	37.0534643549252	0	1	0	1	0	37.0534643549252	0
2.58	37.0862019718081	0	1	0	1	0	37.0862019718081	0
2.59	37.1199567934549	0	1	0	1	0	37.1199567934549	0
2.6	37.1547219864545	0	1	0	1	0	37.1547219864545	0
2.61	37.1904908221222	0	1	0	1	0	37.1904908221222	0
2.62	37.2272566745017	0	1	0	1	0	37.2272566745017	0
2.63	37.2650130184112	0	1	0	1	0	37.2650130184112	0
2.64	37.3037534275358	0	1	0	1	0	37.3037534275358	0
2.65	37.3434715725613	0	1	0	1	0	37.3434715725613	0
2.66	37.3841612193511	0	1	0	1	0	37.3841612193511	0
2.67	37.4258162271641	0	1	0	1	0	37.4258162271641	0
2.68	37.4684305469119	0	1	0	1	0	37.4684305469119	0
2.69	37.5119982194554	0	1	0	1	0	37.5119982194554	0
2.7	37.5565133739391	0	1	0	1	0	37.5565133739391	0
2.71	37.6019702261623	0	1	0	1	0	37.6019702261623	0
2.72	37.6483630769857	0	1	0	1	0	37.6483630769857	0
2.73	37.6956863107743	0	1	0	1	0	37.6956863107743	0
2.74	37.7439343938729	0	1	0	1	0	37.7439343938729	0
2.75	37.7931018731159	0	1	0	1	0	37.7931018731159	0
2.76	37.8431833743692	0	1	0	1	0	37.8431833743692	0
2.77	37.8941736011033	0	1	0	1	0	37.8941736011033	0
2.78	37.9460673329979	0	1	0	1	0	37.9460673329979	0
2.79	37.998859424576	0	1	0	1	0	37.998859424576	0
2.8	38.0525448038675	0	1	0	1	0	38.0525448038675	0
2.81	38.1071184711009	0	1	0	1	0	38.1071184711009	0
2.82	38.1625754974237	0	1	0	1	0	38.1625754974237	0
2.83	38.2189110236491	0	1	0	1	0	38.2189110236491	0
2.84	38.2761202590294	0	1	0	1	0	38.2761202590294	0
2.85	38.3341984800556	0	1	0	1	0	38.3341984800556	0
2.86	38.3931410292819	0	1	0	1	0	38.3931410292819	0
2.87	38.4529433141742	0	1	0	1	0	38.4529433141742	0
2.88	38.5136008059842	0	1	0	1	0	38.5136008059842	0
2.89	38.5751090386446	0	1	0	1	0	38.5751090386446	0
2.9	38.6374636076896	0	1	0	1	0	38.6374636076896	0
2.91	38.7006601691955	0	1	0	1	0	38.7006601691955	0
2.92	38.7646944387445	0	1	0	1	0	38.7646944387445	0
2.93	38.8295621904092	0	1	0	1	0	38.8295621904092	0
2.94	38.8952592557579	0	1	0	1	0	38.8952592557579	0
2.95	38.9617815228797	0	1	0	1	0	38.9617815228797	0
2.96	39.0291249354304	0	1	0	1	0	39.0291249354304	0
2.97	39.0972854916965	0	1	0	1	0	39.0972854916965	0
2.98	39.1662592436789	0	1	0	1	0	39.1662592436789	0
2.99	39.2360422961944	0	1	0	1	0	39.2360422961944	0
3	39.3066308059956	0	1	0	1	0	39.3066308059956	0
3.01	39.3780209809083	0	1	0	1	0	39.3780209809083	0
3.02	39.4502090789857	0	1	0	1	0	39.4502090789857	0
3.03	39.5231914076795	0	1	0	1	0	39.5231914076795	0
3.04	39.5969643230278	0	1	0	1	0	39.5969643230278	0
3.05	39.6715242288581	0	1	0	1	0	39.6715242288581	0
3.06	39.7468675760069	0	1	0	1	0	39.7468675760069	0
3.07	39.8229908615539	0	1	0	1	0	39.8229908615539	0
3.08	39.899890628071	0	1	0	1	0	39.899890628071	0
3.09	39.9775634628868	0	1	0	1	0	39.9775634628868	0
3.1	40.056005997364	0	1	0	1	0	40.056005997364	0
3.11	40.1352149061922	0	1	0	1	0	40.1352149061922	0
3.12	40.215186906693	0	1	0	1	0	40.215186906693	0
3.13	40.295918758139	0	1	0	1	0	40.295918758139	0
3.14	40.3774072610862	0	1	0	1	0	40.3774072610862	0
3.15	40.4596492567185	0	1	0	1	0	40.4596492567185	0
3.16	40.5426416262045	0	1	0	1	0	40.5426416262045	0
3.17	40.6263812900674	0	1	0	1	0	40.6263812900674	0
3.18	40.710865207566	0	1	0	1	0	40.710865207566	0
3.19	40.7960903760873	0	1	0	1	0	40.7960903760873	0
3.2	40.882053830551	0	1	0	1	0	40.882053830551	0
3.21	40.9687526428251	0	1	0	1	0	40.9687526428251	0
3.22	41.0561839211516	0	1	0	1	0	41.0561839211516	0
3.23	41.1443448095838	0	1	0	1	0	41.1443448095838	0
3.24	41.2332324874338	0	1	0	1	0	41.2332324874338	0
3.25	41.3228441687297	0	1	0	1	0	41.3228441687297	0
3.26	41.4131771016832	0	1	0	1	0	41.4131771016832	0
3.27	41.5042285681673	0	1	0	1	0	41.5042285681673	0
3.28	41.5959958832027	0	1	0	1	0	41.5959958832027	0
3.29	41.6884763944542	0	1	0	1	0	41.6884763944542	0
3.3	41.7816674817363	0	1	0	1	0	41.7816674817363	0
3.31	41.8755665565271	0	1	0	1	0	41.8755665565271	0
3.32	41.970171061492	0	1	0	1	0	41.970171061492	0
3.33	42.0654784700149	0	1	0	1	0	42.0654784700149	0
3.34	42.1614862857387	0	1	0	1	0	42.1614862857387	0
3.35	42.2581920421136	0	1	0	1	0	42.2581920421136	0
3.36	42.3555933019533	0	1	0	1	0	42.3555933019533	0
3.37	42.4536876569997	0	1	0	1	0	42.4536876569997	0
3.38	42.5524727274947	0	1	0	1	0	42.5524727274947	0
3.39	42.6519461617601	0	1	0	1	0	42.6519461617601	0
3.4	42.7521056357842	0	1	0	1	0	42.7521056357842	0
3.41	42.8529488528167	0	1	0	1	0	42.8529488528167	0
3.42	42.9544735429697	0	1	0	1	0	42.9544735429697	0
3.43	43.0566774628265	0	1	0	1	0	43.0566774628265	0
3.44	43.1595583950566	0	1	0	1	0	43.1595583950566	0
3.45	43.2631141480374	0	1	0	1	0	43.2631141480374	0
3.46	43.3673425554833	0	1	0	1	0	43.3673425554833	0
3.47	43.4722414760801	0	1	0	1	0	43.4722414760801	0
3.48	43.5778087931266	0	1	0	1	0	43.5778087931266	0
3.49	43.6840424141815	0	1	0	1	0	43.6840424141815	0
3.5	43.7909402707175	0	1	0	1	0	43.7909402707175	0
3.51	43.8985003177799	0	1	0	1	0	43.8985003177799	0
3.52	44.0067205336522	0	1	0	1	0	44.0067205336522	0
3.53	44.1155989195271	0	1	0	1	0	44.1155989195271	0
3.54	44.2251334991824	0	1	0	1	0	44.2251334991824	0
3.55	44.3353223186634	0	1	0	1	0	44.3353223186634	0
3.56	44.4461634459699	0	1	0	1	0	44.4461634459699	0
3.57	44.5576549707486	0	1	0	1	0	44.5576549707486	0
3.58	44.6697950039911	0	1	0	1	0	44.6697950039911	0
3.59	44.7825816777364	0	1	0	1	0	44.7825816777364	0
3.6	44.8960131447787	0	1	0	1	0	44.8960131447787	0
3.61	45.0100875783797	0	1	0	1	0	45.0100875783797	0
3.62	45.1248031719862	0	1	0	1	0	45.1248031719862	0
3.63	45.2401581389517	0	1	0	1	0	45.2401581389517	0
3.64	45.3561507122636	0	1	0	1	0	45.3561507122636	0
3.65	45.4727791442733	0	1	0	1	0	45.4727791442733	0
3.66	45.5900417064327	0	1	0	1	0	45.5900417064327	0
3.67	45.7079366890329	0	1	0	1	0	45.7079366890329	0
3.68	45.8264624009493	0	1	0	1	0	45.8264624009493	0
3.69	45.945617169389	0	1	0	1	0	45.945617169389	0
3.7	46.0653993396435	0	1	0	1	0	46.0653993396435	0
3.71	46.1858072748446	0	1	0	1	0	46.1858072748446	0
3.72	46.3068393557251	0	1	0	1	0	46.3068393557251	0
3.73	46.4284939803823	0	1	0	1	0	46.4284939803823	0
3.74	46.5507695640466	0	1	0	1	0	46.5507695640466	0
3.75	46.673664538852	0	1	0	1	0	46.673664538852	0
3.76	46.7971773536125	0	1	0	1	0	46.7971773536125	0
3.77	46.9213064735999	0	1	0	1	0	46.9213064735999	0
3.78	47.0460503803268	0	1	0	1	0	47.0460503803268	0
3.79	47.1714075713318	0	1	0	1	0	47.1714075713318	0
3.8	47.2973765599691	0	1	0	1	0	47.2973765599691	0
3.81	47.4239558752006	0	1	0	1	0	47.4239558752006	0
3.82	47.5511440613917	0	1	0	1	0	47.5511440613917	0
3.83	47.6789396781104	0	1	0	1	0	47.6789396781104	0
3.84	47.8073412999292	0	1	0	1	0	47.8073412999292	0
3.85	47.93634751623	0	1	0	1	0	47.93634751623	0
3.86	48.0659569310128	0	1	0	1	0	48.0659569310128	0
3.87	48.1961681627064	0	1	0	1	0	48.1961681627064	0
3.88	48.3269798439824	0	1	0	1	0	48.3269798439824	0
3.89	48.4583906215728	0	1	0	1	0	48.4583906215728	0
3.9	48.5903991560889	0	1	0	1	0	48.5903991560889	0
3.91	48.7230041218443	0	1	0	1	0	48.7230041218443	0
3.92	48.85620420668	0	1	0	1	0	48.85620420668	0
3.93	48.9899981117924	0	1	0	1	0	48.9899981117924	0
3.94	49.1243845515635	0	1	0	1	0	49.1243845515635	0
3.95	49.2593622533944	0	1	0	1	0	49.2593622533944	0
3.96	49.3949299575408	0	1	0	1	0	49.3949299575408	0
3.97	49.5310864169509	0	1	0	1	0	49.5310864169509	0
3.98	49.667830397106	0	1	0	1	0	49.667830397106	0
3.99	49.8051606758637	0	1	0	1	0	49.8051606758637	0
4	49.943076043303	0	1	0	1	0	49.943076043303	0
4.01	50.0815753015718	0	1	0	1	0	50.0815753015718	0
4.02	50.2206572647372	0	1	0	1	0	50.2206572647372	0
4.03	50.3603207586371	0	1	0	1	0	50.3603207586371	0
4.04	50.5005646207348	0	1	0	1	0	50.5005646207348	0
4.05	50.6413876999755	0	1	0	1	0	50.6413876999755	0
4.06	50.7827888566448	0	1	0	1	0	50.7827888566448	0
4.07	50.9247669622295	0	1	0	1	0	50.9247669622295	0
4.08	51.0673208992803	0	1	0	1	0	51.0673208992803	0
4.09	51.2104495612762	0	1	0	1	0	51.2104495612762	0
4.1	51.3541518524919	0	1	0	1	0	51.3541518524919	0
4.11	51.4984266878658	0	1	0	1	0	51.4984266878658	0
4.12	51.6432729928711	0	1	0	1	0	51.6432729928711	0
4.13	51.7886897033879	0	1	0	1	0	51.7886897033879	0
4.14	51.9346757655777	0	1	0	1	0	51.9346757655777	0
4.15	52.0812301357595	0	1	0	1	0	52.0812301357595	0
4.16	52.2283517802877	0	1	0	1	0	52.2283517802877	0
4.17	52.3760396754316	0	1	0	1	0	52.3760396754316	0
4.18	52.5242928072573	0	1	0	1	0	52.5242928072573	0
4.19	52.6731101715101	0	1	0	1	0	52.6731101715101	0
4.2	52.8224907734998	0	1	0	1	0	52.8224907734998	0
4.21	52.972433627987	0	1	0	1	0	52.972433627987	0
4.22	53.122937759071	0	1	0	1	0	53.122937759071	0
4.23	53.2740022000795	0	1	0	1	0	53.2740022000795	0
4.24	53.4256259934595	0	1	0	1	0	53.4256259934595	0
4.25	53.5778081906707	0	1	0	1	0	53.5778081906707	0
4.26	53.730547852079	0	1	0	1	0	53.730547852079	0
4.27	53.8838440468526	0	1	0	1	0	53.8838440468526	0
4.28	54.0376958528589	0	1	0	1	0	54.0376958528589	0
4.29	54.1921023565635	0	1	0	1	0	54.1921023565635	0
4.3	54.3470626529299	0	1	0	1	0	54.3470626529299	0
4.31	54.5025758453209	0	1	0	1	0	54.5025758453209	0
4.32	54.6586410454016	0	1	0	1	0	54.6586410454016	0
4.33	54.8152573730435	0	1	0	1	0	54.8152573730435	0
4.34	54.9724239562297	0	1	0	1	0	54.9724239562297	0
4.35	55.1301399309621	0	1	0	1	0	55.1301399309621	0
4.36	55.2884044411688	0	1	0	1	0	55.2884044411688	0
4.37	55.4472166386143	0	1	0	1	0	55.4472166386143	0
4.38	55.6065756828092	0	1	0	1	0	55.6065756828092	0
4.39	55.7664807409223	0	1	0	1	0	55.7664807409223	0
4.4	55.9269309876938	0	1	0	1	0	55.9269309876938	0
4.41	56.087925605349	0	1	0	1	0	56.087925605349	0
4.42	56.2494637835141	0	1	0	1	0	56.2494637835141	0
4.43	56.4115447191324	0	1	0	1	0	56.4115447191324	0
4.44	56.5741676163819	0	1	0	1	0	56.5741676163819	0
4.45	56.737331686594	0	1	0	1	0	56.737331686594	0
4.46	56.9010361481735	0	1	0	1	0	56.9010361481735	0
4.47	57.0652802265192	0	1	0	1	0	57.0652802265192	0
4.48	57.230063153946	0	1	0	1	0	57.230063153946	0
4.49	57.395384169608	0	1	0	1	0	57.395384169608	0
4.5	57.5612425194222	0	1	0	1	0	57.5612425194222	0
4.51	57.7276374559939	0	1	0	1	0	57.7276374559939	0
4.52	57.8945682385423	0	1	0	1	0	57.8945682385423	0
4.53	58.0620341328279	0	1	0	1	0	58.0620341328279	0
4.54	58.2300344110801	0	1	0	1	0	58.2300344110801	0
4.55	58.3985683519263	0	1	0	1	0	58.3985683519263	0
4.56	58.5676352403219	0	1	0	1	0	58.5676352403219	0
4.57	58.7372343674807	0	1	0	1	0	58.7372343674807	0
4.58	58.907365030807	0	1	0	1	0	58.907365030807	0
4.59	59.0780265338276	0	1	0	1	0	59.0780265338276	0
4.6	59.249218186126	0	1	0	1	0	59.249218186126	0
4.61	59.4209393032759	0	1	0	1	0	59.4209393032759	0
4.62	59.593189206777	0	1	0	1	0	59.593189206777	0
4.63	59.7659672239908	0	1	0	1	0	59.7659672239908	0
4.64	59.9392726880773	0	1	0	1	0	59.9392726880773	0
4.65	60.1131049379327	0	1	0	1	0	60.1131049379327	0
4.66	60.2874633181281	0	1	0	1	0	60.2874633181281	0
4.67	60.4623471788484	0	1	0	1	0	60.4623471788484	0
4.68	60.6377558758326	0	1	0	1	0	60.6377558758326	0
4.69	60.8136887703144	0	1	0	1	0	60.8136887703144	0
4.7	60.9901452289637	0	1	0	1	0	60.9901452289637	0
4.71	61.1671246238292	0	1	0	1	0	61.1671246238292	0
4.72	61.344626332281	0	1	0	1	0	61.344626332281	0
4.73	61.5226497369549	0	1	0	1	0	61.5226497369549	0
4.74	61.7011942256961	0	1	0	1	0	61.7011942256961	0
4.75	61.8802591915051	0	1	0	1	0	61.8802591915051	0
4.76	62.0598440324831	0	1	0	1	0	62.0598440324831	0
4.77	62.2399481517788	0	1	0	1	0	62.2399481517788	0
4.78	62.4205709575353	0	1	0	1	0	62.4205709575353	0
4.79	62.6017118628383	0	1	0	1	0	62.6017118628383	0
4.8	62.7833702856642	0	1	0	1	0	62.7833702856642	0
4.81	62.9655456488299	0	1	0	1	0	62.9655456488299	0
4.82	63.1482373799418	0	1	0	1	0	63.1482373799418	0
4.83	63.331444911347	0	1	0	1	0	63.331444911347	0
4.84	63.5151676800836	0	1	0	1	0	63.5151676800836	0
4.85	63.6994051278328	0	1	0	1	0	63.6994051278328	0
4.86	63.8841567008712	0	1	0	1	0	63.8841567008712	0
4.87	64.0694218500233	0	1	0	1	0	64.0694218500233	0
4.88	64.2552000306148	0	1	0	1	0	64.2552000306148	0
4.89	64.4414907024273	0	1	0	1	0	64.4414907024273	0
4.9	64.6282933296519	0	1	0	1	0	64.6282933296519	0
4.91	64.8156073808451	0	1	0	1	0	64.8156073808451	0
4.92	65.0034323288837	0	1	0	1	0	65.0034323288837	0
4.93	65.1917676509218	0	1	0	1	0	65.1917676509218	0
