# GHZ S RI R 50
1	45.1191469022525	0	1	0	1	0	45.1191469022525	0
1.01	44.7695616441907	0	1	0	1	0	44.7695616441907	0
1.02	44.427985485782	0	1	0	1	0	44.427985485782	0
1.03	44.094196471865	0	1	0	1	0	44.094196471865	0
1.04	43.7679811840148	0	1	0	1	0	43.7679811840148	0
1.05	43.4491343340327	0	1	0	1	0	43.4491343340327	0
1.06	43.137458380444	0	1	0	1	0	43.137458380444	0
1.07	42.8327631665025	0	1	0	1	0	42.8327631665025	0
1.08	42.534865578304	0	1	0	1	0	42.534865578304	0
1.09	42.243589221721	0	1	0	1	0	42.243589221721	0
1.1	41.9587641169577	0	1	0	1	0	41.9587641169577	0
1.11	41.6802264096163	0	1	0	1	0	41.6802264096163	0
1.12	41.4078180972419	0	1	0	1	0	41.4078180972419	0
1.13	41.1413867703868	0	1	0	1	0	41.1413867703868	0
1.14	40.8807853673032	0	1	0	1	0	40.8807853673032	0
1.15	40.6258719414346	0	1	0	1	0	40.6258719414346	0
1.16	40.3765094409333	0	1	0	1	0	40.3765094409333	0
1.17	40.1325654994849	0	1	0	1	0	40.1325654994849	0
1.18	39.8939122377686	0	1	0	1	0	39.8939122377686	0
1.19	39.6604260749282	0	1	0	1	0	39.6604260749282	0
1.2	39.4319875494694	0	1	0	1	0	39.4319875494694	0
1.21	39.2084811490383	0	1	0	1	0	39.2084811490383	0
1.22	38.9897951485711	0	1	0	1	0	38.9897951485711	0
1.23	38.7758214563396	0	1	0	1	0	38.7758214563396	0
1.24	38.5664554674454	0	1	0	1	0	38.5664554674454	0
1.25	38.361595924347	0	1	0	1	0	38.361595924347	0
1.26	38.1611447840277	0	1	0	1	0	38.1611447840277	0
1.27	37.9650070914403	0	1	0	1	0	37.9650070914403	0
1.28	37.7730908588824	0	1	0	1	0	37.7730908588824	0
1.29	37.5853069509837	0	1	0	1	0	37.5853069509837	0
1.3	37.4015689750007	0	1	0	1	0	37.4015689750007	0
1.31	37.2217931761361	0	1	0	1	0	37.2217931761361	0
1.32	37.0458983376169	0	1	0	1	0	37.0458983376169	0
1.33	36.8738056852797	0	1	0	1	0	36.8738056852797	0
1.34	36.7054387964287	0	1	0	1	0	36.7054387964287	0
1.35	36.5407235127444	0	1	0	1	0	36.5407235127444	0
1.36	36.3795878570341	0	1	0	1	0	36.3795878570341	0
1.37	36.2219619536293	0	1	0	1	0	36.2219619536293	0
1.38	36.0677779522428	0	1	0	1	0	36.0677779522428	0
1.39	35.916969955114	0	1	0	1	0	35.916969955114	0
1.4	35.7694739472753	0	1	0	1	0	35.7694739472753	0
1.41	35.6252277297866	0	1	0	1	0	35.6252277297866	0
1.42	35.4841708557904	0	1	0	1	0	35.4841708557904	0
1.43	35.3462445692508	0	1	0	1	0	35.3462445692508	0
1.44	35.2113917462437	0	1	0	1	0	35.2113917462437	0
1.45	35.0795568386775	0	1	0	1	0	35.0795568386775	0
1.46	34.9506858203261	0	1	0	1	0	34.9506858203261	0
1.47	34.8247261350647	0	1	0	1	0	34.8247261350647	0
1.48	34.7016266472045	0	1	0	1	0	34.7016266472045	0
1.49	34.5813375938267	0	1	0	1	0	34.5813375938267	0
1.5	34.4638105390238	0	1	0	1	0	34.4638105390238	0
1.51	34.3489983299586	0	1	0	1	0	34.3489983299586	0
1.52	34.236855054658	0	1	0	1	0	34.236855054658	0
1.53	34.1273360014621	0	1	0	1	0	34.1273360014621	0
1.54	34.0203976200526	0	1	0	1	0	34.0203976200526	0
1.55	33.9159974839905	0	1	0	1	0	33.9159974839905	0
1.56	33.8140942546942	0	1	0	1	0	33.8140942546942	0
1.57	33.7146476467945	0	1	0	1	0	33.7146476467945	0
1.58	33.6176183948046	0	1	0	1	0	33.6176183948046	0
1.59	33.5229682210491	0	1	0	1	0	33.5229682210491	0
1.6	33.4306598047943	0	1	0	1	0	33.4306598047943	0
1.61	33.3406567525296	0	1	0	1	0	33.3406567525296	0
1.62	33.2529235693497	0	1	0	1	0	33.2529235693497	0
1.63	33.16742563139	0	1	0	1	0	33.16742563139	0
1.64	33.0841291592703	0	1	0	1	0	33.0841291592703	0
1.65	33.0030011925045	0	1	0	1	0	33.0030011925045	0
1.66	32.924009564835	0	1	0	1	0	32.924009564835	0
1.67	32.8471228804536	0	1	0	1	0	32.8471228804536	0
1.68	32.7723104910714	0	1	0	1	0	32.7723104910714	0
1.69	32.6995424738025	0	1	0	1	0	32.6995424738025	0
1.7	32.6287896098292	0	1	0	1	0	32.6287896098292	0
1.71	32.5600233638149	0	1	0	1	0	32.5600233638149	0
1.72	32.4932158640351	0	1	0	1	0	32.4932158640351	0
1.73	32.4283398831988	0	1	0	1	0	32.4283398831988	0
1.74	32.3653688199293	0	1	0	1	0	32.3653688199293	0
1.75	32.3042766808816	0	1	0	1	0	32.3042766808816	0
1.76	32.2450380634684	0	1	0	1	0	32.2450380634684	0
1.77	32.1876281391723	0	1	0	1	0	32.1876281391723	0
1.78	32.13202263742	0	1	0	1	0	32.13202263742	0
1.79	32.0781978299974	0	1	0	1	0	32.0781978299974	0
1.8	32.0261305159841	0	1	0	1	0	32.0261305159841	0
1.81	31.9757980071872	0	1	0	1	0	31.9757980071872	0
1.82	31.9271781140554	0	1	0	1	0	31.9271781140554	0
1.83	31.880249132055	0	1	0	1	0	31.880249132055	0
1.84	31.8349898284897	0	1	0	1	0	31.8349898284897	0
1.85	31.7913794297489	0	1	0	1	0	31.7913794297489	0
1.86	31.749397608966	0	1	0	1	0	31.749397608966	0
1.87	31.709024474074	0	1	0	1	0	31.709024474074	0
1.88	31.670240556241	0	1	0	1	0	31.670240556241	0
1.89	31.6330267986742	0	1	0	1	0	31.6330267986742	0
1.9	31.5973645457762	0	1	0	1	0	31.5973645457762	0
1.91	31.5632355326429	0	1	0	1	0	31.5632355326429	0
1.92	31.530621874889	0	1	0	1	0	31.530621874889	0
1.93	31.49950605879	0	1	0	1	0	31.49950605879	0
1.94	31.4698709317291	0	1	0	1	0	31.4698709317291	0
1.95	31.4416996929381	0	1	0	1	0	31.4416996929381	0
1.96	31.4149758845216	0	1	0	1	0	31.4149758845216	0
1.97	31.3896833827547	0	1	0	1	0	31.3896833827547	0
1.98	31.3658063896442	0	1	0	1	0	31.3658063896442	0
1.99	31.3433294247447	0	1	0	1	0	31.3433294247447	0
2	31.3222373172195	0	1	0	1	0	31.3222373172195	0
2.01	31.3025151981392	0	1	0	1	0	31.3025151981392	0
2.02	31.2841484930087	0	1	0	1	0	31.2841484930087	0
2.03	31.2671229145149	0	1	0	1	0	31.2671229145149	0
2.04	31.2514244554884	0	1	0	1	0	31.2514244554884	0
2.05	31.23703938207	0	1	0	1	0	31.23703938207	0
2.06	31.2239542270777	0	1	0	1	0	31.2239542270777	0
2.07	31.2121557835648	0	1	0	1	0	31.2121557835648	0
2.08	31.2016310985644	0	1	0	1	0	31.2016310985644	0
2.09	31.1923674670131	0	1	0	1	0	31.1923674670131	0
2.1	31.184352425849	0	1	0	1	0	31.184352425849	0
2.11	31.1775737482764	0	1	0	1	0	31.1775737482764	0
2.12	31.1720194381942	0	1	0	1	0	31.1720194381942	0
2.13	31.16767772478	0	1	0	1	0	31.16767772478	0
2.14	31.1645370572268	0	1	0	1	0	31.1645370572268	0
2.15	31.1625860996264	0	1	0	1	0	31.1625860996264	0
2.16	31.1618137259949	0	1	0	1	0	31.1618137259949	0
2.17	31.1622090154354	0	1	0	1	0	31.1622090154354	0
2.18	31.1637612474345	0	1	0	1	0	31.1637612474345	0
2.19	31.1664598972876	0	1	0	1	0	31.1664598972876	0
2.2	31.1702946316479	0	1	0	1	0	31.1702946316479	0
2.21	31.1752553041978	0	1	0	1	0	31.1752553041978	0
2.22	31.1813319514362	0	1	0	1	0	31.1813319514362	0
2.23	31.1885147885793	0	1	0	1	0	31.1885147885793	0
2.24	31.1967942055718	0	1	0	1	0	31.1967942055718	0
2.25	31.2061607632038	0	1	0	1	0	31.2061607632038	0
2.26	31.2166051893309	0	1	0	1	0	31.2166051893309	0
2.27	31.2281183751948	0	1	0	1	0	31.2281183751948	0
2.28	31.2406913718397	0	1	0	1	0	31.2406913718397	0
2.29	31.2543153866236	0	1	0	1	0	31.2543153866236	0
2.3	31.2689817798199	0	1	0	1	0	31.2689817798199	0
2.31	31.2846820613077	0	1	0	1	0	31.2846820613077	0
2.32	31.3014078873476	0	1	0	1	0	31.3014078873476	0
2.33	31.3191510574402	0	1	0	1	0	31.3191510574402	0
2.34	31.3379035112656	0	1	0	1	0	31.3379035112656	0
2.35	31.3576573257009	0	1	0	1	0	31.3576573257009	0
2.36	31.3784047119135	0	1	0	1	0	31.3784047119135	0
2.37	31.4001380125277	0	1	0	1	0	31.4001380125277	0
2.38	31.4228496988633	0	1	0	1	0	31.4228496988633	0
2.39	31.4465323682431	0	1	0	1	0	31.4465323682431	0
2.4	31.4711787413678	0	1	0	1	0	31.4711787413678	0
2.41	31.4967816597565	0	1	0	1	0	31.4967816597565	0
2.42	31.52333408325	0	1	0	1	0	31.52333408325	0
2.43	31.5508290875769	0	1	0	1	0	31.5508290875769	0
2.44	31.5792598619781	0	1	0	1	0	31.5792598619781	0
2.45	31.6086197068907	0	1	0	1	0	31.6086197068907	0
2.46	31.6389020316878	0	1	0	1	0	31.6389020316878	0
2.47	31.6701003524734	0	1	0	1	0	31.6701003524734	0
2.48	31.7022082899301	0	1	0	1	0	31.7022082899301	0
2.49	31.73521956722	0	1	0	1	0	31.73521956722	0
2.5	31.7691280079342	0	1	0	1	0	31.7691280079342	0
2.51	31.8039275340928	0	1	0	1	0	31.8039275340928	0
2.52	31.8396121641917	0	1	0	1	0	31.8396121641917	0
2.53	31.8761760112962	0	1	0	1	0	31.8761760112962	0
2.54	31.913613281179	0	1	0	1	0	31.913613281179	0
2.55	31.9519182705029	0	1	0	1	0	31.9519182705029	0
2.56	31.991085365045	0	1	0	1	0	31.991085365045	0
2.57	32.0311090379637	0	1	0	1	0	32.0311090379637	0
2.58	32.0719838481045	0	1	0	1	0	32.0719838481045	0
2.59	32.1137044383464	0	1	0	1	0	32.1137044383464	0
2.6	32.1562655339857	0	1	0	1	0	32.1562655339857	0
2.61	32.1996619411568	0	1	0	1	0	32.1996619411568	0
2.62	32.2438885452899	0	1	0	1	0	32.2438885452899	0
2.63	32.2889403096035	0	1	0	1	0	32.2889403096035	0
2.64	32.3348122736308	0	1	0	1	0	32.3348122736308	0
2.65	32.3814995517799	0	1	0	1	0	32.3814995517799	0
2.66	32.4289973319265	0	1	0	1	0	32.4289973319265	0
2.67	32.4773008740382	0	1	0	1	0	32.4773008740382	0
2.68	32.5264055088292	0	1	0	1	0	32.5264055088292	0
2.69	32.5763066364456	0	1	0	1	0	32.5763066364456	0
2.7	32.6269997251792	0	1	0	1	0	32.6269997251792	0
2.71	32.6784803102107	0	1	0	1	0	32.6784803102107	0
2.72	32.73074399238	0	1	0	1	0	32.73074399238	0
2.73	32.7837864369834	0	1	0	1	0	32.7837864369834	0
2.74	32.8376033725974	0	1	0	1	0	32.8376033725974	0
2.75	32.8921905899287	0	1	0	1	0	32.8921905899287	0
2.76	32.947543940688	0	1	0	1	0	32.947543940688	0
2.77	33.0036593364889	0	1	0	1	0	33.0036593364889	0
2.78	33.0605327477712	0	1	0	1	0	33.0605327477712	0
2.79	33.1181602027457	0	1	0	1	0	33.1181602027457	0
2.8	33.1765377863633	0	1	0	1	0	33.1765377863633	0
2.81	33.2356616393052	0	1	0	1	0	33.2356616393052	0
2.82	33.2955279569944	0	1	0	1	0	33.2955279569944	0
2.83	33.356132988629	0	1	0	1	0	33.356132988629	0
2.84	33.4174730362356	0	1	0	1	0	33.4174730362356	0
2.85	33.4795444537416	0	1	0	1	0	33.4795444537416	0
2.86	33.5423436460689	0	1	0	1	0	33.5423436460689	0
2.87	33.6058670682448	0	1	0	1	0	33.6058670682448	0
2.88	33.6701112245324	0	1	0	1	0	33.6701112245324	0
2.89	33.7350726675786	0	1	0	1	0	33.7350726675786	0
2.9	33.8007479975802	0	1	0	1	0	33.8007479975802	0
2.91	33.8671338614665	0	1	0	1	0	33.8671338614665	0
2.92	33.9342269520993	0	1	0	1	0	33.9342269520993	0
2.93	34.0020240074891	0	1	0	1	0	34.0020240074891	0
2.94	34.0705218100273	0	1	0	1	0	34.0705218100273	0
2.95	34.1397171857337	0	1	0	1	0	34.1397171857337	0
2.96	34.2096070035197	0	1	0	1	0	34.2096070035197	0
2.97	34.2801881744666	0	1	0	1	0	34.2801881744666	0
2.98	34.3514576511173	0	1	0	1	0	34.3514576511173	0
2.99	34.4234124267835	0	1	0	1	0	34.4234124267835	0
3	34.4960495348662	0	1	0	1	0	34.4960495348662	0
3.01	34.5693660481894	0	1	0	1	0	34.5693660481894	0
3.02	34.6433590783477	0	1	0	1	0	34.6433590783477	0
3.03	34.7180257750668	0	1	0	1	0	34.7180257750668	0
3.04	34.7933633255755	0	1	0	1	0	34.7933633255755	0
3.05	34.8693689539918	0	1	0	1	0	34.8693689539918	0
3.06	34.9460399207195	0	1	0	1	0	34.9460399207195	0
3.07	35.0233735218576	0	1	0	1	0	35.0233735218576	0
3.08	35.1013670886206	0	1	0	1	0	35.1013670886206	0
3.09	35.1800179867705	0	1	0	1	0	35.1800179867705	0
3.1	35.2593236160593	0	1	0	1	0	35.2593236160593	0
3.11	35.3392814096829	0	1	0	1	0	35.3392814096829	0
3.12	35.4198888337448	0	1	0	1	0	35.4198888337448	0
3.13	35.5011433867306	0	1	0	1	0	35.5011433867306	0
3.14	35.5830425989924	0	1	0	1	0	35.5830425989924	0
3.15	35.6655840322428	0	1	0	1	0	35.6655840322428	0
3.16	35.7487652790589	0	1	0	1	0	35.7487652790589	0
3.17	35.8325839623952	0	1	0	1	0	35.8325839623952	0
3.18	35.9170377351064	0	1	0	1	0	35.9170377351064	0
3.19	36.0021242794783	0	1	0	1	0	36.0021242794783	0
3.2	36.0878413067681	0	1	0	1	0	36.0878413067681	0
3.21	36.1741865567534	0	1	0	1	0	36.1741865567534	0
3.22	36.2611577972888	0	1	0	1	0	36.2611577972888	0
3.23	36.3487528238717	0	1	0	1	0	36.3487528238717	0
3.24	36.4369694592158	0	1	0	1	0	36.4369694592158	0
3.25	36.5258055528317	0	1	0	1	0	36.5258055528317	0
3.26	36.6152589806167	0	1	0	1	0	36.6152589806167	0
3.27	36.705327644451	0	1	0	1	0	36.705327644451	0
3.28	36.7960094718015	0	1	0	1	0	36.7960094718015	0
3.29	36.8873024153332	0	1	0	1	0	36.8873024153332	0
3.3	36.9792044525271	0	1	0	1	0	36.9792044525271	0
3.31	37.0717135853058	0	1	0	1	0	37.0717135853058	0
3.32	37.1648278396648	0	1	0	1	0	37.1648278396648	0
3.33	37.2585452653117	0	1	0	1	0	37.2585452653117	0
3.34	37.3528639353105	0	1	0	1	0	37.3528639353105	0
3.35	37.4477819457337	0	1	0	1	0	37.4477819457337	0
3.36	37.5432974153195	0	1	0	1	0	37.5432974153195	0
3.37	37.6394084851357	0	1	0	1	0	37.6394084851357	0
3.38	37.7361133182492	0	1	0	1	0	37.7361133182492	0
3.39	37.8334100994016	0	1	0	1	0	37.8334100994016	0
3.4	37.9312970346905	0	1	0	1	0	37.9312970346905	0
3.41	38.0297723512565	0	1	0	1	0	38.0297723512565	0
3.42	38.1288342969752	0	1	0	1	0	38.1288342969752	0
3.43	38.2284811401552	0	1	0	1	0	38.2284811401552	0
3.44	38.328711169241	0	1	0	1	0	38.328711169241	0
3.45	38.4295226925214	0	1	0	1	0	38.4295226925214	0
3.46	38.5309140378425	0	1	0	1	0	38.5309140378425	0
3.47	38.6328835523256	0	1	0	1	0	38.6328835523256	0
3.48	38.7354296020912	0	1	0	1	0	38.7354296020912	0
3.49	38.8385505719857	0	1	0	1	0	38.8385505719857	0
3.5	38.9422448653147	0	1	0	1	0	38.9422448653147	0
3.51	39.0465109035796	0	1	0	1	0	39.0465109035796	0
3.52	39.1513471262194	0	1	0	1	0	39.1513471262194	0
3.53	39.2567519903563	0	1	0	1	0	39.2567519903563	0
3.54	39.3627239705464	0	1	0	1	0	39.3627239705464	0
3.55	39.4692615585338	0	1	0	1	0	39.4692615585338	0
3.56	39.5763632630093	0	1	0	1	0	39.5763632630093	0
3.57	39.6840276093729	0	1	0	1	0	39.6840276093729	0
3.58	39.7922531395009	0	1	0	1	0	39.7922531395009	0
3.59	39.9010384115158	0	1	0	1	0	39.9010384115158	0
3.6	40.010381999561	0	1	0	1	0	40.010381999561	0
3.61	40.1202824935791	0	1	0	1	0	40.1202824935791	0
3.62	40.2307384990932	0	1	0	1	0	40.2307384990932	0
3.63	40.3417486369927	0	1	0	1	0	40.3417486369927	0
3.64	40.4533115433219	0	1	0	1	0	40.4533115433219	0
3.65	40.5654258690727	0	1	0	1	0	40.5654258690727	0
3.66	40.6780902799801	0	1	0	1	0	40.6780902799801	0
3.67	40.7913034563217	0	1	0	1	0	40.7913034563217	0
3.68	40.9050640927198	0	1	0	1	0	40.9050640927198	0
3.69	41.019370897947	0	1	0	1	0	41.019370897947	0
3.7	41.1342225947355	0	1	0	1	0	41.1342225947355	0
3.71	41.2496179195882	0	1	0	1	0	41.2496179195882	0
3.72	41.3655556225942	0	1	0	1	0	41.3655556225942	0
3.73	41.4820344672463	0	1	0	1	0	41.4820344672463	0
3.74	41.5990532302621	0	1	0	1	0	41.5990532302621	0
3.75	41.7166107014075	0	1	0	1	0	41.7166107014075	0
3.76	41.8347056833234	0	1	0	1	0	41.8347056833234	0
3.77	41.9533369913545	0	1	0	1	0	41.9533369913545	0
3.78	42.0725034533817	0	1	0	1	0	42.0725034533817	0
3.79	42.1922039096565	0	1	0	1	0	42.1922039096565	0
3.8	42.3124372126383	0	1	0	1	0	42.3124372126383	0
3.81	42.4332022268342	0	1	0	1	0	42.4332022268342	0
3.82	42.5544978286412	0	1	0	1	0	42.5544978286412	0
3.83	42.6763229061911	0	1	0	1	0	42.6763229061911	0
3.84	42.7986763591976	0	1	0	1	0	42.7986763591976	0
3.85	42.9215570988061	0	1	0	1	0	42.9215570988061	0
3.86	43.0449640474453	0	1	0	1	0	43.0449640474453	0
3.87	43.1688961386817	0	1	0	1	0	43.1688961386817	0
3.88	43.293352317076	0	1	0	1	0	43.293352317076	0
3.89	43.4183315380415	0	1	0	1	0	43.4183315380415	0
3.9	43.5438327677055	0	1	0	1	0	43.5438327677055	0
3.91	43.6698549827718	0	1	0	1	0	43.6698549827718	0
3.92	43.7963971703861	0	1	0	1	0	43.7963971703861	0
3.93	43.9234583280031	0	1	0	1	0	43.9234583280031	0
3.94	44.0510374632554	0	1	0	1	0	44.0510374632554	0
3.95	44.1791335938252	0	1	0	1	0	44.1791335938252	0
3.96	44.3077457473168	0	1	0	1	0	44.3077457473168	0
3.97	44.4368729611322	0	1	0	1	0	44.4368729611322	0
3.98	44.5665142823476	0	1	0	1	0	44.5665142823476	0
3.99	44.6966687675923	0	1	0	1	0	44.6966687675923	0
4	44.8273354829294	0	1	0	1	0	44.8273354829294	0
4.01	44.958513503738	0	1	0	1	0	44.958513503738	0
4.02	45.0902019145976	0	1	0	1	0	45.0902019145976	0
4.03	45.2223998091734	0	1	0	1	0	45.2223998091734	0
4.04	45.3551062901045	0	1	0	1	0	45.3551062901045	0
4.05	45.4883204688928	0	1	0	1	0	45.4883204688928	0
4.06	45.6220414657937	0	1	0	1	0	45.6220414657937	0
4.07	45.7562684097089	0	1	0	1	0	45.7562684097089	0
4.08	45.8910004380803	0	1	0	1	0	45.8910004380803	0
4.09	46.0262366967855	0	1	0	1	0	46.0262366967855	0
4.1	46.161976340035	0	1	0	1	0	46.161976340035	0
4.11	46.2982185302707	0	1	0	1	0	46.2982185302707	0
4.12	46.4349624380665	0	1	0	1	0	46.4349624380665	0
4.13	46.5722072420292	0	1	0	1	0	46.5722072420292	0
4.14	46.7099521287017	0	1	0	1	0	46.7099521287017	0
4.15	46.8481962924676	0	1	0	1	0	46.8481962924676	0
4.16	46.9869389354569	0	1	0	1	0	46.9869389354569	0
4.17	47.1261792674529	0	1	0	1	0	47.1261792674529	0
4.18	47.2659165058006	0	1	0	1	0	47.2659165058006	0
4.19	47.4061498753171	0	1	0	1	0	47.4061498753171	0
4.2	47.5468786082018	0	1	0	1	0	47.5468786082018	0
4.21	47.6881019439492	0	1	0	1	0	47.6881019439492	0
4.22	47.8298191292626	0	1	0	1	0	47.8298191292626	0
4.23	47.9720294179684	0	1	0	1	0	47.9720294179684	0
4.24	48.1147320709325	0	1	0	1	0	48.1147320709325	0
4.25	48.2579263559773	0	1	0	1	0	48.2579263559773	0
4.26	48.4016115478002	0	1	0	1	0	48.4016115478002	0
4.27	48.545786927893	0	1	0	1	0	48.545786927893	0
4.28	48.6904517844624	0	1	0	1	0	48.6904517844624	0
4.29	48.835605412352	0	1	0	1	0	48.835605412352	0
4.3	48.9812471129649	0	1	0	1	0	48.9812471129649	0
4.31	49.1273761941877	0	1	0	1	0	49.1273761941877	0
4.32	49.2739919703156	0	1	0	1	0	49.2739919703156	0
4.33	49.4210937619781	0	1	0	1	0	49.4210937619781	0
4.34	49.5686808960663	0	1	0	1	0	49.5686808960663	0
4.35	49.7167527056606	0	1	0	1	0	49.7167527056606	0
4.36	49.8653085299601	0	1	0	1	0	49.8653085299601	0
4.37	50.0143477142125	0	1	0	1	0	50.0143477142125	0
4.38	50.1638696096448	0	1	0	1	0	50.1638696096448	0
4.39	50.3138735733955	0	1	0	1	0	50.3138735733955	0
4.4	50.464358968447	0	1	0	1	0	50.464358968447	0
4.41	50.6153251635602	0	1	0	1	0	50.6153251635602	0
4.42	50.7667715332079	0	1	0	1	0	50.7667715332079	0
4.43	50.9186974575116	0	1	0	1	0	50.9186974575116	0
4.44	51.0711023221769	0	1	0	1	0	51.0711023221769	0
4.45	51.2239855184313	0	1	0	1	0	51.2239855184313	0
4.46	51.3773464429621	0	1	0	1	0	51.3773464429621	0
4.47	51.5311844978555	0	1	0	1	0	51.5311844978555	0
4.48	51.685499090536	0	1	0	1	0	51.685499090536	0
4.49	51.8402896337073	0	1	0	1	0	51.8402896337073	0
4.5	51.9955555452934	0	1	0	1	0	51.9955555452934	0
4.51	52.1512962483811	0	1	0	1	0	52.1512962483811	0
4.52	52.3075111711623	0	1	0	1	0	52.3075111711623	0
4.53	52.4641997468783	0	1	0	1	0	52.4641997468783	0
4.54	52.6213614137635	0	1	0	1	0	52.6213614137635	0
4.55	52.7789956149912	0	1	0	1	0	52.7789956149912	0
4.56	52.9371017986191	0	1	0	1	0	52.9371017986191	0
4.57	53.0956794175357	0	1	0	1	0	53.0956794175357	0
4.58	53.254727929408	0	1	0	1	0	53.254727929408	0
4.59	53.4142467966291	0	1	0	1	0	53.4142467966291	0
4.6	53.574235486267	0	1	0	1	0	53.574235486267	0
4.61	53.7346934700138	0	1	0	1	0	53.7346934700138	0
4.62	53.8956202241356	0	1	0	1	0	53.8956202241356	0
4.63	54.0570152294235	0	1	0	1	0	54.0570152294235	0
4.64	54.2188779711442	0	1	0	1	0	54.2188779711442	0
4.65	54.3812079389924	0	1	0	1	0	54.3812079389924	0
4.66	54.544004627043	0	1	0	1	0	54.544004627043	0
4.67	54.7072675337044	0	1	0	1	0	54.7072675337044	0
4.68	54.8709961616721	0	1	0	1	0	54.8709961616721	0
4.69	55.0351900178829	0	1	0	1	0	55.0351900178829	0
4.7	55.1998486134701	0	1	0	1	0	55.1998486134701	0
4.71	55.3649714637184	0	1	0	1	0	55.3649714637184	0
4.72	55.5305580880205	0	1	0	1	0	55.5305580880205	0
4.73	55.6966080098335	0	1	0	1	0	55.6966080098335	0
4.74	55.8631207566357	0	1	0	1	0	55.8631207566357	0
4.75	56.0300958598847	0	1	0	1	0	56.0300958598847	0
4.76	56.1975328549754	0	1	0	1	0	56.1975328549754	0
4.77	56.3654312811987	0	1	0	1	0	56.3654312811987	0
4.78	56.5337906817011	0	1	0	1	0	56.5337906817011	0
4.79	56.7026106034436	0	1	0	1	0	56.7026106034436	0
4.8	56.8718905971631	0	1	0	1	0	56.8718905971631	0
4.81	57.0416302173322	0	1	0	1	0	57.0416302173322	0
4.82	57.211829022121	0	1	0	1	0	57.211829022121	0
4.83	57.3824865733585	0	1	0	1	0	57.3824865733585	0
4.84	57.5536024364952	0	1	0	1	0	57.5536024364952	0
4.85	57.7251761805652	0	1	0	1	0	57.7251761805652	0
4.86	57.89720737815	0	1	0	1	0	57.89720737815	0
4.87	58.0696956053413	0	1	0	1	0	58.0696956053413	0
4.88	58.2426404417058	0	1	0	1	0	58.2426404417058	0
4.89	58.4160414702492	0	1	0	1	0	58.4160414702492	0
4.9	58.5898982773812	0	1	0	1	0	58.5898982773812	0
4.91	58.7642104528809	0	1	0	1	0	58.7642104528809	0
4.92	58.9389775898627	0	1	0	1	0	58.9389775898627	0
4.93	59.114199284742	0	1	0	1	0	59.114199284742	0
