# GHZ S RI R 50
1	66.2635100045141	0	1	0	1	0	66.2635100045141	0
1.01	65.7185468817566	0	1	0	1	0	65.7185468817566	0
1.02	65.185658034958	0	1	0	1	0	65.185658034958	0
1.03	64.6645054024327	0	1	0	1	0	64.6645054024327	0
1.04	64.154763924868	0	1	0	1	0	64.154763924868	0
1.05	63.6561209261628	0	1	0	1	0	63.6561209261628	0
1.06	63.1682755293143	0	1	0	1	0	63.1682755293143	0
1.07	62.6909381050582	0	1	0	1	0	62.6909381050582	0
1.08	62.2238297511398	0	1	0	1	0	62.2238297511398	0
1.09	61.7666818002497	0	1	0	1	0	61.7666818002497	0
1.1	61.3192353547987	0	1	0	1	0	61.3192353547987	0
1.11	60.8812408468405	0	1	0	1	0	60.8812408468405	0
1.12	60.4524576215699	0	1	0	1	0	60.4524576215699	0
1.13	60.0326535429355	0	1	0	1	0	60.0326535429355	0
1.14	59.621604620011	0	1	0	1	0	59.621604620011	0
1.15	59.2190946528583	0	1	0	1	0	59.2190946528583	0
1.16	58.82491489671	0	1	0	1	0	58.82491489671	0
1.17	58.4388637433719	0	1	0	1	0	58.4388637433719	0
1.18	58.0607464188256	0	1	0	1	0	58.0607464188256	0
1.19	57.6903746960787	0	1	0	1	0	57.6903746960787	0
1.2	57.327566622372	0	1	0	1	0	57.327566622372	0
1.21	56.9721462599134	0	1	0	1	0	56.9721462599134	0
1.22	56.6239434393629	0	1	0	1	0	56.6239434393629	0
1.23	56.2827935253431	0	1	0	1	0	56.2827935253431	0
1.24	55.9485371932949	0	1	0	1	0	55.9485371932949	0
1.25	55.6210202170453	0	1	0	1	0	55.6210202170453	0
1.26	55.3000932664902	0	1	0	1	0	55.3000932664902	0
1.27	54.9856117148357	0	1	0	1	0	54.9856117148357	0
1.28	54.6774354548756	0	1	0	1	0	54.6774354548756	0
1.29	54.3754287238129	0	1	0	1	0	54.3754287238129	0
1.3	54.0794599361675	0	1	0	1	0	54.0794599361675	0
1.31	53.7894015243366	0	1	0	1	0	53.7894015243366	0
1.32	53.5051297864022	0	1	0	1	0	53.5051297864022	0
1.33	53.2265247408049	0	1	0	1	0	53.2265247408049	0
1.34	52.9534699875244	0	1	0	1	0	52.9534699875244	0
1.35	52.6858525754296	0	1	0	1	0	52.6858525754296	0
1.36	52.4235628754819	0	1	0	1	0	52.4235628754819	0
1.37	52.1664944594902	0	1	0	1	0	52.1664944594902	0
1.38	51.9145439841387	0	1	0	1	0	51.9145439841387	0
1.39	51.6676110800199	0	1	0	1	0	51.6676110800199	0
1.4	51.4255982454237	0	1	0	1	0	51.4255982454237	0
1.41	51.1884107446459	0	1	0	1	0	51.1884107446459	0
1.42	50.9559565105937	0	1	0	1	0	50.9559565105937	0
1.43	50.7281460514777	0	1	0	1	0	50.7281460514777	0
1.44	50.5048923613914	0	1	0	1	0	50.5048923613914	0
1.45	50.2861108345913	0	1	0	1	0	50.2861108345913	0
1.46	50.0717191832994	0	1	0	1	0	50.0717191832994	0
1.47	49.8616373588611	0	1	0	1	0	49.8616373588611	0
1.48	49.6557874760987	0	1	0	1	0	49.6557874760987	0
1.49	49.4540937407119	0	1	0	1	0	49.4540937407119	0
1.5	49.2564823795818	0	1	0	1	0	49.2564823795818	0
1.51	49.0628815738442	0	1	0	1	0	49.0628815738442	0
1.52	48.8732213946049	0	1	0	1	0	48.8732213946049	0
1.53	48.6874337411765	0	1	0	1	0	48.6874337411765	0
1.54	48.5054522817201	0	1	0	1	0	48.5054522817201	0
1.55	48.3272123961865	0	1	0	1	0	48.3272123961865	0
1.56	48.1526511214509	0	1	0	1	0	48.1526511214509	0
1.57	47.9817070985442	0	1	0	1	0	47.9817070985442	0
1.58	47.8143205218893	0	1	0	1	0	47.8143205218893	0
1.59	47.6504330904518	0	1	0	1	0	47.6504330904518	0
1.6	47.4899879607229	0	1	0	1	0	47.4899879607229	0
1.61	47.3329297014554	0	1	0	1	0	47.3329297014554	0
1.62	47.1792042500744	0	1	0	1	0	47.1792042500744	0
1.63	47.0287588706941	0	1	0	1	0	47.0287588706941	0
1.64	46.88154211367	0	1	0	1	0	46.88154211367	0
1.65	46.7375037766215	0	1	0	1	0	46.7375037766215	0
1.66	46.596594866864	0	1	0	1	0	46.596594866864	0
1.67	46.4587675651903	0	1	0	1	0	46.4587675651903	0
1.68	46.3239751909458	0	1	0	1	0	46.3239751909458	0
1.69	46.1921721683436	0	1	0	1	0	46.1921721683436	0
1.7	46.063313993968	0	1	0	1	0	46.063313993968	0
1.71	45.937357205419	0	1	0	1	0	45.937357205419	0
1.72	45.8142593510502	0	1	0	1	0	45.8142593510502	0
1.73	45.693978960756	0	1	0	1	0	45.693978960756	0
1.74	45.5764755177665	0	1	0	1	0	45.5764755177665	0
1.75	45.4617094314097	0	1	0	1	0	45.4617094314097	0
1.76	45.3496420108012	0	1	0	1	0	45.3496420108012	0
1.77	45.2402354394272	0	1	0	1	0	45.2402354394272	0
1.78	45.1334527505831	0	1	0	1	0	45.1334527505831	0
1.79	45.0292578036358	0	1	0	1	0	45.0292578036358	0
1.8	44.9276152610775	0	1	0	1	0	44.9276152610775	0
1.81	44.8284905663398	0	1	0	1	0	44.8284905663398	0
1.82	44.7318499223392	0	1	0	1	0	44.7318499223392	0
1.83	44.6376602707264	0	1	0	1	0	44.6376602707264	0
1.84	44.5458892718119	0	1	0	1	0	44.5458892718119	0
1.85	44.4565052851424	0	1	0	1	0	44.4565052851424	0
1.86	44.369477350705	0	1	0	1	0	44.369477350705	0
1.87	44.2847751707326	0	1	0	1	0	44.2847751707326	0
1.88	44.2023690920916	0	1	0	1	0	44.2023690920916	0
1.89	44.122230089228	0	1	0	1	0	44.122230089228	0
1.9	44.0443297476521	0	1	0	1	0	44.0443297476521	0
1.91	43.9686402479419	0	1	0	1	0	43.9686402479419	0
1.92	43.8951343502468	0	1	0	1	0	43.8951343502468	0
1.93	43.8237853792728	0	1	0	1	0	43.8237853792728	0
1.94	43.7545672097317	0	1	0	1	0	43.7545672097317	0
1.95	43.6874542522388	0	1	0	1	0	43.6874542522388	0
1.96	43.6224214396419	0	1	0	1	0	43.6224214396419	0
1.97	43.5594442137661	0	1	0	1	0	43.5594442137661	0
1.98	43.4984985125617	0	1	0	1	0	43.4984985125617	0
1.99	43.4395607576379	0	1	0	1	0	43.4395607576379	0
2	43.382607842172	0	1	0	1	0	43.382607842172	0
2.01	43.3276171191784	0	1	0	1	0	43.3276171191784	0
2.02	43.2745663901268	0	1	0	1	0	43.2745663901268	0
2.03	43.2234338938962	0	1	0	1	0	43.2234338938962	0
2.04	43.1741982960544	0	1	0	1	0	43.1741982960544	0
2.05	43.1268386784506	0	1	0	1	0	43.1268386784506	0
2.06	43.081334529112	0	1	0	1	0	43.081334529112	0
2.07	43.0376657324321	0	1	0	1	0	43.0376657324321	0
2.08	42.9958125596433	0	1	0	1	0	42.9958125596433	0
2.09	42.9557556595617	0	1	0	1	0	42.9557556595617	0
2.1	42.9174760495977	0	1	0	1	0	42.9174760495977	0
2.11	42.880955107021	0	1	0	1	0	42.880955107021	0
2.12	42.8461745604738	0	1	0	1	0	42.8461745604738	0
2.13	42.8131164817222	0	1	0	1	0	42.8131164817222	0
2.14	42.7817632776395	0	1	0	1	0	42.7817632776395	0
2.15	42.752097682413	0	1	0	1	0	42.752097682413	0
2.16	42.7241027499674	0	1	0	1	0	42.7241027499674	0
2.17	42.6977618465972	0	1	0	1	0	42.6977618465972	0
2.18	42.6730586438028	0	1	0	1	0	42.6730586438028	0
2.19	42.6499771113218	0	1	0	1	0	42.6499771113218	0
2.2	42.6285015103511	0	1	0	1	0	42.6285015103511	0
2.21	42.6086163869531	0	1	0	1	0	42.6086163869531	0
2.22	42.5903065656393	0	1	0	1	0	42.5903065656393	0
2.23	42.5735571431272	0	1	0	1	0	42.5735571431272	0
2.24	42.5583534822645	0	1	0	1	0	42.5583534822645	0
2.25	42.544681206115	0	1	0	1	0	42.544681206115	0
2.26	42.5325261922013	0	1	0	1	0	42.5325261922013	0
2.27	42.5218745669005	0	1	0	1	0	42.5218745669005	0
2.28	42.5127126999863	0	1	0	1	0	42.5127126999863	0
2.29	42.5050271993153	0	1	0	1	0	42.5050271993153	0
2.3	42.4988049056507	0	1	0	1	0	42.4988049056507	0
2.31	42.4940328876213	0	1	0	1	0	42.4940328876213	0
2.32	42.4906984368106	0	1	0	1	0	42.4906984368106	0
2.33	42.4887890629724	0	1	0	1	0	42.4887890629724	0
2.34	42.4882924893689	0	1	0	1	0	42.4882924893689	0
2.35	42.4891966482281	0	1	0	1	0	42.4891966482281	0
2.36	42.4914896763165	0	1	0	1	0	42.4914896763165	0
2.37	42.495159910624	0	1	0	1	0	42.495159910624	0
2.38	42.5001958841573	0	1	0	1	0	42.5001958841573	0
2.39	42.5065863218394	0	1	0	1	0	42.5065863218394	0
2.4	42.5143201365115	0	1	0	1	0	42.5143201365115	0
2.41	42.5233864250335	0	1	0	1	0	42.5233864250335	0
2.42	42.533774464483	0	1	0	1	0	42.533774464483	0
2.43	42.5454737084464	0	1	0	1	0	42.5454737084464	0
2.44	42.5584737834021	0	1	0	1	0	42.5584737834021	0
2.45	42.5727644851921	0	1	0	1	0	42.5727644851921	0
2.46	42.5883357755798	0	1	0	1	0	42.5883357755798	0
2.47	42.605177778891	0	1	0	1	0	42.605177778891	0
2.48	42.6232807787367	0	1	0	1	0	42.6232807787367	0
2.49	42.6426352148143	0	1	0	1	0	42.6426352148143	0
2.5	42.6632316797863	0	1	0	1	0	42.6632316797863	0
2.51	42.6850609162325	0	1	0	1	0	42.6850609162325	0
2.52	42.7081138136764	0	1	0	1	0	42.7081138136764	0
2.53	42.7323814056803	0	1	0	1	0	42.7323814056803	0
2.54	42.7578548670103	0	1	0	1	0	42.7578548670103	0
2.55	42.7845255108677	0	1	0	1	0	42.7845255108677	0
2.56	42.8123847861847	0	1	0	1	0	42.8123847861847	0
2.57	42.8414242749845	0	1	0	1	0	42.8414242749845	0
2.58	42.8716356898012	0	1	0	1	0	42.8716356898012	0
2.59	42.9030108711609	0	1	0	1	0	42.9030108711609	0
2.6	42.9355417851197	0	1	0	1	0	42.9355417851197	0
2.61	42.9692205208598	0	1	0	1	0	42.9692205208598	0
2.62	43.0040392883388	0	1	0	1	0	43.0040392883388	0
2.63	43.0399904159943	0	1	0	1	0	43.0399904159943	0
2.64	43.0770663484996	0	1	0	1	0	43.0770663484996	0
2.65	43.1152596445706	0	1	0	1	0	43.1152596445706	0
2.66	43.1545629748223	0	1	0	1	0	43.1545629748223	0
2.67	43.1949691196732	0	1	0	1	0	43.1949691196732	0
2.68	43.2364709672967	0	1	0	1	0	43.2364709672967	0
2.69	43.2790615116183	0	1	0	1	0	43.2790615116183	0
2.7	43.3227338503573	0	1	0	1	0	43.3227338503573	0
2.71	43.3674811831116	0	1	0	1	0	43.3674811831116	0
2.72	43.4132968094849	0	1	0	1	0	43.4132968094849	0
2.73	43.4601741272553	0	1	0	1	0	43.4601741272553	0
2.74	43.5081066305838	0	1	0	1	0	43.5081066305838	0
2.75	43.5570879082617	0	1	0	1	0	43.5570879082617	0
2.76	43.6071116419962	0	1	0	1	0	43.6071116419962	0
2.77	43.6581716047337	0	1	0	1	0	43.6581716047337	0
2.78	43.7102616590184	0	1	0	1	0	43.7102616590184	0
2.79	43.7633757553864	0	1	0	1	0	43.7633757553864	0
2.8	43.8175079307951	0	1	0	1	0	43.8175079307951	0
2.81	43.872652307085	0	1	0	1	0	43.872652307085	0
2.82	43.9288030894745	0	1	0	1	0	43.9288030894745	0
2.83	43.9859545650873	0	1	0	1	0	43.9859545650873	0
2.84	44.0441011015101	0	1	0	1	0	44.0441011015101	0
2.85	44.1032371453808	0	1	0	1	0	44.1032371453808	0
2.86	44.1633572210071	0	1	0	1	0	44.1633572210071	0
2.87	44.2244559290125	0	1	0	1	0	44.2244559290125	0
2.88	44.2865279450123	0	1	0	1	0	44.2865279450123	0
2.89	44.3495680183153	0	1	0	1	0	44.3495680183153	0
2.9	44.4135709706539	0	1	0	1	0	44.4135709706539	0
2.91	44.4785316949394	0	1	0	1	0	44.4785316949394	0
2.92	44.5444451540431	0	1	0	1	0	44.5444451540431	0
2.93	44.6113063796026	0	1	0	1	0	44.6113063796026	0
2.94	44.6791104708524	0	1	0	1	0	44.6791104708524	0
2.95	44.7478525934779	0	1	0	1	0	44.7478525934779	0
2.96	44.817527978493	0	1	0	1	0	44.817527978493	0
2.97	44.8881319211407	0	1	0	1	0	44.8881319211407	0
2.98	44.9596597798149	0	1	0	1	0	44.9596597798149	0
2.99	45.0321069750044	0	1	0	1	0	45.0321069750044	0
3	45.1054689882584	0	1	0	1	0	45.1054689882584	0
3.01	45.1797413611719	0	1	0	1	0	45.1797413611719	0
3.02	45.2549196943915	0	1	0	1	0	45.2549196943915	0
3.03	45.3309996466413	0	1	0	1	0	45.3309996466413	0
3.04	45.4079769337672	0	1	0	1	0	45.4079769337672	0
3.05	45.4858473278009	0	1	0	1	0	45.4858473278009	0
3.06	45.5646066560417	0	1	0	1	0	45.5646066560417	0
3.07	45.644250800156	0	1	0	1	0	45.644250800156	0
3.08	45.7247756952955	0	1	0	1	0	45.7247756952955	0
3.09	45.806177329231	0	1	0	1	0	45.806177329231	0
3.1	45.8884517415042	0	1	0	1	0	45.8884517415042	0
3.11	45.9715950225949	0	1	0	1	0	45.9715950225949	0
3.12	46.0556033131051	0	1	0	1	0	46.0556033131051	0
3.13	46.1404728029584	0	1	0	1	0	46.1404728029584	0
3.14	46.226199730614	0	1	0	1	0	46.226199730614	0
3.15	46.3127803822969	0	1	0	1	0	46.3127803822969	0
3.16	46.400211091242	0	1	0	1	0	46.400211091242	0
3.17	46.4884882369525	0	1	0	1	0	46.4884882369525	0
3.18	46.5776082444722	0	1	0	1	0	46.5776082444722	0
3.19	46.6675675836721	0	1	0	1	0	46.6675675836721	0
3.2	46.75836276855	0	1	0	1	0	46.75836276855	0
3.21	46.8499903565427	0	1	0	1	0	46.8499903565427	0
3.22	46.9424469478519	0	1	0	1	0	46.9424469478519	0
3.23	47.0357291847819	0	1	0	1	0	47.0357291847819	0
3.24	47.1298337510903	0	1	0	1	0	47.1298337510903	0
3.25	47.2247573713499	0	1	0	1	0	47.2247573713499	0
3.26	47.3204968103226	0	1	0	1	0	47.3204968103226	0
3.27	47.4170488723453	0	1	0	1	0	47.4170488723453	0
3.28	47.5144104007263	0	1	0	1	0	47.5144104007263	0
3.29	47.6125782771531	0	1	0	1	0	47.6125782771531	0
3.3	47.7115494211111	0	1	0	1	0	47.7115494211111	0
3.31	47.8113207893123	0	1	0	1	0	47.8113207893123	0
3.32	47.9118893751348	0	1	0	1	0	47.9118893751348	0
3.33	48.0132522080724	0	1	0	1	0	48.0132522080724	0
3.34	48.1154063531938	0	1	0	1	0	48.1154063531938	0
3.35	48.2183489106116	0	1	0	1	0	48.2183489106116	0
3.36	48.3220770149608	0	1	0	1	0	48.3220770149608	0
3.37	48.4265878348869	0	1	0	1	0	48.4265878348869	0
3.38	48.5318785725422	0	1	0	1	0	48.5318785725422	0
3.39	48.6379464630925	0	1	0	1	0	48.6379464630925	0
3.4	48.7447887742304	0	1	0	1	0	48.7447887742304	0
3.41	48.8524028056995	0	1	0	1	0	48.8524028056995	0
3.42	48.9607858888252	0	1	0	1	0	48.9607858888252	0
3.43	49.0699353860545	0	1	0	1	0	49.0699353860545	0
3.44	49.1798486905035	0	1	0	1	0	49.1798486905035	0
3.45	49.2905232255132	0	1	0	1	0	49.2905232255132	0
3.46	49.4019564442124	0	1	0	1	0	49.4019564442124	0
3.47	49.5141458290889	0	1	0	1	0	49.5141458290889	0
3.48	49.6270888915671	0	1	0	1	0	49.6270888915671	0
3.49	49.740783171594	0	1	0	1	0	49.740783171594	0
3.5	49.8552262372315	0	1	0	1	0	49.8552262372315	0
3.51	49.9704156842556	0	1	0	1	0	49.9704156842556	0
3.52	50.0863491357634	0	1	0	1	0	50.0863491357634	0
3.53	50.2030242417855	0	1	0	1	0	50.2030242417855	0
3.54	50.3204386789059	0	1	0	1	0	50.3204386789059	0
3.55	50.438590149888	0	1	0	1	0	50.438590149888	0
3.56	50.5574763833068	0	1	0	1	0	50.5574763833068	0
3.57	50.6770951331873	0	1	0	1	0	50.6770951331873	0
3.58	50.7974441786494	0	1	0	1	0	50.7974441786494	0
3.59	50.9185213235581	0	1	0	1	0	50.9185213235581	0
3.6	51.0403243961799	0	1	0	1	0	51.0403243961799	0
3.61	51.1628512488448	0	1	0	1	0	51.1628512488448	0
3.62	51.286099757614	0	1	0	1	0	51.286099757614	0
3.63	51.410067821953	0	1	0	1	0	51.410067821953	0
3.64	51.5347533644101	0	1	0	1	0	51.5347533644101	0
3.65	51.6601543303001	0	1	0	1	0	51.6601543303001	0
3.66	51.7862686873934	0	1	0	1	0	51.7862686873934	0
3.67	51.9130944256102	0	1	0	1	0	51.9130944256102	0
3.68	52.0406295567192	0	1	0	1	0	52.0406295567192	0
3.69	52.1688721140419	0	1	0	1	0	52.1688721140419	0
3.7	52.297820152161	0	1	0	1	0	52.297820152161	0
3.71	52.4274717466342	0	1	0	1	0	52.4274717466342	0
3.72	52.5578249937121	0	1	0	1	0	52.5578249937121	0
3.73	52.6888780100608	0	1	0	1	0	52.6888780100608	0
3.74	52.8206289324891	0	1	0	1	0	52.8206289324891	0
3.75	52.9530759176797	0	1	0	1	0	52.9530759176797	0
3.76	53.0862171419252	0	1	0	1	0	53.0862171419252	0
3.77	53.2200508008678	0	1	0	1	0	53.2200508008678	0
3.78	53.3545751092433	0	1	0	1	0	53.3545751092433	0
3.79	53.4897883006298	0	1	0	1	0	53.4897883006298	0
3.8	53.6256886271987	0	1	0	1	0	53.6256886271987	0
3.81	53.7622743594717	0	1	0	1	0	53.7622743594717	0
3.82	53.8995437860803	0	1	0	1	0	53.8995437860803	0
3.83	54.0374952135289	0	1	0	1	0	54.0374952135289	0
3.84	54.1761269659628	0	1	0	1	0	54.1761269659628	0
3.85	54.3154373849387	0	1	0	1	0	54.3154373849387	0
3.86	54.4554248291992	0	1	0	1	0	54.4554248291992	0
3.87	54.5960876744508	0	1	0	1	0	54.5960876744508	0
3.88	54.7374243131454	0	1	0	1	0	54.7374243131454	0
3.89	54.8794331542649	0	1	0	1	0	54.8794331542649	0
3.9	55.0221126231092	0	1	0	1	0	55.0221126231092	0
3.91	55.1654611610878	0	1	0	1	0	55.1654611610878	0
3.92	55.3094772255142	0	1	0	1	0	55.3094772255142	0
3.93	55.4541592894035	0	1	0	1	0	55.4541592894035	0
3.94	55.5995058412732	0	1	0	1	0	55.5995058412732	0
3.95	55.745515384947	0	1	0	1	0	55.745515384947	0
3.96	55.8921864393613	0	1	0	1	0	55.8921864393613	0
3.97	56.0395175383752	0	1	0	1	0	56.0395175383752	0
3.98	56.187507230583	0	1	0	1	0	56.187507230583	0
3.99	56.3361540791292	0	1	0	1	0	56.3361540791292	0
4	56.485456661527	0	1	0	1	0	56.485456661527	0
4.01	56.635413569479	0	1	0	1	0	56.635413569479	0
4.02	56.7860234087006	0	1	0	1	0	56.7860234087006	0
4.03	56.9372847987464	0	1	0	1	0	56.9372847987464	0
4.04	57.0891963728386	0	1	0	1	0	57.0891963728386	0
4.05	57.2417567776985	0	1	0	1	0	57.2417567776985	0
4.06	57.3949646733804	0	1	0	1	0	57.3949646733804	0
4.07	57.5488187331072	0	1	0	1	0	57.5488187331072	0
4.08	57.7033176431099	0	1	0	1	0	57.7033176431099	0
4.09	57.8584601024677	0	1	0	1	0	57.8584601024677	0
4.1	58.0142448229519	0	1	0	1	0	58.0142448229519	0
4.11	58.1706705288712	0	1	0	1	0	58.1706705288712	0
4.12	58.3277359569198	0	1	0	1	0	58.3277359569198	0
4.13	58.4854398560271	0	1	0	1	0	58.4854398560271	0
4.14	58.6437809872104	0	1	0	1	0	58.6437809872104	0
4.15	58.8027581234288	0	1	0	1	0	58.8027581234288	0
4.16	58.9623700494399	0	1	0	1	0	58.9623700494399	0
4.17	59.1226155616584	0	1	0	1	0	59.1226155616584	0
4.18	59.2834934680164	0	1	0	1	0	59.2834934680164	0
4.19	59.4450025878264	0	1	0	1	0	59.4450025878264	0
4.2	59.6071417516451	0	1	0	1	0	59.6071417516451	0
4.21	59.7699098011408	0	1	0	1	0	59.7699098011408	0
4.22	59.9333055889609	0	1	0	1	0	59.9333055889609	0
4.23	60.0973279786025	0	1	0	1	0	60.0973279786025	0
4.24	60.2619758442847	0	1	0	1	0	60.2619758442847	0
4.25	60.4272480708218	0	1	0	1	0	60.4272480708218	0
4.26	60.5931435534996	0	1	0	1	0	60.5931435534996	0
4.27	60.7596611979525	0	1	0	1	0	60.7596611979525	0
4.28	60.9267999200424	0	1	0	1	0	60.9267999200424	0
4.29	61.09455864574	0	1	0	1	0	61.09455864574	0
4.3	61.2629363110067	0	1	0	1	0	61.2629363110067	0
4.31	61.4319318616792	0	1	0	1	0	61.4319318616792	0
4.32	61.6015442533548	0	1	0	1	0	61.6015442533548	0
4.33	61.7717724512789	0	1	0	1	0	61.7717724512789	0
4.34	61.942615430234	0	1	0	1	0	61.942615430234	0
4.35	62.1140721744295	0	1	0	1	0	62.1140721744295	0
4.36	62.2861416773944	0	1	0	1	0	62.2861416773944	0
4.37	62.4588229418699	0	1	0	1	0	62.4588229418699	0
4.38	62.6321149797049	0	1	0	1	0	62.6321149797049	0
4.39	62.8060168117516	0	1	0	1	0	62.8060168117516	0
4.4	62.9805274677639	0	1	0	1	0	62.9805274677639	0
4.41	63.1556459862959	0	1	0	1	0	63.1556459862959	0
4.42	63.3313714146027	0	1	0	1	0	63.3313714146027	0
4.43	63.5077028085418	0	1	0	1	0	63.5077028085418	0
4.44	63.6846392324768	0	1	0	1	0	63.6846392324768	0
4.45	63.8621797591814	0	1	0	1	0	63.8621797591814	0
4.46	64.0403234697452	0	1	0	1	0	64.0403234697452	0
4.47	64.2190694534808	0	1	0	1	0	64.2190694534808	0
4.48	64.3984168078318	0	1	0	1	0	64.3984168078318	0
4.49	64.5783646382824	0	1	0	1	0	64.5783646382824	0
4.5	64.7589120582682	0	1	0	1	0	64.7589120582682	0
4.51	64.9400581890878	0	1	0	1	0	64.9400581890878	0
4.52	65.1218021598159	0	1	0	1	0	65.1218021598159	0
4.53	65.3041431072176	0	1	0	1	0	65.3041431072176	0
4.54	65.4870801756634	0	1	0	1	0	65.4870801756634	0
4.55	65.6706125170461	0	1	0	1	0	65.6706125170461	0
4.56	65.8547392906977	0	1	0	1	0	65.8547392906977	0
4.57	66.0394596633086	0	1	0	1	0	66.0394596633086	0
4.58	66.2247728088469	0	1	0	1	0	66.2247728088469	0
4.59	66.4106779084792	0	1	0	1	0	66.4106779084792	0
4.6	66.5971741504926	0	1	0	1	0	66.5971741504926	0
4.61	66.784260730217	0	1	0	1	0	66.784260730217	0
4.62	66.9719368499493	0	1	0	1	0	66.9719368499493	0
4.63	67.160201718878	0	1	0	1	0	67.160201718878	0
4.64	67.3490545530088	0	1	0	1	0	67.3490545530088	0
4.65	67.5384945750915	0	1	0	1	0	67.5384945750915	0
4.66	67.7285210145478	0	1	0	1	0	67.7285210145478	0
4.67	67.9191331073993	0	1	0	1	0	67.9191331073993	0
4.68	68.1103300961976	0	1	0	1	0	68.1103300961976	0
4.69	68.3021112299542	0	1	0	1	0	68.3021112299542	0
4.7	68.4944757640721	0	1	0	1	0	68.4944757640721	0
4.71	68.6874229602779	0	1	0	1	0	68.6874229602779	0
4.72	68.8809520865546	0	1	0	1	0	68.8809520865546	0
4.73	69.0750624170757	0	1	0	1	0	69.0750624170757	0
4.74	69.2697532321399	0	1	0	1	0	69.2697532321399	0
4.75	69.4650238181064	0	1	0	1	0	69.4650238181064	0
4.76	69.6608734673316	0	1	0	1	0	69.6608734673316	0
4.77	69.8573014781056	0	1	0	1	0	69.8573014781056	0
4.78	70.054307154591	0	1	0	1	0	70.054307154591	0
4.79	70.2518898067609	0	1	0	1	0	70.2518898067609	0
4.8	70.4500487503388	0	1	0	1	0	70.4500487503388	0
4.81	70.6487833067383	0	1	0	1	0	70.6487833067383	0
4.82	70.8480928030049	0	1	0	1	0	70.8480928030049	0
4.83	71.0479765717568	0	1	0	1	0	71.0479765717568	0
4.84	71.2484339511281	0	1	0	1	0	71.2484339511281	0
4.85	71.4494642847113	0	1	0	1	0	71.4494642847113	0
4.86	71.6510669215016	0	1	0	1	0	71.6510669215016	0
4.87	71.8532412158413	0	1	0	1	0	71.8532412158413	0
4.88	72.0559865273647	0	1	0	1	0	72.0559865273647	0
4.89	72.2593022209446	0	1	0	1	0	72.2593022209446	0
4.9	72.4631876666383	0	1	0	1	0	72.4631876666383	0
4.91	72.6676422396351	0	1	0	1	0	72.6676422396351	0
4.92	72.8726653202041	0	1	0	1	0	72.8726653202041	0
4.93	73.0782562936425	0	1	0	1	0	73.0782562936425	0
