# GHZ S RI R 50
1	56.6762896603312	0	1	0	1	0	56.6762896603312	0
1.01	56.1750043878007	0	1	0	1	0	56.1750043878007	0
1.02	55.6844915063518	0	1	0	1	0	55.6844915063518	0
1.03	55.2044465056363	0	1	0	1	0	55.2044465056363	0
1.04	54.7345765872424	0	1	0	1	0	54.7345765872424	0
1.05	54.2746001069836	0	1	0	1	0	54.2746001069836	0
1.06	53.8242460487559	0	1	0	1	0	53.8242460487559	0
1.07	53.3832535278983	0	1	0	1	0	53.3832535278983	0
1.08	52.9513713221449	0	1	0	1	0	52.9513713221449	0
1.09	52.5283574283954	0	1	0	1	0	52.5283574283954	0
1.1	52.1139786436621	0	1	0	1	0	52.1139786436621	0
1.11	51.7080101686688	0	1	0	1	0	51.7080101686688	0
1.12	51.3102352326847	0	1	0	1	0	51.3102352326847	0
1.13	50.9204447382794	0	1	0	1	0	50.9204447382794	0
1.14	50.5384369247742	0	1	0	1	0	50.5384369247742	0
1.15	50.1640170492533	0	1	0	1	0	50.1640170492533	0
1.16	49.7969970840738	0	1	0	1	0	49.7969970840738	0
1.17	49.4371954298884	0	1	0	1	0	49.4371954298884	0
1.18	49.0844366432597	0	1	0	1	0	49.0844366432597	0
1.19	48.7385511780088	0	1	0	1	0	48.7385511780088	0
1.2	48.399375139496	0	1	0	1	0	48.399375139496	0
1.21	48.0667500510864	0	1	0	1	0	48.0667500510864	0
1.22	47.7405226321003	0	1	0	1	0	47.7405226321003	0
1.23	47.4205445865953	0	1	0	1	0	47.4205445865953	0
1.24	47.1066724023694	0	1	0	1	0	47.1066724023694	0
1.25	46.7987671596109	0	1	0	1	0	46.7987671596109	0
1.26	46.4966943486609	0	1	0	1	0	46.4966943486609	0
1.27	46.2003236963851	0	1	0	1	0	46.2003236963851	0
1.28	45.9095290006848	0	1	0	1	0	45.9095290006848	0
1.29	45.6241879727046	0	1	0	1	0	45.6241879727046	0
1.3	45.3441820863231	0	1	0	1	0	45.3441820863231	0
1.31	45.069396434537	0	1	0	1	0	45.069396434537	0
1.32	44.7997195923737	0	1	0	1	0	44.7997195923737	0
1.33	44.5350434859873	0	1	0	1	0	44.5350434859873	0
1.34	44.275263267617	0	1	0	1	0	44.275263267617	0
1.35	44.0202771961022	0	1	0	1	0	44.0202771961022	0
1.36	43.7699865226696	0	1	0	1	0	43.7699865226696	0
1.37	43.5242953817215	0	1	0	1	0	43.5242953817215	0
1.38	43.2831106863734	0	1	0	1	0	43.2831106863734	0
1.39	43.0463420284999	0	1	0	1	0	43.0463420284999	0
1.4	42.813901583065	0	1	0	1	0	42.813901583065	0
1.41	42.585704016523	0	1	0	1	0	42.585704016523	0
1.42	42.3616663990902	0	1	0	1	0	42.3616663990902	0
1.43	42.1417081206969	0	1	0	1	0	42.1417081206969	0
1.44	41.9257508104422	0	1	0	1	0	41.9257508104422	0
1.45	41.713718259381	0	1	0	1	0	41.713718259381	0
1.46	41.5055363464846	0	1	0	1	0	41.5055363464846	0
1.47	41.3011329676228	0	1	0	1	0	41.3011329676228	0
1.48	41.100437967426	0	1	0	1	0	41.100437967426	0
1.49	40.90338307389	0	1	0	1	0	40.90338307389	0
1.5	40.7099018355974	0	1	0	1	0	40.7099018355974	0
1.51	40.5199295614334	0	1	0	1	0	40.5199295614334	0
1.52	40.3334032626807	0	1	0	1	0	40.3334032626807	0
1.53	40.1502615973861	0	1	0	1	0	40.1502615973861	0
1.54	39.9704448168937	0	1	0	1	0	39.9704448168937	0
1.55	39.7938947144486	0	1	0	1	0	39.7938947144486	0
1.56	39.6205545757766	0	1	0	1	0	39.6205545757766	0
1.57	39.4503691315533	0	1	0	1	0	39.4503691315533	0
1.58	39.2832845116776	0	1	0	1	0	39.2832845116776	0
1.59	39.1192482012711	0	1	0	1	0	39.1192482012711	0
1.6	38.9582089983273	0	1	0	1	0	38.9582089983273	0
1.61	38.8001169729395	0	1	0	1	0	38.8001169729395	0
1.62	38.6449234280378	0	1	0	1	0	38.6449234280378	0
1.63	38.4925808615728	0	1	0	1	0	38.4925808615728	0
1.64	38.3430429300815	0	1	0	1	0	38.3430429300815	0
1.65	38.1962644135786	0	1	0	1	0	38.1962644135786	0
1.66	38.0522011817174	0	1	0	1	0	38.0522011817174	0
1.67	37.9108101611653	0	1	0	1	0	37.9108101611653	0
1.68	37.772049304145	0	1	0	1	0	37.772049304145	0
1.69	37.6358775580933	0	1	0	1	0	37.6358775580933	0
1.7	37.5022548363894	0	1	0	1	0	37.5022548363894	0
1.71	37.3711419901112	0	1	0	1	0	37.3711419901112	0
1.72	37.2425007807769	0	1	0	1	0	37.2425007807769	0
1.73	37.1162938540311	0	1	0	1	0	37.1162938540311	0
1.74	36.9924847142395	0	1	0	1	0	36.9924847142395	0
1.75	36.8710376999536	0	1	0	1	0	36.8710376999536	0
1.76	36.7519179602124	0	1	0	1	0	36.7519179602124	0
1.77	36.6350914316472	0	1	0	1	0	36.6350914316472	0
1.78	36.5205248163583	0	1	0	1	0	36.5205248163583	0
1.79	36.4081855605331	0	1	0	1	0	36.4081855605331	0
1.8	36.2980418337771	0	1	0	1	0	36.2980418337771	0
1.81	36.19006250913	0	1	0	1	0	36.19006250913	0
1.82	36.0842171437404	0	1	0	1	0	36.0842171437404	0
1.83	35.9804759601743	0	1	0	1	0	35.9804759601743	0
1.84	35.8788098283336	0	1	0	1	0	35.8788098283336	0
1.85	35.7791902479598	0	1	0	1	0	35.7791902479598	0
1.86	35.6815893317034	0	1	0	1	0	35.6815893317034	0
1.87	35.5859797887356	0	1	0	1	0	35.5859797887356	0
1.88	35.4923349088836	0	1	0	1	0	35.4923349088836	0
1.89	35.4006285472693	0	1	0	1	0	35.4006285472693	0
1.9	35.310835109433	0	1	0	1	0	35.310835109433	0
1.91	35.2229295369247	0	1	0	1	0	35.2229295369247	0
1.92	35.1368872933454	0	1	0	1	0	35.1368872933454	0
1.93	35.0526843508226	0	1	0	1	0	35.0526843508226	0
1.94	34.9702971769037	0	1	0	1	0	34.9702971769037	0
1.95	34.8897027218531	0	1	0	1	0	34.8897027218531	0
1.96	34.8108784063381	0	1	0	1	0	34.8108784063381	0
1.97	34.7338021094894	0	1	0	1	0	34.7338021094894	0
1.98	34.6584521573242	0	1	0	1	0	34.6584521573242	0
1.99	34.5848073115175	0	1	0	1	0	34.5848073115175	0
2	34.5128467585108	0	1	0	1	0	34.5128467585108	0
2.01	34.4425500989458	0	1	0	1	0	34.4425500989458	0
2.02	34.3738973374118	0	1	0	1	0	34.3738973374118	0
2.03	34.3068688724964	0	1	0	1	0	34.3068688724964	0
2.04	34.2414454871288	0	1	0	1	0	34.2414454871288	0
2.05	34.1776083392051	0	1	0	1	0	34.1776083392051	0
2.06	34.1153389524878	0	1	0	1	0	34.1153389524878	0
2.07	34.0546192077679	0	1	0	1	0	34.0546192077679	0
2.08	33.9954313342829	0	1	0	1	0	33.9954313342829	0
2.09	33.9377579013805	0	1	0	1	0	33.9377579013805	0
2.1	33.8815818104208	0	1	0	1	0	33.8815818104208	0
2.11	33.8268862869089	0	1	0	1	0	33.8268862869089	0
2.12	33.7736548728496	0	1	0	1	0	33.7736548728496	0
2.13	33.7218714193181	0	1	0	1	0	33.7218714193181	0
2.14	33.6715200792387	0	1	0	1	0	33.6715200792387	0
2.15	33.622585300365	0	1	0	1	0	33.622585300365	0
2.16	33.5750518184552	0	1	0	1	0	33.5750518184552	0
2.17	33.5289046506359	0	1	0	1	0	33.5289046506359	0
2.18	33.4841290889489	0	1	0	1	0	33.4841290889489	0
2.19	33.4407106940745	0	1	0	1	0	33.4407106940745	0
2.2	33.398635289226	0	1	0	1	0	33.398635289226	0
2.21	33.3578889542103	0	1	0	1	0	33.3578889542103	0
2.22	33.3184580196484	0	1	0	1	0	33.3184580196484	0
2.23	33.2803290613521	0	1	0	1	0	33.2803290613521	0
2.24	33.2434888948507	0	1	0	1	0	33.2434888948507	0
2.25	33.2079245700643	0	1	0	1	0	33.2079245700643	0
2.26	33.1736233661177	0	1	0	1	0	33.1736233661177	0
2.27	33.1405727862922	0	1	0	1	0	33.1405727862922	0
2.28	33.10876055311	0	1	0	1	0	33.10876055311	0
2.29	33.0781746035466	0	1	0	1	0	33.0781746035466	0
2.3	33.0488030843697	0	1	0	1	0	33.0488030843697	0
2.31	33.0206343475975	0	1	0	1	0	33.0206343475975	0
2.32	32.9936569460755	0	1	0	1	0	32.9936569460755	0
2.33	32.9678596291669	0	1	0	1	0	32.9678596291669	0
2.34	32.9432313385535	0	1	0	1	0	32.9432313385535	0
2.35	32.9197612041438	0	1	0	1	0	32.9197612041438	0
2.36	32.8974385400852	0	1	0	1	0	32.8974385400852	0
2.37	32.8762528408768	0	1	0	1	0	32.8762528408768	0
2.38	32.8561937775811	0	1	0	1	0	32.8561937775811	0
2.39	32.8372511941294	0	1	0	1	0	32.8372511941294	0
2.4	32.8194151037213	0	1	0	1	0	32.8194151037213	0
2.41	32.8026756853121	0	1	0	1	0	32.8026756853121	0
2.42	32.7870232801884	0	1	0	1	0	32.7870232801884	0
2.43	32.7724483886282	0	1	0	1	0	32.7724483886282	0
2.44	32.7589416666425	0	1	0	1	0	32.7589416666425	0
2.45	32.7464939227972	0	1	0	1	0	32.7464939227972	0
2.46	32.7350961151125	0	1	0	1	0	32.7350961151125	0
2.47	32.7247393480374	0	1	0	1	0	32.7247393480374	0
2.48	32.7154148694973	0	1	0	1	0	32.7154148694973	0
2.49	32.7071140680136	0	1	0	1	0	32.7071140680136	0
2.5	32.6998284698911	0	1	0	1	0	32.6998284698911	0
2.51	32.6935497364736	0	1	0	1	0	32.6935497364736	0
2.52	32.6882696614645	0	1	0	1	0	32.6882696614645	0
2.53	32.683980168311	0	1	0	1	0	32.683980168311	0
2.54	32.6806733076502	0	1	0	1	0	32.6806733076502	0
2.55	32.6783412548151	0	1	0	1	0	32.6783412548151	0
2.56	32.676976307399	0	1	0	1	0	32.676976307399	0
2.57	32.676570882877	0	1	0	1	0	32.676570882877	0
2.58	32.677117516283	0	1	0	1	0	32.677117516283	0
2.59	32.6786088579397	0	1	0	1	0	32.6786088579397	0
2.6	32.6810376712417	0	1	0	1	0	32.6810376712417	0
2.61	32.6843968304897	0	1	0	1	0	32.6843968304897	0
2.62	32.6886793187735	0	1	0	1	0	32.6886793187735	0
2.63	32.6938782259039	0	1	0	1	0	32.6938782259039	0
2.64	32.6999867463919	0	1	0	1	0	32.6999867463919	0
2.65	32.7069981774723	0	1	0	1	0	32.7069981774723	0
2.66	32.714905917174	0	1	0	1	0	32.714905917174	0
2.67	32.7237034624313	0	1	0	1	0	32.7237034624313	0
2.68	32.7333844072394	0	1	0	1	0	32.7333844072394	0
2.69	32.7439424408502	0	1	0	1	0	32.7439424408502	0
2.7	32.7553713460079	0	1	0	1	0	32.7553713460079	0
2.71	32.7676649972246	0	1	0	1	0	32.7676649972246	0
2.72	32.7808173590928	0	1	0	1	0	32.7808173590928	0
2.73	32.7948224846361	0	1	0	1	0	32.7948224846361	0
2.74	32.8096745136952	0	1	0	1	0	32.8096745136952	0
2.75	32.8253676713496	0	1	0	1	0	32.8253676713496	0
2.76	32.8418962663729	0	1	0	1	0	32.8418962663729	0
2.77	32.8592546897231	0	1	0	1	0	32.8592546897231	0
2.78	32.8774374130632	0	1	0	1	0	32.8774374130632	0
2.79	32.8964389873161	0	1	0	1	0	32.8964389873161	0
2.8	32.9162540412481	0	1	0	1	0	32.9162540412481	0
2.81	32.9368772800848	0	1	0	1	0	32.9368772800848	0
2.82	32.9583034841547	0	1	0	1	0	32.9583034841547	0
2.83	32.9805275075628	0	1	0	1	0	32.9805275075628	0
2.84	33.0035442768912	0	1	0	1	0	33.0035442768912	0
2.85	33.0273487899282	0	1	0	1	0	33.0273487899282	0
2.86	33.0519361144228	0	1	0	1	0	33.0519361144228	0
2.87	33.0773013868663	0	1	0	1	0	33.0773013868663	0
2.88	33.1034398112989	0	1	0	1	0	33.1034398112989	0
2.89	33.1303466581406	0	1	0	1	0	33.1303466581406	0
2.9	33.1580172630471	0	1	0	1	0	33.1580172630471	0
2.91	33.1864470257888	0	1	0	1	0	33.1864470257888	0
2.92	33.2156314091529	0	1	0	1	0	33.2156314091529	0
2.93	33.2455659378682	0	1	0	1	0	33.2455659378682	0
2.94	33.2762461975513	0	1	0	1	0	33.2762461975513	0
2.95	33.3076678336752	0	1	0	1	0	33.3076678336752	0
2.96	33.3398265505575	0	1	0	1	0	33.3398265505575	0
2.97	33.3727181103704	0	1	0	1	0	33.3727181103704	0
2.98	33.4063383321694	0	1	0	1	0	33.4063383321694	0
2.99	33.4406830909427	0	1	0	1	0	33.4406830909427	0
3	33.4757483166783	0	1	0	1	0	33.4757483166783	0
3.01	33.5115299934511	0	1	0	1	0	33.5115299934511	0
3.02	33.5480241585268	0	1	0	1	0	33.5480241585268	0
3.03	33.5852269014844	0	1	0	1	0	33.5852269014844	0
3.04	33.6231343633562	0	1	0	1	0	33.6231343633562	0
3.05	33.6617427357834	0	1	0	1	0	33.6617427357834	0
3.06	33.7010482601899	0	1	0	1	0	33.7010482601899	0
3.07	33.7410472269714	0	1	0	1	0	33.7410472269714	0
3.08	33.7817359747001	0	1	0	1	0	33.7817359747001	0
3.09	33.8231108893453	0	1	0	1	0	33.8231108893453	0
3.1	33.8651684035091	0	1	0	1	0	33.8651684035091	0
3.11	33.9079049956765	0	1	0	1	0	33.9079049956765	0
3.12	33.95131718948	0	1	0	1	0	33.95131718948	0
3.13	33.9954015529787	0	1	0	1	0	33.9954015529787	0
3.14	34.0401546979505	0	1	0	1	0	34.0401546979505	0
3.15	34.0855732791986	0	1	0	1	0	34.0855732791986	0
3.16	34.1316539938701	0	1	0	1	0	34.1316539938701	0
3.17	34.1783935807889	0	1	0	1	0	34.1783935807889	0
3.18	34.2257888197996	0	1	0	1	0	34.2257888197996	0
3.19	34.2738365311252	0	1	0	1	0	34.2738365311252	0
3.2	34.3225335747358	0	1	0	1	0	34.3225335747358	0
3.21	34.3718768497296	0	1	0	1	0	34.3718768497296	0
3.22	34.4218632937252	0	1	0	1	0	34.4218632937252	0
3.23	34.4724898822657	0	1	0	1	0	34.4724898822657	0
3.24	34.523753628233	0	1	0	1	0	34.523753628233	0
3.25	34.5756515812735	0	1	0	1	0	34.5756515812735	0
3.26	34.6281808272344	0	1	0	1	0	34.6281808272344	0
3.27	34.6813384876099	0	1	0	1	0	34.6813384876099	0
3.28	34.7351217189979	0	1	0	1	0	34.7351217189979	0
3.29	34.7895277125667	0	1	0	1	0	34.7895277125667	0
3.3	34.8445536935309	0	1	0	1	0	34.8445536935309	0
3.31	34.9001969206374	0	1	0	1	0	34.9001969206374	0
3.32	34.9564546856601	0	1	0	1	0	34.9564546856601	0
3.33	35.0133243129041	0	1	0	1	0	35.0133243129041	0
3.34	35.070803158719	0	1	0	1	0	35.070803158719	0
3.35	35.1288886110202	0	1	0	1	0	35.1288886110202	0
3.36	35.1875780888192	0	1	0	1	0	35.1875780888192	0
3.37	35.2468690417628	0	1	0	1	0	35.2468690417628	0
3.38	35.306758949679	0	1	0	1	0	35.306758949679	0
3.39	35.3672453221327	0	1	0	1	0	35.3672453221327	0
3.4	35.4283256979879	0	1	0	1	0	35.4283256979879	0
3.41	35.4899976449783	0	1	0	1	0	35.4899976449783	0
3.42	35.552258759285	0	1	0	1	0	35.552258759285	0
3.43	35.6151066651222	0	1	0	1	0	35.6151066651222	0
3.44	35.6785390143293	0	1	0	1	0	35.6785390143293	0
3.45	35.7425534859709	0	1	0	1	0	35.7425534859709	0
3.46	35.8071477859432	0	1	0	1	0	35.8071477859432	0
3.47	35.8723196465873	0	1	0	1	0	35.8723196465873	0
3.48	35.9380668263094	0	1	0	1	0	35.9380668263094	0
3.49	36.0043871092074	0	1	0	1	0	36.0043871092074	0
3.5	36.0712783047038	0	1	0	1	0	36.0712783047038	0
3.51	36.1387382471847	0	1	0	1	0	36.1387382471847	0
3.52	36.2067647956458	0	1	0	1	0	36.2067647956458	0
3.53	36.2753558333432	0	1	0	1	0	36.2753558333432	0
3.54	36.3445092674511	0	1	0	1	0	36.3445092674511	0
3.55	36.4142230287248	0	1	0	1	0	36.4142230287248	0
3.56	36.4844950711698	0	1	0	1	0	36.4844950711698	0
3.57	36.5553233717155	0	1	0	1	0	36.5553233717155	0
3.58	36.6267059298957	0	1	0	1	0	36.6267059298957	0
3.59	36.6986407675334	0	1	0	1	0	36.6986407675334	0
3.6	36.7711259284314	0	1	0	1	0	36.7711259284314	0
3.61	36.8441594780679	0	1	0	1	0	36.8441594780679	0
3.62	36.9177395032969	0	1	0	1	0	36.9177395032969	0
3.63	36.9918641120539	0	1	0	1	0	36.9918641120539	0
3.64	37.0665314330664	0	1	0	1	0	37.0665314330664	0
3.65	37.1417396155689	0	1	0	1	0	37.1417396155689	0
3.66	37.217486829023	0	1	0	1	0	37.217486829023	0
3.67	37.2937712628415	0	1	0	1	0	37.2937712628415	0
3.68	37.3705911261175	0	1	0	1	0	37.3705911261175	0
3.69	37.4479446473579	0	1	0	1	0	37.4479446473579	0
3.7	37.5258300742208	0	1	0	1	0	37.5258300742208	0
3.71	37.6042456732573	0	1	0	1	0	37.6042456732573	0
3.72	37.683189729658	0	1	0	1	0	37.683189729658	0
3.73	37.7626605470028	0	1	0	1	0	37.7626605470028	0
3.74	37.8426564470149	0	1	0	1	0	37.8426564470149	0
3.75	37.9231757693194	0	1	0	1	0	37.9231757693194	0
3.76	38.0042168712049	0	1	0	1	0	38.0042168712049	0
3.77	38.0857781273893	0	1	0	1	0	38.0857781273893	0
3.78	38.1678579297891	0	1	0	1	0	38.1678579297891	0
3.79	38.2504546872928	0	1	0	1	0	38.2504546872928	0
3.8	38.3335668255375	0	1	0	1	0	38.3335668255375	0
3.81	38.417192786689	0	1	0	1	0	38.417192786689	0
3.82	38.5013310292253	0	1	0	1	0	38.5013310292253	0
3.83	38.5859800277241	0	1	0	1	0	38.5859800277241	0
3.84	38.6711382726528	0	1	0	1	0	38.6711382726528	0
3.85	38.7568042701624	0	1	0	1	0	38.7568042701624	0
3.86	38.8429765418839	0	1	0	1	0	38.8429765418839	0
3.87	38.9296536247288	0	1	0	1	0	38.9296536247288	0
3.88	39.0168340706921	0	1	0	1	0	39.0168340706921	0
3.89	39.1045164466582	0	1	0	1	0	39.1045164466582	0
3.9	39.1926993342099	0	1	0	1	0	39.1926993342099	0
3.91	39.281381329441	0	1	0	1	0	39.281381329441	0
3.92	39.3705610427707	0	1	0	1	0	39.3705610427707	0
3.93	39.4602370987616	0	1	0	1	0	39.4602370987616	0
3.94	39.55040813594	0	1	0	1	0	39.55040813594	0
3.95	39.6410728066194	0	1	0	1	0	39.6410728066194	0
3.96	39.7322297767263	0	1	0	1	0	39.7322297767263	0
3.97	39.8238777256286	0	1	0	1	0	39.8238777256286	0
3.98	39.9160153459671	0	1	0	1	0	39.9160153459671	0
3.99	40.0086413434887	0	1	0	1	0	40.0086413434887	0
4	40.1017544368832	0	1	0	1	0	40.1017544368832	0
4.01	40.1953533576211	0	1	0	1	0	40.1953533576211	0
4.02	40.2894368497954	0	1	0	1	0	40.2894368497954	0
4.03	40.3840036699646	0	1	0	1	0	40.3840036699646	0
4.04	40.4790525869984	0	1	0	1	0	40.4790525869984	0
4.05	40.574582381926	0	1	0	1	0	40.574582381926	0
4.06	40.6705918477861	0	1	0	1	0	40.6705918477861	0
4.07	40.7670797894792	0	1	0	1	0	40.7670797894792	0
4.08	40.8640450236229	0	1	0	1	0	40.8640450236229	0
4.09	40.9614863784077	0	1	0	1	0	40.9614863784077	0
4.1	41.0594026934569	0	1	0	1	0	41.0594026934569	0
4.11	41.1577928196867	0	1	0	1	0	41.1577928196867	0
4.12	41.2566556191694	0	1	0	1	0	41.2566556191694	0
4.13	41.3559899649987	0	1	0	1	0	41.3559899649987	0
4.14	41.4557947411559	0	1	0	1	0	41.4557947411559	0
4.15	41.5560688423795	0	1	0	1	0	41.5560688423795	0
4.16	41.6568111740352	0	1	0	1	0	41.6568111740352	0
4.17	41.7580206519889	0	1	0	1	0	41.7580206519889	0
4.18	41.859696202481	0	1	0	1	0	41.859696202481	0
4.19	41.9618367620026	0	1	0	1	0	41.9618367620026	0
4.2	42.0644412771735	0	1	0	1	0	42.0644412771735	0
4.21	42.1675087046217	0	1	0	1	0	42.1675087046217	0
4.22	42.2710380108651	0	1	0	1	0	42.2710380108651	0
4.23	42.3750281721945	0	1	0	1	0	42.3750281721945	0
4.24	42.4794781745583	0	1	0	1	0	42.4794781745583	0
4.25	42.5843870134489	0	1	0	1	0	42.5843870134489	0
4.26	42.6897536937908	0	1	0	1	0	42.6897536937908	0
4.27	42.7955772298297	0	1	0	1	0	42.7955772298297	0
4.28	42.9018566450245	0	1	0	1	0	42.9018566450245	0
4.29	43.008590971939	0	1	0	1	0	43.008590971939	0
4.3	43.1157792521364	0	1	0	1	0	43.1157792521364	0
4.31	43.2234205360752	0	1	0	1	0	43.2234205360752	0
4.32	43.3315138830055	0	1	0	1	0	43.3315138830055	0
4.33	43.4400583608684	0	1	0	1	0	43.4400583608684	0
4.34	43.5490530461952	0	1	0	1	0	43.5490530461952	0
4.35	43.6584970240087	0	1	0	1	0	43.6584970240087	0
4.36	43.7683893877263	0	1	0	1	0	43.7683893877263	0
4.37	43.8787292390634	0	1	0	1	0	43.8787292390634	0
4.38	43.989515687939	0	1	0	1	0	43.989515687939	0
4.39	44.1007478523822	0	1	0	1	0	44.1007478523822	0
4.4	44.2124248584399	0	1	0	1	0	44.2124248584399	0
4.41	44.3245458400862	0	1	0	1	0	44.3245458400862	0
4.42	44.4371099391325	0	1	0	1	0	44.4371099391325	0
4.43	44.5501163051389	0	1	0	1	0	44.5501163051389	0
4.44	44.6635640953273	0	1	0	1	0	44.6635640953273	0
4.45	44.7774524744951	0	1	0	1	0	44.7774524744951	0
4.46	44.8917806149302	0	1	0	1	0	44.8917806149302	0
4.47	45.0065476963274	0	1	0	1	0	45.0065476963274	0
4.48	45.1217529057058	0	1	0	1	0	45.1217529057058	0
4.49	45.2373954373268	0	1	0	1	0	45.2373954373268	0
4.5	45.3534744926142	0	1	0	1	0	45.3534744926142	0
4.51	45.4699892800742	0	1	0	1	0	45.4699892800742	0
4.52	45.5869390152177	0	1	0	1	0	45.5869390152177	0
4.53	45.7043229204825	0	1	0	1	0	45.7043229204825	0
4.54	45.8221402251572	0	1	0	1	0	45.8221402251572	0
4.55	45.9403901653058	0	1	0	1	0	45.9403901653058	0
4.56	46.0590719836935	0	1	0	1	0	46.0590719836935	0
4.57	46.1781849297136	0	1	0	1	0	46.1781849297136	0
4.58	46.2977282593146	0	1	0	1	0	46.2977282593146	0
4.59	46.4177012349293	0	1	0	1	0	46.4177012349293	0
4.6	46.5381031254041	0	1	0	1	0	46.5381031254041	0
4.61	46.6589332059295	0	1	0	1	0	46.6589332059295	0
4.62	46.7801907579713	0	1	0	1	0	46.7801907579713	0
4.63	46.901875069203	0	1	0	1	0	46.901875069203	0
4.64	47.0239854334389	0	1	0	1	0	47.0239854334389	0
4.65	47.1465211505679	0	1	0	1	0	47.1465211505679	0
4.66	47.2694815264885	0	1	0	1	0	47.2694815264885	0
4.67	47.3928658730444	0	1	0	1	0	47.3928658730444	0
4.68	47.516673507961	0	1	0	1	0	47.516673507961	0
4.69	47.6409037547826	0	1	0	1	0	47.6409037547826	0
4.7	47.7655559428106	0	1	0	1	0	47.7655559428106	0
4.71	47.8906294070424	0	1	0	1	0	47.8906294070424	0
4.72	48.016123488111	0	1	0	1	0	48.016123488111	0
4.73	48.1420375322254	0	1	0	1	0	48.1420375322254	0
4.74	48.2683708911119	0	1	0	1	0	48.2683708911119	0
4.75	48.3951229219557	0	1	0	1	0	48.3951229219557	0
4.76	48.5222929873443	0	1	0	1	0	48.5222929873443	0
4.77	48.6498804552098	0	1	0	1	0	48.6498804552098	0
4.78	48.7778846987741	0	1	0	1	0	48.7778846987741	0
4.79	48.9063050964927	0	1	0	1	0	48.9063050964927	0
4.8	49.0351410320009	0	1	0	1	0	49.0351410320009	0
4.81	49.1643918940596	0	1	0	1	0	49.1643918940596	0
4.82	49.2940570765024	0	1	0	1	0	49.2940570765024	0
4.83	49.4241359781827	0	1	0	1	0	49.4241359781827	0
4.84	49.554628002922	0	1	0	1	0	49.554628002922	0
4.85	49.6855325594591	0	1	0	1	0	49.6855325594591	0
4.86	49.8168490613987	0	1	0	1	0	49.8168490613987	0
4.87	49.9485769271622	0	1	0	1	0	49.9485769271622	0
4.88	50.0807155799379	0	1	0	1	0	50.0807155799379	0
4.89	50.2132644476324	0	1	0	1	0	50.2132644476324	0
4.9	50.3462229628225	0	1	0	1	0	50.3462229628225	0
4.91	50.4795905627076	0	1	0	1	0	50.4795905627076	0
4.92	50.6133666890627	0	1	0	1	0	50.6133666890627	0
4.93	50.747550788192	0	1	0	1	0	50.747550788192	0
