# GHZ S RI R 50
1	64.6758771384809	0	1	0	1	0	64.6758771384809	0
1.01	64.1120803295566	0	1	0	1	0	64.1120803295566	0
1.02	63.5604542067288	0	1	0	1	0	63.5604542067288	0
1.03	63.02065522472	0	1	0	1	0	63.02065522472	0
1.04	62.4923530515325	0	1	0	1	0	62.4923530515325	0
1.05	61.9752299392445	0	1	0	1	0	61.9752299392445	0
1.06	61.4689801304222	0	1	0	1	0	61.4689801304222	0
1.07	60.9733092978158	0	1	0	1	0	60.9733092978158	0
1.08	60.4879340151852	0	1	0	1	0	60.4879340151852	0
1.09	60.0125812572529	0	1	0	1	0	60.0125812572529	0
1.1	59.5469879269334	0	1	0	1	0	59.5469879269334	0
1.11	59.0909004081174	0	1	0	1	0	59.0909004081174	0
1.12	58.6440741424135	0	1	0	1	0	58.6440741424135	0
1.13	58.2062732283649	0	1	0	1	0	58.2062732283649	0
1.14	57.7772700417585	0	1	0	1	0	57.7772700417585	0
1.15	57.3568448757454	0	1	0	1	0	57.3568448757454	0
1.16	56.9447855995749	0	1	0	1	0	56.9447855995749	0
1.17	56.5408873348295	0	1	0	1	0	56.5408873348295	0
1.18	56.1449521481229	0	1	0	1	0	56.1449521481229	0
1.19	55.7567887592919	0	1	0	1	0	55.7567887592919	0
1.2	55.3762122641789	0	1	0	1	0	55.3762122641789	0
1.21	55.00304387116	0	1	0	1	0	55.00304387116	0
1.22	54.6371106506321	0	1	0	1	0	54.6371106506321	0
1.23	54.278245296719	0	1	0	1	0	54.278245296719	0
1.24	53.9262859005081	0	1	0	1	0	53.9262859005081	0
1.25	53.5810757341722	0	1	0	1	0	53.5810757341722	0
1.26	53.2424630453705	0	1	0	1	0	53.2424630453705	0
1.27	52.9103008613636	0	1	0	1	0	52.9103008613636	0
1.28	52.5844468023101	0	1	0	1	0	52.5844468023101	0
1.29	52.2647629032474	0	1	0	1	0	52.2647629032474	0
1.3	51.9511154442889	0	1	0	1	0	51.9511154442889	0
1.31	51.6433747885978	0	1	0	1	0	51.6433747885978	0
1.32	51.3414152277262	0	1	0	1	0	51.3414152277262	0
1.33	51.0451148339315	0	1	0	1	0	51.0451148339315	0
1.34	50.7543553191053	0	1	0	1	0	50.7543553191053	0
1.35	50.4690218999719	0	1	0	1	0	50.4690218999719	0
1.36	50.1890031692343	0	1	0	1	0	50.1890031692343	0
1.37	49.9141909723634	0	1	0	1	0	49.9141909723634	0
1.38	49.644480289744	0	1	0	1	0	49.644480289744	0
1.39	49.379769123908	0	1	0	1	0	49.379769123908	0
1.4	49.1199583916006	0	1	0	1	0	49.1199583916006	0
1.41	48.8649518204397	0	1	0	1	0	48.8649518204397	0
1.42	48.6146558499411	0	1	0	1	0	48.6146558499411	0
1.43	48.3689795366971	0	1	0	1	0	48.3689795366971	0
1.44	48.127834463506	0	1	0	1	0	48.127834463506	0
1.45	47.891134652261	0	1	0	1	0	47.891134652261	0
1.46	47.6587964804201	0	1	0	1	0	47.6587964804201	0
1.47	47.4307386008844	0	1	0	1	0	47.4307386008844	0
1.48	47.2068818651255	0	1	0	1	0	47.2068818651255	0
1.49	46.9871492494075	0	1	0	1	0	46.9871492494075	0
1.5	46.7714657839609	0	1	0	1	0	46.7714657839609	0
1.51	46.5597584849703	0	1	0	1	0	46.5597584849703	0
1.52	46.3519562892471	0	1	0	1	0	46.3519562892471	0
1.53	46.1479899914638	0	1	0	1	0	46.1479899914638	0
1.54	45.9477921838337	0	1	0	1	0	45.9477921838337	0
1.55	45.7512971981263	0	1	0	1	0	45.7512971981263	0
1.56	45.5584410499115	0	1	0	1	0	45.5584410499115	0
1.57	45.3691613849358	0	1	0	1	0	45.3691613849358	0
1.58	45.1833974275347	0	1	0	1	0	45.1833974275347	0
1.59	45.0010899309909	0	1	0	1	0	45.0010899309909	0
1.6	44.8221811297551	0	1	0	1	0	44.8221811297551	0
1.61	44.6466146934471	0	1	0	1	0	44.6466146934471	0
1.62	44.4743356825602	0	1	0	1	0	44.4743356825602	0
1.63	44.3052905057963	0	1	0	1	0	44.3052905057963	0
1.64	44.1394268789623	0	1	0	1	0	44.1394268789623	0
1.65	43.9766937853606	0	1	0	1	0	43.9766937853606	0
1.66	43.8170414376118	0	1	0	1	0	43.8170414376118	0
1.67	43.6604212408483	0	1	0	1	0	43.6604212408483	0
1.68	43.5067857572233	0	1	0	1	0	43.5067857572233	0
1.69	43.3560886716794	0	1	0	1	0	43.3560886716794	0
1.7	43.2082847589251	0	1	0	1	0	43.2082847589251	0
1.71	43.0633298515703	0	1	0	1	0	43.0633298515703	0
1.72	42.9211808093739	0	1	0	1	0	42.9211808093739	0
1.73	42.7817954895567	0	1	0	1	0	42.7817954895567	0
1.74	42.6451327181392	0	1	0	1	0	42.6451327181392	0
1.75	42.5111522622613	0	1	0	1	0	42.5111522622613	0
1.76	42.3798148034462	0	1	0	1	0	42.3798148034462	0
1.77	42.2510819117702	0	1	0	1	0	42.2510819117702	0
1.78	42.1249160209034	0	1	0	1	0	42.1249160209034	0
1.79	42.0012804039868	0	1	0	1	0	42.0012804039868	0
1.8	41.8801391503142	0	1	0	1	0	41.8801391503142	0
1.81	41.7614571427858	0	1	0	1	0	41.7614571427858	0
1.82	41.6452000361063	0	1	0	1	0	41.6452000361063	0
1.83	41.5313342356974	0	1	0	1	0	41.5313342356974	0
1.84	41.4198268772975	0	1	0	1	0	41.4198268772975	0
1.85	41.3106458072236	0	1	0	1	0	41.3106458072236	0
1.86	41.2037595632701	0	1	0	1	0	41.2037595632701	0
1.87	41.0991373562194	0	1	0	1	0	41.0991373562194	0
1.88	40.9967490519437	0	1	0	1	0	40.9967490519437	0
1.89	40.8965651540747	0	1	0	1	0	40.8965651540747	0
1.9	40.7985567872201	0	1	0	1	0	40.7985567872201	0
1.91	40.7026956807079	0	1	0	1	0	40.7026956807079	0
1.92	40.6089541528385	0	1	0	1	0	40.6089541528385	0
1.93	40.5173050956261	0	1	0	1	0	40.5173050956261	0
1.94	40.4277219600126	0	1	0	1	0	40.4277219600126	0
1.95	40.3401787415361	0	1	0	1	0	40.3401787415361	0
1.96	40.2546499664376	0	1	0	1	0	40.2546499664376	0
1.97	40.1711106781922	0	1	0	1	0	40.1711106781922	0
1.98	40.0895364244469	0	1	0	1	0	40.0895364244469	0
1.99	40.0099032443536	0	1	0	1	0	40.0099032443536	0
2	39.9321876562808	0	1	0	1	0	39.9321876562808	0
2.01	39.8563666458934	0	1	0	1	0	39.8563666458934	0
2.02	39.7824176545857	0	1	0	1	0	39.7824176545857	0
2.03	39.7103185682564	0	1	0	1	0	39.7103185682564	0
2.04	39.6400477064142	0	1	0	1	0	39.6400477064142	0
2.05	39.5715838116016	0	1	0	1	0	39.5715838116016	0
2.06	39.5049060391274	0	1	0	1	0	39.5049060391274	0
2.07	39.4399939470964	0	1	0	1	0	39.4399939470964	0
2.08	39.3768274867266	0	1	0	1	0	39.3768274867266	0
2.09	39.3153869929449	0	1	0	1	0	39.3153869929449	0
2.1	39.2556531752509	0	1	0	1	0	39.2556531752509	0
2.11	39.197607108841	0	1	0	1	0	39.197607108841	0
2.12	39.1412302259832	0	1	0	1	0	39.1412302259832	0
2.13	39.0865043076356	0	1	0	1	0	39.0865043076356	0
2.14	39.0334114752989	0	1	0	1	0	39.0334114752989	0
2.15	38.981934183097	0	1	0	1	0	38.981934183097	0
2.16	38.9320552100777	0	1	0	1	0	38.9320552100777	0
2.17	38.8837576527254	0	1	0	1	0	38.8837576527254	0
2.18	38.837024917681	0	1	0	1	0	38.837024917681	0
2.19	38.7918407146602	0	1	0	1	0	38.7918407146602	0
2.2	38.7481890495659	0	1	0	1	0	38.7481890495659	0
2.21	38.7060542177869	0	1	0	1	0	38.7060542177869	0
2.22	38.6654207976779	0	1	0	1	0	38.6654207976779	0
2.23	38.626273644215	0	1	0	1	0	38.626273644215	0
2.24	38.5885978828213	0	1	0	1	0	38.5885978828213	0
2.25	38.5523789033567	0	1	0	1	0	38.5523789033567	0
2.26	38.5176023542676	0	1	0	1	0	38.5176023542676	0
2.27	38.4842541368914	0	1	0	1	0	38.4842541368914	0
2.28	38.4523203999103	0	1	0	1	0	38.4523203999103	0
2.29	38.421787533951	0	1	0	1	0	38.421787533951	0
2.3	38.3926421663249	0	1	0	1	0	38.3926421663249	0
2.31	38.3648711559052	0	1	0	1	0	38.3648711559052	0
2.32	38.3384615881361	0	1	0	1	0	38.3384615881361	0
2.33	38.3134007701711	0	1	0	1	0	38.3134007701711	0
2.34	38.2896762261352	0	1	0	1	0	38.2896762261352	0
2.35	38.2672756925089	0	1	0	1	0	38.2672756925089	0
2.36	38.246187113629	0	1	0	1	0	38.246187113629	0
2.37	38.2263986373032	0	1	0	1	0	38.2263986373032	0
2.38	38.2078986105359	0	1	0	1	0	38.2078986105359	0
2.39	38.1906755753606	0	1	0	1	0	38.1906755753606	0
2.4	38.174718264777	0	1	0	1	0	38.174718264777	0
2.41	38.1600155987889	0	1	0	1	0	38.1600155987889	0
2.42	38.1465566805405	0	1	0	1	0	38.1465566805405	0
2.43	38.1343307925482	0	1	0	1	0	38.1343307925482	0
2.44	38.1233273930248	0	1	0	1	0	38.1233273930248	0
2.45	38.1135361122939	0	1	0	1	0	38.1135361122939	0
2.46	38.1049467492918	0	1	0	1	0	38.1049467492918	0
2.47	38.0975492681541	0	1	0	1	0	38.0975492681541	0
2.48	38.0913337948852	0	1	0	1	0	38.0913337948852	0
2.49	38.086290614108	0	1	0	1	0	38.086290614108	0
2.5	38.0824101658913	0	1	0	1	0	38.0824101658913	0
2.51	38.0796830426536	0	1	0	1	0	38.0796830426536	0
2.52	38.0780999861399	0	1	0	1	0	38.0780999861399	0
2.53	38.0776518844708	0	1	0	1	0	38.0776518844708	0
2.54	38.0783297692612	0	1	0	1	0	38.0783297692612	0
2.55	38.0801248128063	0	1	0	1	0	38.0801248128063	0
2.56	38.0830283253344	0	1	0	1	0	38.0830283253344	0
2.57	38.0870317523232	0	1	0	1	0	38.0870317523232	0
2.58	38.0921266718784	0	1	0	1	0	38.0921266718784	0
2.59	38.0983047921738	0	1	0	1	0	38.0983047921738	0
2.6	38.1055579489497	0	1	0	1	0	38.1055579489497	0
2.61	38.1138781030692	0	1	0	1	0	38.1138781030692	0
2.62	38.1232573381301	0	1	0	1	0	38.1232573381301	0
2.63	38.1336878581319	0	1	0	1	0	38.1336878581319	0
2.64	38.1451619851954	0	1	0	1	0	38.1451619851954	0
2.65	38.1576721573339	0	1	0	1	0	38.1576721573339	0
2.66	38.1712109262746	0	1	0	1	0	38.1712109262746	0
2.67	38.1857709553294	0	1	0	1	0	38.1857709553294	0
2.68	38.2013450173132	0	1	0	1	0	38.2013450173132	0
2.69	38.2179259925081	0	1	0	1	0	38.2179259925081	0
2.7	38.2355068666736	0	1	0	1	0	38.2355068666736	0
2.71	38.2540807291004	0	1	0	1	0	38.2540807291004	0
2.72	38.2736407707072	0	1	0	1	0	38.2736407707072	0
2.73	38.2941802821796	0	1	0	1	0	38.2941802821796	0
2.74	38.3156926521494	0	1	0	1	0	38.3156926521494	0
2.75	38.3381713654136	0	1	0	1	0	38.3381713654136	0
2.76	38.3616100011926	0	1	0	1	0	38.3616100011926	0
2.77	38.3860022314256	0	1	0	1	0	38.3860022314256	0
2.78	38.4113418191029	0	1	0	1	0	38.4113418191029	0
2.79	38.4376226166344	0	1	0	1	0	38.4376226166344	0
2.8	38.4648385642527	0	1	0	1	0	38.4648385642527	0
2.81	38.4929836884505	0	1	0	1	0	38.4929836884505	0
2.82	38.5220521004511	0	1	0	1	0	38.5220521004511	0
2.83	38.5520379947112	0	1	0	1	0	38.5520379947112	0
2.84	38.5829356474559	0	1	0	1	0	38.5829356474559	0
2.85	38.614739415244	0	1	0	1	0	38.614739415244	0
2.86	38.6474437335634	0	1	0	1	0	38.6474437335634	0
2.87	38.6810431154562	0	1	0	1	0	38.6810431154562	0
2.88	38.7155321501725	0	1	0	1	0	38.7155321501725	0
2.89	38.7509055018514	0	1	0	1	0	38.7509055018514	0
2.9	38.78715790823	0	1	0	1	0	38.78715790823	0
2.91	38.8242841793793	0	1	0	1	0	38.8242841793793	0
2.92	38.8622791964649	0	1	0	1	0	38.8622791964649	0
2.93	38.9011379105341	0	1	0	1	0	38.9011379105341	0
2.94	38.9408553413276	0	1	0	1	0	38.9408553413276	0
2.95	38.981426576115	0	1	0	1	0	38.981426576115	0
2.96	39.022846768554	0	1	0	1	0	39.022846768554	0
2.97	39.0651111375732	0	1	0	1	0	39.0651111375732	0
2.98	39.1082149662762	0	1	0	1	0	39.1082149662762	0
2.99	39.1521536008694	0	1	0	1	0	39.1521536008694	0
3	39.1969224496094	0	1	0	1	0	39.1969224496094	0
3.01	39.2425169817729	0	1	0	1	0	39.2425169817729	0
3.02	39.2889327266459	0	1	0	1	0	39.2889327266459	0
3.03	39.336165272534	0	1	0	1	0	39.336165272534	0
3.04	39.3842102657914	0	1	0	1	0	39.3842102657914	0
3.05	39.433063409869	0	1	0	1	0	39.433063409869	0
3.06	39.4827204643821	0	1	0	1	0	39.4827204643821	0
3.07	39.533177244195	0	1	0	1	0	39.533177244195	0
3.08	39.5844296185247	0	1	0	1	0	39.5844296185247	0
3.09	39.6364735100609	0	1	0	1	0	39.6364735100609	0
3.1	39.689304894104	0	1	0	1	0	39.689304894104	0
3.11	39.7429197977186	0	1	0	1	0	39.7429197977186	0
3.12	39.7973142989048	0	1	0	1	0	39.7973142989048	0
3.13	39.8524845257839	0	1	0	1	0	39.8524845257839	0
3.14	39.9084266558005	0	1	0	1	0	39.9084266558005	0
3.15	39.9651369149397	0	1	0	1	0	39.9651369149397	0
3.16	40.0226115769588	0	1	0	1	0	40.0226115769588	0
3.17	40.080846962634	0	1	0	1	0	40.080846962634	0
3.18	40.139839439021	0	1	0	1	0	40.139839439021	0
3.19	40.1995854187298	0	1	0	1	0	40.1995854187298	0
3.2	40.2600813592125	0	1	0	1	0	40.2600813592125	0
3.21	40.3213237620655	0	1	0	1	0	40.3213237620655	0
3.22	40.3833091723433	0	1	0	1	0	40.3833091723433	0
3.23	40.4460341778861	0	1	0	1	0	40.4460341778861	0
3.24	40.5094954086598	0	1	0	1	0	40.5094954086598	0
3.25	40.5736895361074	0	1	0	1	0	40.5736895361074	0
3.26	40.6386132725131	0	1	0	1	0	40.6386132725131	0
3.27	40.704263370378	0	1	0	1	0	40.704263370378	0
3.28	40.7706366218067	0	1	0	1	0	40.7706366218067	0
3.29	40.8377298579056	0	1	0	1	0	40.8377298579056	0
3.3	40.9055399481918	0	1	0	1	0	40.9055399481918	0
3.31	40.9740638000132	0	1	0	1	0	40.9740638000132	0
3.32	41.0432983579786	0	1	0	1	0	41.0432983579786	0
3.33	41.1132406033979	0	1	0	1	0	41.1132406033979	0
3.34	41.1838875537333	0	1	0	1	0	41.1838875537333	0
3.35	41.2552362620592	0	1	0	1	0	41.2552362620592	0
3.36	41.3272838165326	0	1	0	1	0	41.3272838165326	0
3.37	41.4000273398723	0	1	0	1	0	41.4000273398723	0
3.38	41.4734639888477	0	1	0	1	0	41.4734639888477	0
3.39	41.5475909537769	0	1	0	1	0	41.5475909537769	0
3.4	41.6224054580329	0	1	0	1	0	41.6224054580329	0
3.41	41.6979047575591	0	1	0	1	0	41.6979047575591	0
3.42	41.7740861403932	0	1	0	1	0	41.7740861403932	0
3.43	41.8509469261992	0	1	0	1	0	41.8509469261992	0
3.44	41.9284844658079	0	1	0	1	0	41.9284844658079	0
3.45	42.0066961407651	0	1	0	1	0	42.0066961407651	0
3.46	42.0855793628876	0	1	0	1	0	42.0855793628876	0
3.47	42.1651315738273	0	1	0	1	0	42.1651315738273	0
3.48	42.2453502446424	0	1	0	1	0	42.2453502446424	0
3.49	42.326232875376	0	1	0	1	0	42.326232875376	0
3.5	42.4077769946423	0	1	0	1	0	42.4077769946423	0
3.51	42.4899801592192	0	1	0	1	0	42.4899801592192	0
3.52	42.5728399536488	0	1	0	1	0	42.5728399536488	0
3.53	42.6563539898436	0	1	0	1	0	42.6563539898436	0
3.54	42.7405199067003	0	1	0	1	0	42.7405199067003	0
3.55	42.8253353697193	0	1	0	1	0	42.8253353697193	0
3.56	42.9107980706315	0	1	0	1	0	42.9107980706315	0
3.57	42.996905727031	0	1	0	1	0	42.996905727031	0
3.58	43.0836560820133	0	1	0	1	0	43.0836560820133	0
3.59	43.1710469038206	0	1	0	1	0	43.1710469038206	0
3.6	43.2590759854923	0	1	0	1	0	43.2590759854923	0
3.61	43.3477411445218	0	1	0	1	0	43.3477411445218	0
3.62	43.4370402225187	0	1	0	1	0	43.4370402225187	0
3.63	43.5269710848762	0	1	0	1	0	43.5269710848762	0
3.64	43.6175316204448	0	1	0	1	0	43.6175316204448	0
3.65	43.7087197412112	0	1	0	1	0	43.7087197412112	0
3.66	43.8005333819816	0	1	0	1	0	43.8005333819816	0
3.67	43.8929705000711	0	1	0	1	0	43.8929705000711	0
3.68	43.9860290749981	0	1	0	1	0	43.9860290749981	0
3.69	44.0797071081831	0	1	0	1	0	44.0797071081831	0
3.7	44.1740026226529	0	1	0	1	0	44.1740026226529	0
3.71	44.2689136627495	0	1	0	1	0	44.2689136627495	0
3.72	44.3644382938433	0	1	0	1	0	44.3644382938433	0
3.73	44.4605746020513	0	1	0	1	0	44.4605746020513	0
3.74	44.5573206939603	0	1	0	1	0	44.5573206939603	0
3.75	44.6546746963529	0	1	0	1	0	44.6546746963529	0
3.76	44.7526347559401	0	1	0	1	0	44.7526347559401	0
3.77	44.851199039096	0	1	0	1	0	44.851199039096	0
3.78	44.9503657315985	0	1	0	1	0	44.9503657315985	0
3.79	45.0501330383728	0	1	0	1	0	45.0501330383728	0
3.8	45.1504991832395	0	1	0	1	0	45.1504991832395	0
3.81	45.2514624086669	0	1	0	1	0	45.2514624086669	0
3.82	45.3530209755269	0	1	0	1	0	45.3530209755269	0
3.83	45.4551731628544	0	1	0	1	0	45.4551731628544	0
3.84	45.557917267611	0	1	0	1	0	45.557917267611	0
3.85	45.6612516044525	0	1	0	1	0	45.6612516044525	0
3.86	45.765174505499	0	1	0	1	0	45.765174505499	0
3.87	45.8696843201099	0	1	0	1	0	45.8696843201099	0
3.88	45.9747794146617	0	1	0	1	0	45.9747794146617	0
3.89	46.0804581723286	0	1	0	1	0	46.0804581723286	0
3.9	46.1867189928681	0	1	0	1	0	46.1867189928681	0
3.91	46.2935602924082	0	1	0	1	0	46.2935602924082	0
3.92	46.4009805032389	0	1	0	1	0	46.4009805032389	0
3.93	46.5089780736066	0	1	0	1	0	46.5089780736066	0
3.94	46.6175514675115	0	1	0	1	0	46.6175514675115	0
3.95	46.7266991645082	0	1	0	1	0	46.7266991645082	0
3.96	46.8364196595095	0	1	0	1	0	46.8364196595095	0
3.97	46.9467114625925	0	1	0	1	0	46.9467114625925	0
3.98	47.0575730988087	0	1	0	1	0	47.0575730988087	0
3.99	47.1690031079959	0	1	0	1	0	47.1690031079959	0
4	47.2810000445935	0	1	0	1	0	47.2810000445935	0
4.01	47.3935624774605	0	1	0	1	0	47.3935624774605	0
4.02	47.5066889896963	0	1	0	1	0	47.5066889896963	0
4.03	47.6203781784634	0	1	0	1	0	47.6203781784634	0
4.04	47.7346286548142	0	1	0	1	0	47.7346286548142	0
4.05	47.8494390435188	0	1	0	1	0	47.8494390435188	0
4.06	47.9648079828966	0	1	0	1	0	47.9648079828966	0
4.07	48.0807341246495	0	1	0	1	0	48.0807341246495	0
4.08	48.1972161336979	0	1	0	1	0	48.1972161336979	0
4.09	48.3142526880194	0	1	0	1	0	48.3142526880194	0
4.1	48.4318424784892	0	1	0	1	0	48.4318424784892	0
4.11	48.5499842087237	0	1	0	1	0	48.5499842087237	0
4.12	48.6686765949251	0	1	0	1	0	48.6686765949251	0
4.13	48.7879183657298	0	1	0	1	0	48.7879183657298	0
4.14	48.9077082620579	0	1	0	1	0	48.9077082620579	0
4.15	49.0280450369649	0	1	0	1	0	49.0280450369649	0
4.16	49.1489274554965	0	1	0	1	0	49.1489274554965	0
4.17	49.2703542945443	0	1	0	1	0	49.2703542945443	0
4.18	49.3923243427045	0	1	0	1	0	49.3923243427045	0
4.19	49.5148364001376	0	1	0	1	0	49.5148364001376	0
4.2	49.6378892784316	0	1	0	1	0	49.6378892784316	0
4.21	49.7614818004655	0	1	0	1	0	49.7614818004655	0
4.22	49.8856128002761	0	1	0	1	0	49.8856128002761	0
4.23	50.0102811229255	0	1	0	1	0	50.0102811229255	0
4.24	50.1354856243719	0	1	0	1	0	50.1354856243719	0
4.25	50.2612251713406	0	1	0	1	0	50.2612251713406	0
4.26	50.3874986411981	0	1	0	1	0	50.3874986411981	0
4.27	50.5143049218274	0	1	0	1	0	50.5143049218274	0
4.28	50.6416429115051	0	1	0	1	0	50.6416429115051	0
4.29	50.7695115187801	0	1	0	1	0	50.7695115187801	0
4.3	50.8979096623547	0	1	0	1	0	50.8979096623547	0
4.31	51.0268362709662	0	1	0	1	0	51.0268362709662	0
4.32	51.156290283271	0	1	0	1	0	51.156290283271	0
4.33	51.28627064773	0	1	0	1	0	51.28627064773	0
4.34	51.416776322496	0	1	0	1	0	51.416776322496	0
4.35	51.5478062753017	0	1	0	1	0	51.5478062753017	0
4.36	51.6793594833503	0	1	0	1	0	51.6793594833503	0
4.37	51.8114349332068	0	1	0	1	0	51.8114349332068	0
4.38	51.9440316206917	0	1	0	1	0	51.9440316206917	0
4.39	52.0771485507747	0	1	0	1	0	52.0771485507747	0
4.4	52.2107847374716	0	1	0	1	0	52.2107847374716	0
4.41	52.3449392037413	0	1	0	1	0	52.3449392037413	0
4.42	52.4796109813845	0	1	0	1	0	52.4796109813845	0
4.43	52.6147991109443	0	1	0	1	0	52.6147991109443	0
4.44	52.7505026416076	0	1	0	1	0	52.7505026416076	0
4.45	52.8867206311078	0	1	0	1	0	52.8867206311078	0
4.46	53.0234521456292	0	1	0	1	0	53.0234521456292	0
4.47	53.1606962597122	0	1	0	1	0	53.1606962597122	0
4.48	53.2984520561605	0	1	0	1	0	53.2984520561605	0
4.49	53.4367186259488	0	1	0	1	0	53.4367186259488	0
4.5	53.5754950681318	0	1	0	1	0	53.5754950681318	0
4.51	53.7147804897549	0	1	0	1	0	53.7147804897549	0
4.52	53.854574005766	0	1	0	1	0	53.854574005766	0
4.53	53.9948747389279	0	1	0	1	0	53.9948747389279	0
4.54	54.1356818197321	0	1	0	1	0	54.1356818197321	0
4.55	54.2769943863145	0	1	0	1	0	54.2769943863145	0
4.56	54.418811584371	0	1	0	1	0	54.418811584371	0
4.57	54.561132567075	0	1	0	1	0	54.561132567075	0
4.58	54.703956494996	0	1	0	1	0	54.703956494996	0
4.59	54.8472825360186	0	1	0	1	0	54.8472825360186	0
4.6	54.991109865263	0	1	0	1	0	54.991109865263	0
4.61	55.1354376650071	0	1	0	1	0	55.1354376650071	0
4.62	55.2802651246085	0	1	0	1	0	55.2802651246085	0
4.63	55.425591440428	0	1	0	1	0	55.425591440428	0
4.64	55.5714158157545	0	1	0	1	0	55.5714158157545	0
4.65	55.7177374607304	0	1	0	1	0	55.7177374607304	0
4.66	55.8645555922779	0	1	0	1	0	55.8645555922779	0
4.67	56.0118694340264	0	1	0	1	0	56.0118694340264	0
4.68	56.1596782162411	0	1	0	1	0	56.1596782162411	0
4.69	56.3079811757521	0	1	0	1	0	56.3079811757521	0
4.7	56.4567775558845	0	1	0	1	0	56.4567775558845	0
4.71	56.6060666063895	0	1	0	1	0	56.6060666063895	0
4.72	56.7558475833763	0	1	0	1	0	56.7558475833763	0
4.73	56.9061197492451	0	1	0	1	0	56.9061197492451	0
4.74	57.0568823726205	0	1	0	1	0	57.0568823726205	0
4.75	57.2081347282859	0	1	0	1	0	57.2081347282859	0
4.76	57.3598760971192	0	1	0	1	0	57.3598760971192	0
4.77	57.5121057660285	0	1	0	1	0	57.5121057660285	0
4.78	57.6648230278892	0	1	0	1	0	57.6648230278892	0
4.79	57.8180271814819	0	1	0	1	0	57.8180271814819	0
4.8	57.9717175314304	0	1	0	1	0	57.9717175314304	0
4.81	58.1258933881414	0	1	0	1	0	58.1258933881414	0
4.82	58.2805540677446	0	1	0	1	0	58.2805540677446	0
4.83	58.4356988920327	0	1	0	1	0	58.4356988920327	0
4.84	58.5913271884039	0	1	0	1	0	58.5913271884039	0
4.85	58.7474382898034	0	1	0	1	0	58.7474382898034	0
4.86	58.9040315346666	0	1	0	1	0	58.9040315346666	0
4.87	59.0611062668627	0	1	0	1	0	59.0611062668627	0
4.88	59.218661835639	0	1	0	1	0	59.218661835639	0
4.89	59.3766975955661	0	1	0	1	0	59.3766975955661	0
4.9	59.535212906483	0	1	0	1	0	59.535212906483	0
4.91	59.6942071334444	0	1	0	1	0	59.6942071334444	0
4.92	59.8536796466667	0	1	0	1	0	59.8536796466667	0
4.93	60.0136298214763	0	1	0	1	0	60.0136298214763	0
