# GHZ S RI R 50
1	55.6234928798325	0	1	0	1	0	55.6234928798325	0
1.01	55.160740990659	0	1	0	1	0	55.160740990659	0
1.02	54.7080297619405	0	1	0	1	0	54.7080297619405	0
1.03	54.2650762294812	0	1	0	1	0	54.2650762294812	0
1.04	53.8316083123235	0	1	0	1	0	53.8316083123235	0
1.05	53.4073642944986	0	1	0	1	0	53.4073642944986	0
1.06	52.9920923361122	0	1	0	1	0	52.9920923361122	0
1.07	52.5855500118453	0	1	0	1	0	52.5855500118453	0
1.08	52.1875038750944	0	1	0	1	0	52.1875038750944	0
1.09	51.797729046104	0	1	0	1	0	51.797729046104	0
1.1	51.4160088225641	0	1	0	1	0	51.4160088225641	0
1.11	51.0421343112571	0	1	0	1	0	51.0421343112571	0
1.12	50.6759040794373	0	1	0	1	0	50.6759040794373	0
1.13	50.3171238247218	0	1	0	1	0	50.3171238247218	0
1.14	49.9656060623552	0	1	0	1	0	49.9656060623552	0
1.15	49.6211698287907	0	1	0	1	0	49.6211698287907	0
1.16	49.2836404006042	0	1	0	1	0	49.2836404006042	0
1.17	48.9528490278218	0	1	0	1	0	48.9528490278218	0
1.18	48.6286326808075	0	1	0	1	0	48.6286326808075	0
1.19	48.3108338099135	0	1	0	1	0	48.3108338099135	0
1.2	47.9993001171467	0	1	0	1	0	47.9993001171467	0
1.21	47.6938843391582	0	1	0	1	0	47.6938843391582	0
1.22	47.394444040906	0	1	0	1	0	47.394444040906	0
1.23	47.1008414193817	0	1	0	1	0	47.1008414193817	0
1.24	46.8129431168355	0	1	0	1	0	46.8129431168355	0
1.25	46.5306200429652	0	1	0	1	0	46.5306200429652	0
1.26	46.2537472055739	0	1	0	1	0	46.2537472055739	0
1.27	45.9822035492264	0	1	0	1	0	45.9822035492264	0
1.28	45.71587180147	0	1	0	1	0	45.71587180147	0
1.29	45.4546383262074	0	1	0	1	0	45.4546383262074	0
1.3	45.1983929838361	0	1	0	1	0	45.1983929838361	0
1.31	44.9470289977952	0	1	0	1	0	44.9470289977952	0
1.32	44.7004428271772	0	1	0	1	0	44.7004428271772	0
1.33	44.4585340450866	0	1	0	1	0	44.4585340450866	0
1.34	44.221205222446	0	1	0	1	0	44.221205222446	0
1.35	43.9883618169653	0	1	0	1	0	43.9883618169653	0
1.36	43.7599120670099	0	1	0	1	0	43.7599120670099	0
1.37	43.5357668901171	0	1	0	1	0	43.5357668901171	0
1.38	43.3158397859248	0	1	0	1	0	43.3158397859248	0
1.39	43.1000467432895	0	1	0	1	0	43.1000467432895	0
1.4	42.8883061513865	0	1	0	1	0	42.8883061513865	0
1.41	42.6805387145916	0	1	0	1	0	42.6805387145916	0
1.42	42.4766673709601	0	1	0	1	0	42.4766673709601	0
1.43	42.2766172141263	0	1	0	1	0	42.2766172141263	0
1.44	42.0803154184569	0	1	0	1	0	42.0803154184569	0
1.45	41.8876911673014	0	1	0	1	0	41.8876911673014	0
1.46	41.6986755841917	0	1	0	1	0	41.6986755841917	0
1.47	41.5132016668492	0	1	0	1	0	41.5132016668492	0
1.48	41.3312042238679	0	1	0	1	0	41.3312042238679	0
1.49	41.1526198139463	0	1	0	1	0	41.1526198139463	0
1.5	40.9773866875511	0	1	0	1	0	40.9773866875511	0
1.51	40.8054447308984	0	1	0	1	0	40.8054447308984	0
1.52	40.6367354121459	0	1	0	1	0	40.6367354121459	0
1.53	40.4712017296952	0	1	0	1	0	40.4712017296952	0
1.54	40.3087881625095	0	1	0	1	0	40.3087881625095	0
1.55	40.1494406223524	0	1	0	1	0	40.1494406223524	0
1.56	39.9931064078657	0	1	0	1	0	39.9931064078657	0
1.57	39.8397341604008	0	1	0	1	0	39.8397341604008	0
1.58	39.6892738215281	0	1	0	1	0	39.6892738215281	0
1.59	39.5416765921496	0	1	0	1	0	39.5416765921496	0
1.6	39.3968948931447	0	1	0	1	0	39.3968948931447	0
1.61	39.2548823274827	0	1	0	1	0	39.2548823274827	0
1.62	39.1155936437388	0	1	0	1	0	39.1155936437388	0
1.63	38.9789847009524	0	1	0	1	0	38.9789847009524	0
1.64	38.8450124347718	0	1	0	1	0	38.8450124347718	0
1.65	38.7136348248295	0	1	0	1	0	38.7136348248295	0
1.66	38.584810863297	0	1	0	1	0	38.584810863297	0
1.67	38.4585005245694	0	1	0	1	0	38.4585005245694	0
1.68	38.3346647360321	0	1	0	1	0	38.3346647360321	0
1.69	38.2132653498664	0	1	0	1	0	38.2132653498664	0
1.7	38.0942651158491	0	1	0	1	0	38.0942651158491	0
1.71	37.9776276551075	0	1	0	1	0	37.9776276551075	0
1.72	37.8633174347889	0	1	0	1	0	37.8633174347889	0
1.73	37.7512997436097	0	1	0	1	0	37.7512997436097	0
1.74	37.6415406682467	0	1	0	1	0	37.6415406682467	0
1.75	37.5340070705384	0	1	0	1	0	37.5340070705384	0
1.76	37.4286665654634	0	1	0	1	0	37.4286665654634	0
1.77	37.3254874998651	0	1	0	1	0	37.3254874998651	0
1.78	37.2244389318938	0	1	0	1	0	37.2244389318938	0
1.79	37.1254906111379	0	1	0	1	0	37.1254906111379	0
1.8	37.0286129594171	0	1	0	1	0	37.0286129594171	0
1.81	36.9337770522123	0	1	0	1	0	36.9337770522123	0
1.82	36.8409546007086	0	1	0	1	0	36.8409546007086	0
1.83	36.7501179344255	0	1	0	1	0	36.7501179344255	0
1.84	36.6612399844147	0	1	0	1	0	36.6612399844147	0
1.85	36.5742942670027	0	1	0	1	0	36.5742942670027	0
1.86	36.489254868057	0	1	0	1	0	36.489254868057	0
1.87	36.4060964277585	0	1	0	1	0	36.4060964277585	0
1.88	36.3247941258583	0	1	0	1	0	36.3247941258583	0
1.89	36.2453236674042	0	1	0	1	0	36.2453236674042	0
1.9	36.1676612689163	0	1	0	1	0	36.1676612689163	0
1.91	36.0917836449983	0	1	0	1	0	36.0917836449983	0
1.92	36.0176679953662	0	1	0	1	0	36.0176679953662	0
1.93	35.9452919922809	0	1	0	1	0	35.9452919922809	0
1.94	35.8746337683687	0	1	0	1	0	35.8746337683687	0
1.95	35.8056719048178	0	1	0	1	0	35.8056719048178	0
1.96	35.7383854199349	0	1	0	1	0	35.7383854199349	0
1.97	35.6727537580508	0	1	0	1	0	35.6727537580508	0
1.98	35.6087567787625	0	1	0	1	0	35.6087567787625	0
1.99	35.5463747464991	0	1	0	1	0	35.5463747464991	0
2	35.4855883204012	0	1	0	1	0	35.4855883204012	0
2.01	35.426378544502	0	1	0	1	0	35.426378544502	0
2.02	35.3687268382006	0	1	0	1	0	35.3687268382006	0
2.03	35.3126149870162	0	1	0	1	0	35.3126149870162	0
2.04	35.2580251336146	0	1	0	1	0	35.2580251336146	0
2.05	35.2049397690974	0	1	0	1	0	35.2049397690974	0
2.06	35.153341724545	0	1	0	1	0	35.153341724545	0
2.07	35.1032141628042	0	1	0	1	0	35.1032141628042	0
2.08	35.0545405705131	0	1	0	1	0	35.0545405705131	0
2.09	35.0073047503554	0	1	0	1	0	35.0073047503554	0
2.1	34.9614908135346	0	1	0	1	0	34.9614908135346	0
2.11	34.9170831724641	0	1	0	1	0	34.9170831724641	0
2.12	34.8740665336623	0	1	0	1	0	34.8740665336623	0
2.13	34.8324258908493	0	1	0	1	0	34.8324258908493	0
2.14	34.7921465182366	0	1	0	1	0	34.7921465182366	0
2.15	34.7532139640035	0	1	0	1	0	34.7532139640035	0
2.16	34.7156140439559	0	1	0	1	0	34.7156140439559	0
2.17	34.6793328353593	0	1	0	1	0	34.6793328353593	0
2.18	34.6443566709423	0	1	0	1	0	34.6443566709423	0
2.19	34.6106721330641	0	1	0	1	0	34.6106721330641	0
2.2	34.5782660480409	0	1	0	1	0	34.5782660480409	0
2.21	34.5471254806267	0	1	0	1	0	34.5471254806267	0
2.22	34.5172377286429	0	1	0	1	0	34.5172377286429	0
2.23	34.4885903177528	0	1	0	1	0	34.4885903177528	0
2.24	34.4611709963755	0	1	0	1	0	34.4611709963755	0
2.25	34.4349677307361	0	1	0	1	0	34.4349677307361	0
2.26	34.4099687000471	0	1	0	1	0	34.4099687000471	0
2.27	34.3861622918164	0	1	0	1	0	34.3861622918164	0
2.28	34.36353709728	0	1	0	1	0	34.36353709728	0
2.29	34.3420819069538	0	1	0	1	0	34.3420819069538	0
2.3	34.321785706301	0	1	0	1	0	34.321785706301	0
2.31	34.3026376715128	0	1	0	1	0	34.3026376715128	0
2.32	34.2846271653979	0	1	0	1	0	34.2846271653979	0
2.33	34.2677437333775	0	1	0	1	0	34.2677437333775	0
2.34	34.2519770995837	0	1	0	1	0	34.2519770995837	0
2.35	34.237317163057	0	1	0	1	0	34.237317163057	0
2.36	34.2237539940406	0	1	0	1	0	34.2237539940406	0
2.37	34.2112778303684	0	1	0	1	0	34.2112778303684	0
2.38	34.1998790739445	0	1	0	1	0	34.1998790739445	0
2.39	34.1895482873105	0	1	0	1	0	34.1895482873105	0
2.4	34.1802761902989	0	1	0	1	0	34.1802761902989	0
2.41	34.1720536567701	0	1	0	1	0	34.1720536567701	0
2.42	34.1648717114295	0	1	0	1	0	34.1648717114295	0
2.43	34.1587215267242	0	1	0	1	0	34.1587215267242	0
2.44	34.1535944198151	0	1	0	1	0	34.1535944198151	0
2.45	34.1494818496239	0	1	0	1	0	34.1494818496239	0
2.46	34.1463754139516	0	1	0	1	0	34.1463754139516	0
2.47	34.1442668466671	0	1	0	1	0	34.1442668466671	0
2.48	34.143148014964	0	1	0	1	0	34.143148014964	0
2.49	34.1430109166835	0	1	0	1	0	34.1430109166835	0
2.5	34.1438476777014	0	1	0	1	0	34.1438476777014	0
2.51	34.1456505493772	0	1	0	1	0	34.1456505493772	0
2.52	34.1484119060651	0	1	0	1	0	34.1484119060651	0
2.53	34.1521242426826	0	1	0	1	0	34.1521242426826	0
2.54	34.1567801723377	0	1	0	1	0	34.1567801723377	0
2.55	34.1623724240109	0	1	0	1	0	34.1623724240109	0
2.56	34.1688938402928	0	1	0	1	0	34.1688938402928	0
2.57	34.1763373751729	0	1	0	1	0	34.1763373751729	0
2.58	34.1846960918816	0	1	0	1	0	34.1846960918816	0
2.59	34.1939631607806	0	1	0	1	0	34.1939631607806	0
2.6	34.2041318573031	0	1	0	1	0	34.2041318573031	0
2.61	34.2151955599407	0	1	0	1	0	34.2151955599407	0
2.62	34.2271477482767	0	1	0	1	0	34.2271477482767	0
2.63	34.2399820010644	0	1	0	1	0	34.2399820010644	0
2.64	34.2536919943487	0	1	0	1	0	34.2536919943487	0
2.65	34.2682714996302	0	1	0	1	0	34.2682714996302	0
2.66	34.2837143820713	0	1	0	1	0	34.2837143820713	0
2.67	34.3000145987422	0	1	0	1	0	34.3000145987422	0
2.68	34.3171661969058	0	1	0	1	0	34.3171661969058	0
2.69	34.3351633123419	0	1	0	1	0	34.3351633123419	0
2.7	34.3540001677072	0	1	0	1	0	34.3540001677072	0
2.71	34.3736710709332	0	1	0	1	0	34.3736710709332	0
2.72	34.3941704136582	0	1	0	1	0	34.3941704136582	0
2.73	34.4154926696942	0	1	0	1	0	34.4154926696942	0
2.74	34.4376323935275	0	1	0	1	0	34.4376323935275	0
2.75	34.4605842188519	0	1	0	1	0	34.4605842188519	0
2.76	34.4843428571338	0	1	0	1	0	34.4843428571338	0
2.77	34.5089030962083	0	1	0	1	0	34.5089030962083	0
2.78	34.5342597989057	0	1	0	1	0	34.5342597989057	0
2.79	34.5604079017073	0	1	0	1	0	34.5604079017073	0
2.8	34.5873424134306	0	1	0	1	0	34.5873424134306	0
2.81	34.6150584139418	0	1	0	1	0	34.6150584139418	0
2.82	34.6435510528964	0	1	0	1	0	34.6435510528964	0
2.83	34.6728155485059	0	1	0	1	0	34.6728155485059	0
2.84	34.7028471863309	0	1	0	1	0	34.7028471863309	0
2.85	34.7336413180997	0	1	0	1	0	34.7336413180997	0
2.86	34.7651933605512	0	1	0	1	0	34.7651933605512	0
2.87	34.7974987943027	0	1	0	1	0	34.7974987943027	0
2.88	34.8305531627406	0	1	0	1	0	34.8305531627406	0
2.89	34.8643520709345	0	1	0	1	0	34.8643520709345	0
2.9	34.8988911845739	0	1	0	1	0	34.8988911845739	0
2.91	34.9341662289262	0	1	0	1	0	34.9341662289262	0
2.92	34.970172987817	0	1	0	1	0	34.970172987817	0
2.93	35.0069073026305	0	1	0	1	0	35.0069073026305	0
2.94	35.0443650713307	0	1	0	1	0	35.0443650713307	0
2.95	35.0825422475024	0	1	0	1	0	35.0825422475024	0
2.96	35.1214348394118	0	1	0	1	0	35.1214348394118	0
2.97	35.1610389090857	0	1	0	1	0	35.1610389090857	0
2.98	35.2013505714097	0	1	0	1	0	35.2013505714097	0
2.99	35.2423659932442	0	1	0	1	0	35.2423659932442	0
3	35.2840813925579	0	1	0	1	0	35.2840813925579	0
3.01	35.3264930375792	0	1	0	1	0	35.3264930375792	0
3.02	35.3695972459641	0	1	0	1	0	35.3695972459641	0
3.03	35.4133903839802	0	1	0	1	0	35.4133903839802	0
3.04	35.4578688657073	0	1	0	1	0	35.4578688657073	0
3.05	35.503029152254	0	1	0	1	0	35.503029152254	0
3.06	35.5488677509885	0	1	0	1	0	35.5488677509885	0
3.07	35.5953812147859	0	1	0	1	0	35.5953812147859	0
3.08	35.642566141289	0	1	0	1	0	35.642566141289	0
3.09	35.6904191721842	0	1	0	1	0	35.6904191721842	0
3.1	35.7389369924908	0	1	0	1	0	35.7389369924908	0
3.11	35.7881163298646	0	1	0	1	0	35.7881163298646	0
3.12	35.8379539539146	0	1	0	1	0	35.8379539539146	0
3.13	35.8884466755327	0	1	0	1	0	35.8884466755327	0
3.14	35.9395913462364	0	1	0	1	0	35.9395913462364	0
3.15	35.9913848575237	0	1	0	1	0	35.9913848575237	0
3.16	36.0438241402411	0	1	0	1	0	36.0438241402411	0
3.17	36.0969061639624	0	1	0	1	0	36.0969061639624	0
3.18	36.1506279363799	0	1	0	1	0	36.1506279363799	0
3.19	36.2049865027071	0	1	0	1	0	36.2049865027071	0
3.2	36.2599789450924	0	1	0	1	0	36.2599789450924	0
3.21	36.3156023820435	0	1	0	1	0	36.3156023820435	0
3.22	36.3718539678633	0	1	0	1	0	36.3718539678633	0
3.23	36.4287308920953	0	1	0	1	0	36.4287308920953	0
3.24	36.4862303789801	0	1	0	1	0	36.4862303789801	0
3.25	36.5443496869216	0	1	0	1	0	36.5443496869216	0
3.26	36.6030861079627	0	1	0	1	0	36.6030861079627	0
3.27	36.6624369672712	0	1	0	1	0	36.6624369672712	0
3.28	36.722399622635	0	1	0	1	0	36.722399622635	0
3.29	36.782971463966	0	1	0	1	0	36.782971463966	0
3.3	36.8441499128134	0	1	0	1	0	36.8441499128134	0
3.31	36.9059324218863	0	1	0	1	0	36.9059324218863	0
3.32	36.9683164745837	0	1	0	1	0	36.9683164745837	0
3.33	37.0312995845342	0	1	0	1	0	37.0312995845342	0
3.34	37.0948792951433	0	1	0	1	0	37.0948792951433	0
3.35	37.159053179149	0	1	0	1	0	37.159053179149	0
3.36	37.2238188381851	0	1	0	1	0	37.2238188381851	0
3.37	37.2891739023528	0	1	0	1	0	37.2891739023528	0
3.38	37.3551160297995	0	1	0	1	0	37.3551160297995	0
3.39	37.421642906305	0	1	0	1	0	37.421642906305	0
3.4	37.4887522448751	0	1	0	1	0	37.4887522448751	0
3.41	37.5564417853428	0	1	0	1	0	37.5564417853428	0
3.42	37.6247092939754	0	1	0	1	0	37.6247092939754	0
3.43	37.6935525630901	0	1	0	1	0	37.6935525630901	0
3.44	37.7629694106742	0	1	0	1	0	37.7629694106742	0
3.45	37.8329576800143	0	1	0	1	0	37.8329576800143	0
3.46	37.9035152393296	0	1	0	1	0	37.9035152393296	0
3.47	37.9746399814136	0	1	0	1	0	37.9746399814136	0
3.48	38.0463298232801	0	1	0	1	0	38.0463298232801	0
3.49	38.118582705817	0	1	0	1	0	38.118582705817	0
3.5	38.1913965934448	0	1	0	1	0	38.1913965934448	0
3.51	38.2647694737815	0	1	0	1	0	38.2647694737815	0
3.52	38.3386993573131	0	1	0	1	0	38.3386993573131	0
3.53	38.4131842770696	0	1	0	1	0	38.4131842770696	0
3.54	38.4882222883066	0	1	0	1	0	38.4882222883066	0
3.55	38.5638114681926	0	1	0	1	0	38.5638114681926	0
3.56	38.6399499155007	0	1	0	1	0	38.6399499155007	0
3.57	38.7166357503062	0	1	0	1	0	38.7166357503062	0
3.58	38.7938671136893	0	1	0	1	0	38.7938671136893	0
3.59	38.8716421674424	0	1	0	1	0	38.8716421674424	0
3.6	38.9499590937823	0	1	0	1	0	38.9499590937823	0
3.61	39.0288160950677	0	1	0	1	0	39.0288160950677	0
3.62	39.1082113935204	0	1	0	1	0	39.1082113935204	0
3.63	39.1881432309523	0	1	0	1	0	39.1881432309523	0
3.64	39.2686098684959	0	1	0	1	0	39.2686098684959	0
3.65	39.3496095863399	0	1	0	1	0	39.3496095863399	0
3.66	39.4311406834686	0	1	0	1	0	39.4311406834686	0
3.67	39.5132014774062	0	1	0	1	0	39.5132014774062	0
3.68	39.5957903039645	0	1	0	1	0	39.5957903039645	0
3.69	39.6789055169952	0	1	0	1	0	39.6789055169952	0
3.7	39.7625454881466	0	1	0	1	0	39.7625454881466	0
3.71	39.8467086066228	0	1	0	1	0	39.8467086066228	0
3.72	39.9313932789488	0	1	0	1	0	39.9313932789488	0
3.73	40.0165979287375	0	1	0	1	0	40.0165979287375	0
3.74	40.1023209964615	0	1	0	1	0	40.1023209964615	0
3.75	40.1885609392287	0	1	0	1	0	40.1885609392287	0
3.76	40.2753162305604	0	1	0	1	0	40.2753162305604	0
3.77	40.3625853601741	0	1	0	1	0	40.3625853601741	0
3.78	40.4503668337692	0	1	0	1	0	40.4503668337692	0
3.79	40.5386591728159	0	1	0	1	0	40.5386591728159	0
3.8	40.627460914348	0	1	0	1	0	40.627460914348	0
3.81	40.7167706107585	0	1	0	1	0	40.7167706107585	0
3.82	40.8065868295987	0	1	0	1	0	40.8065868295987	0
3.83	40.8969081533799	0	1	0	1	0	40.8969081533799	0
3.84	40.9877331793793	0	1	0	1	0	40.9877331793793	0
3.85	41.0790605194475	0	1	0	1	0	41.0790605194475	0
3.86	41.1708887998201	0	1	0	1	0	41.1708887998201	0
3.87	41.2632166609322	0	1	0	1	0	41.2632166609322	0
3.88	41.3560427572346	0	1	0	1	0	41.3560427572346	0
3.89	41.4493657570142	0	1	0	1	0	41.4493657570142	0
3.9	41.5431843422165	0	1	0	1	0	41.5431843422165	0
3.91	41.6374972082712	0	1	0	1	0	41.6374972082712	0
3.92	41.7323030639194	0	1	0	1	0	41.7323030639194	0
3.93	41.8276006310453	0	1	0	1	0	41.8276006310453	0
3.94	41.9233886445087	0	1	0	1	0	41.9233886445087	0
3.95	42.0196658519807	0	1	0	1	0	42.0196658519807	0
3.96	42.1164310137827	0	1	0	1	0	42.1164310137827	0
3.97	42.2136829027261	0	1	0	1	0	42.2136829027261	0
3.98	42.3114203039561	0	1	0	1	0	42.3114203039561	0
3.99	42.4096420147968	0	1	0	1	0	42.4096420147968	0
4	42.5083468445992	0	1	0	1	0	42.5083468445992	0
4.01	42.6075336145909	0	1	0	1	0	42.6075336145909	0
4.02	42.7072011577286	0	1	0	1	0	42.7072011577286	0
4.03	42.8073483185528	0	1	0	1	0	42.8073483185528	0
4.04	42.9079739530438	0	1	0	1	0	42.9079739530438	0
4.05	43.0090769284813	0	1	0	1	0	43.0090769284813	0
4.06	43.1106561233044	0	1	0	1	0	43.1106561233044	0
4.07	43.2127104269752	0	1	0	1	0	43.2127104269752	0
4.08	43.3152387398434	0	1	0	1	0	43.3152387398434	0
4.09	43.4182399730129	0	1	0	1	0	43.4182399730129	0
4.1	43.5217130482115	0	1	0	1	0	43.5217130482115	0
4.11	43.6256568976606	0	1	0	1	0	43.6256568976606	0
4.12	43.7300704639489	0	1	0	1	0	43.7300704639489	0
4.13	43.8349526999059	0	1	0	1	0	43.8349526999059	0
4.14	43.940302568479	0	1	0	1	0	43.940302568479	0
4.15	44.0461190426112	0	1	0	1	0	44.0461190426112	0
4.16	44.152401105121	0	1	0	1	0	44.152401105121	0
4.17	44.2591477485841	0	1	0	1	0	44.2591477485841	0
4.18	44.3663579752165	0	1	0	1	0	44.3663579752165	0
4.19	44.4740307967598	0	1	0	1	0	44.4740307967598	0
4.2	44.5821652343675	0	1	0	1	0	44.5821652343675	0
4.21	44.6907603184931	0	1	0	1	0	44.6907603184931	0
4.22	44.7998150887804	0	1	0	1	0	44.7998150887804	0
4.23	44.9093285939545	0	1	0	1	0	44.9093285939545	0
4.24	45.0192998917147	0	1	0	1	0	45.0192998917147	0
4.25	45.1297280486291	0	1	0	1	0	45.1297280486291	0
4.26	45.2406121400304	0	1	0	1	0	45.2406121400304	0
4.27	45.3519512499132	0	1	0	1	0	45.3519512499132	0
4.28	45.463744470833	0	1	0	1	0	45.463744470833	0
4.29	45.5759909038064	0	1	0	1	0	45.5759909038064	0
4.3	45.6886896582125	0	1	0	1	0	45.6886896582125	0
4.31	45.8018398516959	0	1	0	1	0	45.8018398516959	0
4.32	45.9154406100715	0	1	0	1	0	45.9154406100715	0
4.33	46.0294910672296	0	1	0	1	0	46.0294910672296	0
4.34	46.143990365043	0	1	0	1	0	46.143990365043	0
4.35	46.2589376532756	0	1	0	1	0	46.2589376532756	0
4.36	46.3743320894913	0	1	0	1	0	46.3743320894913	0
4.37	46.4901728389654	0	1	0	1	0	46.4901728389654	0
4.38	46.6064590745959	0	1	0	1	0	46.6064590745959	0
4.39	46.7231899768174	0	1	0	1	0	46.7231899768174	0
4.4	46.8403647335149	0	1	0	1	0	46.8403647335149	0
4.41	46.9579825399396	0	1	0	1	0	46.9579825399396	0
4.42	47.0760425986253	0	1	0	1	0	47.0760425986253	0
4.43	47.1945441193068	0	1	0	1	0	47.1945441193068	0
4.44	47.3134863188379	0	1	0	1	0	47.3134863188379	0
4.45	47.4328684211123	0	1	0	1	0	47.4328684211123	0
4.46	47.5526896569842	0	1	0	1	0	47.5526896569842	0
4.47	47.6729492641905	0	1	0	1	0	47.6729492641905	0
4.48	47.7936464872739	0	1	0	1	0	47.7936464872739	0
4.49	47.9147805775074	0	1	0	1	0	47.9147805775074	0
4.5	48.0363507928194	0	1	0	1	0	48.0363507928194	0
4.51	48.1583563977198	0	1	0	1	0	48.1583563977198	0
4.52	48.2807966632271	0	1	0	1	0	48.2807966632271	0
4.53	48.4036708667969	0	1	0	1	0	48.4036708667969	0
4.54	48.5269782922508	0	1	0	1	0	48.5269782922508	0
4.55	48.6507182297065	0	1	0	1	0	48.6507182297065	0
4.56	48.7748899755087	0	1	0	1	0	48.7748899755087	0
4.57	48.8994928321609	0	1	0	1	0	48.8994928321609	0
4.58	49.0245261082585	0	1	0	1	0	49.0245261082585	0
4.59	49.1499891184221	0	1	0	1	0	49.1499891184221	0
4.6	49.275881183232	0	1	0	1	0	49.275881183232	0
4.61	49.4022016291639	0	1	0	1	0	49.4022016291639	0
4.62	49.5289497885247	0	1	0	1	0	49.5289497885247	0
4.63	49.6561249993899	0	1	0	1	0	49.6561249993899	0
4.64	49.783726605541	0	1	0	1	0	49.783726605541	0
4.65	49.9117539564046	0	1	0	1	0	49.9117539564046	0
4.66	50.0402064069914	0	1	0	1	0	50.0402064069914	0
4.67	50.169083317837	0	1	0	1	0	50.169083317837	0
4.68	50.2983840549421	0	1	0	1	0	50.2983840549421	0
4.69	50.428107989715	0	1	0	1	0	50.428107989715	0
4.7	50.5582544989133	0	1	0	1	0	50.5582544989133	0
4.71	50.688822964588	0	1	0	1	0	50.688822964588	0
4.72	50.8198127740266	0	1	0	1	0	50.8198127740266	0
4.73	50.9512233196982	0	1	0	1	0	50.9512233196982	0
4.74	51.0830539991988	0	1	0	1	0	51.0830539991988	0
4.75	51.2153042151974	0	1	0	1	0	51.2153042151974	0
4.76	51.3479733753822	0	1	0	1	0	51.3479733753822	0
4.77	51.4810608924087	0	1	0	1	0	51.4810608924087	0
4.78	51.6145661838474	0	1	0	1	0	51.6145661838474	0
4.79	51.7484886721323	0	1	0	1	0	51.7484886721323	0
4.8	51.8828277845108	0	1	0	1	0	51.8828277845108	0
4.81	52.0175829529929	0	1	0	1	0	52.0175829529929	0
4.82	52.1527536143024	0	1	0	1	0	52.1527536143024	0
4.83	52.2883392098281	0	1	0	1	0	52.2883392098281	0
4.84	52.4243391855751	0	1	0	1	0	52.4243391855751	0
4.85	52.5607529921178	0	1	0	1	0	52.5607529921178	0
4.86	52.6975800845524	0	1	0	1	0	52.6975800845524	0
4.87	52.8348199224508	0	1	0	1	0	52.8348199224508	0
4.88	52.9724719698147	0	1	0	1	0	52.9724719698147	0
4.89	53.1105356950302	0	1	0	1	0	53.1105356950302	0
4.9	53.2490105708229	0	1	0	1	0	53.2490105708229	0
4.91	53.3878960742143	0	1	0	1	0	53.3878960742143	0
4.92	53.5271916864775	0	1	0	1	0	53.5271916864775	0
4.93	53.6668968930943	0	1	0	1	0	53.6668968930943	0
