# GHZ S RI R 50
1	55.8635195071301	0	1	0	1	0	55.8635195071301	0
1.01	55.4088042772196	0	1	0	1	0	55.4088042772196	0
1.02	54.9642322008628	0	1	0	1	0	54.9642322008628	0
1.03	54.5295198786246	0	1	0	1	0	54.5295198786246	0
1.04	54.1043948110481	0	1	0	1	0	54.1043948110481	0
1.05	53.6885948796081	0	1	0	1	0	53.6885948796081	0
1.06	53.2818678570445	0	1	0	1	0	53.2818678570445	0
1.07	52.8839709451535	0	1	0	1	0	52.8839709451535	0
1.08	52.4946703382577	0	1	0	1	0	52.4946703382577	0
1.09	52.1137408107044	0	1	0	1	0	52.1137408107044	0
1.1	51.7409653268644	0	1	0	1	0	51.7409653268644	0
1.11	51.3761346722126	0	1	0	1	0	51.3761346722126	0
1.12	51.0190471041711	0	1	0	1	0	51.0190471041711	0
1.13	50.6695080214921	0	1	0	1	0	50.6695080214921	0
1.14	50.3273296510418	0	1	0	1	0	50.3273296510418	0
1.15	49.992330750926	0	1	0	1	0	49.992330750926	0
1.16	49.6643363289709	0	1	0	1	0	49.6643363289709	0
1.17	49.3431773756409	0	1	0	1	0	49.3431773756409	0
1.18	49.0286906105374	0	1	0	1	0	49.0286906105374	0
1.19	48.7207182416787	0	1	0	1	0	48.7207182416787	0
1.2	48.4191077368155	0	1	0	1	0	48.4191077368155	0
1.21	48.1237116060872	0	1	0	1	0	48.1237116060872	0
1.22	47.8343871953662	0	1	0	1	0	47.8343871953662	0
1.23	47.5509964896834	0	1	0	1	0	47.5509964896834	0
1.24	47.2734059261657	0	1	0	1	0	47.2734059261657	0
1.25	47.0014862159518	0	1	0	1	0	47.0014862159518	0
1.26	46.7351121745888	0	1	0	1	0	46.7351121745888	0
1.27	46.4741625604411	0	1	0	1	0	46.4741625604411	0
1.28	46.2185199206742	0	1	0	1	0	46.2185199206742	0
1.29	45.9680704444022	0	1	0	1	0	45.9680704444022	0
1.3	45.7227038226123	0	1	0	1	0	45.7227038226123	0
1.31	45.482313114506	0	1	0	1	0	45.482313114506	0
1.32	45.2467946199151	0	1	0	1	0	45.2467946199151	0
1.33	45.0160477574732	0	1	0	1	0	45.0160477574732	0
1.34	44.7899749482431	0	1	0	1	0	44.7899749482431	0
1.35	44.5684815045151	0	1	0	1	0	44.5684815045151	0
1.36	44.3514755235122	0	1	0	1	0	44.3514755235122	0
1.37	44.1388677857502	0	1	0	1	0	44.1388677857502	0
1.38	43.930571657817	0	1	0	1	0	43.930571657817	0
1.39	43.7265029993481	0	1	0	1	0	43.7265029993481	0
1.4	43.5265800739896	0	1	0	1	0	43.5265800739896	0
1.41	43.3307234641494	0	1	0	1	0	43.3307234641494	0
1.42	43.1388559893505	0	1	0	1	0	43.1388559893505	0
1.43	42.9509026280105	0	1	0	1	0	42.9509026280105	0
1.44	42.7667904424799	0	1	0	1	0	42.7667904424799	0
1.45	42.5864485071822	0	1	0	1	0	42.5864485071822	0
1.46	42.4098078397074	0	1	0	1	0	42.4098078397074	0
1.47	42.2368013347178	0	1	0	1	0	42.2368013347178	0
1.48	42.0673637005337	0	1	0	1	0	42.0673637005337	0
1.49	41.9014313982719	0	1	0	1	0	41.9014313982719	0
1.5	41.7389425834196	0	1	0	1	0	41.7389425834196	0
1.51	41.5798370497291	0	1	0	1	0	41.5798370497291	0
1.52	41.4240561753279	0	1	0	1	0	41.4240561753279	0
1.53	41.2715428709411	0	1	0	1	0	41.2715428709411	0
1.54	41.1222415301324	0	1	0	1	0	41.1222415301324	0
1.55	40.9760979814702	0	1	0	1	0	40.9760979814702	0
1.56	40.833059442534	0	1	0	1	0	40.833059442534	0
1.57	40.6930744756783	0	1	0	1	0	40.6930744756783	0
1.58	40.5560929454765	0	1	0	1	0	40.5560929454765	0
1.59	40.4220659777705	0	1	0	1	0	40.4220659777705	0
1.6	40.2909459202564	0	1	0	1	0	40.2909459202564	0
1.61	40.1626863045383	0	1	0	1	0	40.1626863045383	0
1.62	40.037241809588	0	1	0	1	0	40.037241809588	0
1.63	39.91456822655	0	1	0	1	0	39.91456822655	0
1.64	39.7946224248333	0	1	0	1	0	39.7946224248333	0
1.65	39.6773623194374	0	1	0	1	0	39.6773623194374	0
1.66	39.5627468394576	0	1	0	1	0	39.5627468394576	0
1.67	39.4507358977241	0	1	0	1	0	39.4507358977241	0
1.68	39.341290361523	0	1	0	1	0	39.341290361523	0
1.69	39.2343720243588	0	1	0	1	0	39.2343720243588	0
1.7	39.1299435787121	0	1	0	1	0	39.1299435787121	0
1.71	39.0279685897544	0	1	0	1	0	39.0279685897544	0
1.72	38.9284114699783	0	1	0	1	0	38.9284114699783	0
1.73	38.8312374547094	0	1	0	1	0	38.8312374547094	0
1.74	38.7364125784609	0	1	0	1	0	38.7364125784609	0
1.75	38.6439036521001	0	1	0	1	0	38.6439036521001	0
1.76	38.5536782407928	0	1	0	1	0	38.5536782407928	0
1.77	38.4657046426953	0	1	0	1	0	38.4657046426953	0
1.78	38.3799518683651	0	1	0	1	0	38.3799518683651	0
1.79	38.296389620861	0	1	0	1	0	38.296389620861	0
1.8	38.2149882765072	0	1	0	1	0	38.2149882765072	0
1.81	38.1357188662947	0	1	0	1	0	38.1357188662947	0
1.82	38.0585530578963	0	1	0	1	0	38.0585530578963	0
1.83	37.9834631382703	0	1	0	1	0	37.9834631382703	0
1.84	37.9104219968326	0	1	0	1	0	37.9104219968326	0
1.85	37.8394031091739	0	1	0	1	0	37.8394031091739	0
1.86	37.7703805213023	0	1	0	1	0	37.7703805213023	0
1.87	37.7033288343914	0	1	0	1	0	37.7033288343914	0
1.88	37.6382231900155	0	1	0	1	0	37.6382231900155	0
1.89	37.575039255853	0	1	0	1	0	37.575039255853	0
1.9	37.5137532118418	0	1	0	1	0	37.5137532118418	0
1.91	37.4543417367694	0	1	0	1	0	37.4543417367694	0
1.92	37.3967819952816	0	1	0	1	0	37.3967819952816	0
1.93	37.3410516252959	0	1	0	1	0	37.3410516252959	0
1.94	37.2871287258038	0	1	0	1	0	37.2871287258038	0
1.95	37.2349918450482	0	1	0	1	0	37.2349918450482	0
1.96	37.1846199690628	0	1	0	1	0	37.1846199690628	0
1.97	37.135992510561	0	1	0	1	0	37.135992510561	0
1.98	37.0890892981609	0	1	0	1	0	37.0890892981609	0
1.99	37.0438905659355	0	1	0	1	0	37.0438905659355	0
2	37.0003769432765	0	1	0	1	0	37.0003769432765	0
2.01	36.95852944506	0	1	0	1	0	36.95852944506	0
2.02	36.9183294621056	0	1	0	1	0	36.9183294621056	0
2.03	36.8797587519158	0	1	0	1	0	36.8797587519158	0
2.04	36.8427994296895	0	1	0	1	0	36.8427994296895	0
2.05	36.8074339595972	0	1	0	1	0	36.8074339595972	0
2.06	36.7736451463107	0	1	0	1	0	36.7736451463107	0
2.07	36.7414161267792	0	1	0	1	0	36.7414161267792	0
2.08	36.7107303622408	0	1	0	1	0	36.7107303622408	0
2.09	36.6815716304652	0	1	0	1	0	36.6815716304652	0
2.1	36.653924018217	0	1	0	1	0	36.653924018217	0
2.11	36.6277719139333	0	1	0	1	0	36.6277719139333	0
2.12	36.6031000006093	0	1	0	1	0	36.6031000006093	0
2.13	36.5798932488832	0	1	0	1	0	36.5798932488832	0
2.14	36.558136910316	0	1	0	1	0	36.558136910316	0
2.15	36.5378165108581	0	1	0	1	0	36.5378165108581	0
2.16	36.5189178444982	0	1	0	1	0	36.5189178444982	0
2.17	36.5014269670865	0	1	0	1	0	36.5014269670865	0
2.18	36.4853301903295	0	1	0	1	0	36.4853301903295	0
2.19	36.4706140759481	0	1	0	1	0	36.4706140759481	0
2.2	36.4572654299955	0	1	0	1	0	36.4572654299955	0
2.21	36.4452712973294	0	1	0	1	0	36.4452712973294	0
2.22	36.4346189562335	0	1	0	1	0	36.4346189562335	0
2.23	36.4252959131838	0	1	0	1	0	36.4252959131838	0
2.24	36.4172898977547	0	1	0	1	0	36.4172898977547	0
2.25	36.4105888576617	0	1	0	1	0	36.4105888576617	0
2.26	36.405180953935	0	1	0	1	0	36.405180953935	0
2.27	36.4010545562211	0	1	0	1	0	36.4010545562211	0
2.28	36.3981982382077	0	1	0	1	0	36.3981982382077	0
2.29	36.3966007731687	0	1	0	1	0	36.3966007731687	0
2.3	36.3962511296256	0	1	0	1	0	36.3962511296256	0
2.31	36.3971384671209	0	1	0	1	0	36.3971384671209	0
2.32	36.3992521321017	0	1	0	1	0	36.3992521321017	0
2.33	36.4025816539087	0	1	0	1	0	36.4025816539087	0
2.34	36.4071167408684	0	1	0	1	0	36.4071167408684	0
2.35	36.4128472764843	0	1	0	1	0	36.4128472764843	0
2.36	36.4197633157263	0	1	0	1	0	36.4197633157263	0
2.37	36.4278550814127	0	1	0	1	0	36.4278550814127	0
2.38	36.4371129606845	0	1	0	1	0	36.4371129606845	0
2.39	36.4475275015669	0	1	0	1	0	36.4475275015669	0
2.4	36.4590894096184	0	1	0	1	0	36.4590894096184	0
2.41	36.4717895446619	0	1	0	1	0	36.4717895446619	0
2.42	36.4856189175977	0	1	0	1	0	36.4856189175977	0
2.43	36.5005686872948	0	1	0	1	0	36.5005686872948	0
2.44	36.5166301575587	0	1	0	1	0	36.5166301575587	0
2.45	36.5337947741735	0	1	0	1	0	36.5337947741735	0
2.46	36.5520541220166	0	1	0	1	0	36.5520541220166	0
2.47	36.5713999222424	0	1	0	1	0	36.5713999222424	0
2.48	36.5918240295351	0	1	0	1	0	36.5918240295351	0
2.49	36.6133184294274	0	1	0	1	0	36.6133184294274	0
2.5	36.6358752356835	0	1	0	1	0	36.6358752356835	0
2.51	36.6594866877445	0	1	0	1	0	36.6594866877445	0
2.52	36.6841451482352	0	1	0	1	0	36.6841451482352	0
2.53	36.7098431005293	0	1	0	1	0	36.7098431005293	0
2.54	36.7365731463726	0	1	0	1	0	36.7365731463726	0
2.55	36.7643280035619	0	1	0	1	0	36.7643280035619	0
2.56	36.7931005036784	0	1	0	1	0	36.7931005036784	0
2.57	36.8228835898741	0	1	0	1	0	36.8228835898741	0
2.58	36.8536703147095	0	1	0	1	0	36.8536703147095	0
2.59	36.8854538380414	0	1	0	1	0	36.8854538380414	0
2.6	36.9182274249596	0	1	0	1	0	36.9182274249596	0
2.61	36.9519844437709	0	1	0	1	0	36.9519844437709	0
2.62	36.9867183640295	0	1	0	1	0	36.9867183640295	0
2.63	37.0224227546116	0	1	0	1	0	37.0224227546116	0
2.64	37.059091281835	0	1	0	1	0	37.059091281835	0
2.65	37.09671770762	0	1	0	1	0	37.09671770762	0
2.66	37.135295887693	0	1	0	1	0	37.135295887693	0
2.67	37.1748197698289	0	1	0	1	0	37.1748197698289	0
2.68	37.2152833921348	0	1	0	1	0	37.2152833921348	0
2.69	37.2566808813702	0	1	0	1	0	37.2566808813702	0
2.7	37.2990064513056	0	1	0	1	0	37.2990064513056	0
2.71	37.3422544011173	0	1	0	1	0	37.3422544011173	0
2.72	37.386419113817	0	1	0	1	0	37.386419113817	0
2.73	37.4314950547167	0	1	0	1	0	37.4314950547167	0
2.74	37.4774767699267	0	1	0	1	0	37.4774767699267	0
2.75	37.5243588848868	0	1	0	1	0	37.5243588848868	0
2.76	37.5721361029288	0	1	0	1	0	37.5721361029288	0
2.77	37.6208032038707	0	1	0	1	0	37.6208032038707	0
2.78	37.670355042641	0	1	0	1	0	37.670355042641	0
2.79	37.7207865479329	0	1	0	1	0	37.7207865479329	0
2.8	37.7720927208864	0	1	0	1	0	37.7720927208864	0
2.81	37.8242686338001	0	1	0	1	0	37.8242686338001	0
2.82	37.8773094288688	0	1	0	1	0	37.8773094288688	0
2.83	37.9312103169491	0	1	0	1	0	37.9312103169491	0
2.84	37.9859665763499	0	1	0	1	0	37.9859665763499	0
2.85	38.0415735516499	0	1	0	1	0	38.0415735516499	0
2.86	38.0980266525384	0	1	0	1	0	38.0980266525384	0
2.87	38.1553213526811	0	1	0	1	0	38.1553213526811	0
2.88	38.2134531886096	0	1	0	1	0	38.2134531886096	0
2.89	38.2724177586333	0	1	0	1	0	38.2724177586333	0
2.9	38.3322107217751	0	1	0	1	0	38.3322107217751	0
2.91	38.3928277967272	0	1	0	1	0	38.3928277967272	0
2.92	38.45426476083	0	1	0	1	0	38.45426476083	0
2.93	38.5165174490713	0	1	0	1	0	38.5165174490713	0
2.94	38.5795817531055	0	1	0	1	0	38.5795817531055	0
2.95	38.6434536202936	0	1	0	1	0	38.6434536202936	0
2.96	38.7081290527617	0	1	0	1	0	38.7081290527617	0
2.97	38.7736041064796	0	1	0	1	0	38.7736041064796	0
2.98	38.839874890357	0	1	0	1	0	38.839874890357	0
2.99	38.9069375653583	0	1	0	1	0	38.9069375653583	0
3	38.974788343635	0	1	0	1	0	38.974788343635	0
3.01	39.0434234876756	0	1	0	1	0	39.0434234876756	0
3.02	39.1128393094719	0	1	0	1	0	39.1128393094719	0
3.03	39.1830321697024	0	1	0	1	0	39.1830321697024	0
3.04	39.2539984769313	0	1	0	1	0	39.2539984769313	0
3.05	39.3257346868238	0	1	0	1	0	39.3257346868238	0
3.06	39.398237301376	0	1	0	1	0	39.398237301376	0
3.07	39.4715028681607	0	1	0	1	0	39.4715028681607	0
3.08	39.5455279795876	0	1	0	1	0	39.5455279795876	0
3.09	39.6203092721773	0	1	0	1	0	39.6203092721773	0
3.1	39.6958434258504	0	1	0	1	0	39.6958434258504	0
3.11	39.7721271632293	0	1	0	1	0	39.7721271632293	0
3.12	39.8491572489542	0	1	0	1	0	39.8491572489542	0
3.13	39.9269304890116	0	1	0	1	0	39.9269304890116	0
3.14	40.0054437300761	0	1	0	1	0	40.0054437300761	0
3.15	40.0846938588648	0	1	0	1	0	40.0846938588648	0
3.16	40.164677801503	0	1	0	1	0	40.164677801503	0
3.17	40.2453925229034	0	1	0	1	0	40.2453925229034	0
3.18	40.3268350261558	0	1	0	1	0	40.3268350261558	0
3.19	40.4090023519287	0	1	0	1	0	40.4090023519287	0
3.2	40.4918915778825	0	1	0	1	0	40.4918915778825	0
3.21	40.5754998180927	0	1	0	1	0	40.5754998180927	0
3.22	40.659824222485	0	1	0	1	0	40.659824222485	0
3.23	40.7448619762803	0	1	0	1	0	40.7448619762803	0
3.24	40.8306102994495	0	1	0	1	0	40.8306102994495	0
3.25	40.9170664461795	0	1	0	1	0	40.9170664461795	0
3.26	41.004227704348	0	1	0	1	0	41.004227704348	0
3.27	41.0920913950087	0	1	0	1	0	41.0920913950087	0
3.28	41.1806548718852	0	1	0	1	0	41.1806548718852	0
3.29	41.2699155208748	0	1	0	1	0	41.2699155208748	0
3.3	41.3598707595607	0	1	0	1	0	41.3598707595607	0
3.31	41.4505180367338	0	1	0	1	0	41.4505180367338	0
3.32	41.5418548319223	0	1	0	1	0	41.5418548319223	0
3.33	41.6338786549303	0	1	0	1	0	41.6338786549303	0
3.34	41.7265870453849	0	1	0	1	0	41.7265870453849	0
3.35	41.8199775722904	0	1	0	1	0	41.8199775722904	0
3.36	41.9140478335917	0	1	0	1	0	41.9140478335917	0
3.37	42.0087954557448	0	1	0	1	0	42.0087954557448	0
3.38	42.1042180932948	0	1	0	1	0	42.1042180932948	0
3.39	42.2003134284621	0	1	0	1	0	42.2003134284621	0
3.4	42.2970791707348	0	1	0	1	0	42.2970791707348	0
3.41	42.3945130564692	0	1	0	1	0	42.3945130564692	0
3.42	42.4926128484971	0	1	0	1	0	42.4926128484971	0
3.43	42.5913763357396	0	1	0	1	0	42.5913763357396	0
3.44	42.6908013328282	0	1	0	1	0	42.6908013328282	0
3.45	42.7908856797318	0	1	0	1	0	42.7908856797318	0
3.46	42.8916272413908	0	1	0	1	0	42.8916272413908	0
3.47	42.9930239073574	0	1	0	1	0	42.9930239073574	0
3.48	43.0950735914416	0	1	0	1	0	43.0950735914416	0
3.49	43.1977742313641	0	1	0	1	0	43.1977742313641	0
3.5	43.3011237884142	0	1	0	1	0	43.3011237884142	0
3.51	43.4051202471148	0	1	0	1	0	43.4051202471148	0
3.52	43.5097616148915	0	1	0	1	0	43.5097616148915	0
3.53	43.6150459217491	0	1	0	1	0	43.6150459217491	0
3.54	43.7209712199518	0	1	0	1	0	43.7209712199518	0
3.55	43.8275355837103	0	1	0	1	0	43.8275355837103	0
3.56	43.9347371088735	0	1	0	1	0	43.9347371088735	0
3.57	44.0425739126252	0	1	0	1	0	44.0425739126252	0
3.58	44.1510441331863	0	1	0	1	0	44.1510441331863	0
3.59	44.2601459295216	0	1	0	1	0	44.2601459295216	0
3.6	44.3698774810521	0	1	0	1	0	44.3698774810521	0
3.61	44.4802369873713	0	1	0	1	0	44.4802369873713	0
3.62	44.5912226679666	0	1	0	1	0	44.5912226679666	0
3.63	44.7028327619456	0	1	0	1	0	44.7028327619456	0
3.64	44.8150655277661	0	1	0	1	0	44.8150655277661	0
3.65	44.9279192429715	0	1	0	1	0	44.9279192429715	0
3.66	45.0413922039298	0	1	0	1	0	45.0413922039298	0
3.67	45.1554827255771	0	1	0	1	0	45.1554827255771	0
3.68	45.2701891411655	0	1	0	1	0	45.2701891411655	0
3.69	45.3855098020149	0	1	0	1	0	45.3855098020149	0
3.7	45.5014430772687	0	1	0	1	0	45.5014430772687	0
3.71	45.6179873536536	0	1	0	1	0	45.6179873536536	0
3.72	45.7351410352434	0	1	0	1	0	45.7351410352434	0
3.73	45.8529025432264	0	1	0	1	0	45.8529025432264	0
3.74	45.9712703156764	0	1	0	1	0	45.9712703156764	0
3.75	46.0902428073281	0	1	0	1	0	46.0902428073281	0
3.76	46.2098184893549	0	1	0	1	0	46.2098184893549	0
3.77	46.3299958491512	0	1	0	1	0	46.3299958491512	0
3.78	46.450773390118	0	1	0	1	0	46.450773390118	0
3.79	46.5721496314514	0	1	0	1	0	46.5721496314514	0
3.8	46.6941231079348	0	1	0	1	0	46.6941231079348	0
3.81	46.8166923697346	0	1	0	1	0	46.8166923697346	0
3.82	46.9398559821988	0	1	0	1	0	46.9398559821988	0
3.83	47.0636125256585	0	1	0	1	0	47.0636125256585	0
3.84	47.1879605952331	0	1	0	1	0	47.1879605952331	0
3.85	47.3128988006382	0	1	0	1	0	47.3128988006382	0
3.86	47.4384257659965	0	1	0	1	0	47.4384257659965	0
3.87	47.5645401296515	0	1	0	1	0	47.5645401296515	0
3.88	47.6912405439846	0	1	0	1	0	47.6912405439846	0
3.89	47.8185256752343	0	1	0	1	0	47.8185256752343	0
3.9	47.9463942033189	0	1	0	1	0	47.9463942033189	0
3.91	48.0748448216611	0	1	0	1	0	48.0748448216611	0
3.92	48.2038762370162	0	1	0	1	0	48.2038762370162	0
3.93	48.3334871693024	0	1	0	1	0	48.3334871693024	0
3.94	48.4636763514333	0	1	0	1	0	48.4636763514333	0
3.95	48.5944425291542	0	1	0	1	0	48.5944425291542	0
3.96	48.7257844608792	0	1	0	1	0	48.7257844608792	0
3.97	48.8577009175325	0	1	0	1	0	48.8577009175325	0
3.98	48.9901906823905	0	1	0	1	0	48.9901906823905	0
3.99	49.1232525509274	0	1	0	1	0	49.1232525509274	0
4	49.2568853306628	0	1	0	1	0	49.2568853306628	0
4.01	49.3910878410112	0	1	0	1	0	49.3910878410112	0
4.02	49.5258589131344	0	1	0	1	0	49.5258589131344	0
4.03	49.6611973897954	0	1	0	1	0	49.6611973897954	0
4.04	49.797102125215	0	1	0	1	0	49.797102125215	0
4.05	49.9335719849304	0	1	0	1	0	49.9335719849304	0
4.06	50.0706058456558	0	1	0	1	0	50.0706058456558	0
4.07	50.2082025951451	0	1	0	1	0	50.2082025951451	0
4.08	50.3463611320563	0	1	0	1	0	50.3463611320563	0
4.09	50.4850803658189	0	1	0	1	0	50.4850803658189	0
4.1	50.6243592165018	0	1	0	1	0	50.6243592165018	0
4.11	50.7641966146842	0	1	0	1	0	50.7641966146842	0
4.12	50.9045915013282	0	1	0	1	0	50.9045915013282	0
4.13	51.0455428276527	0	1	0	1	0	51.0455428276527	0
4.14	51.1870495550099	0	1	0	1	0	51.1870495550099	0
4.15	51.3291106547631	0	1	0	1	0	51.3291106547631	0
4.16	51.4717251081662	0	1	0	1	0	51.4717251081662	0
4.17	51.6148919062454	0	1	0	1	0	51.6148919062454	0
4.18	51.7586100496819	0	1	0	1	0	51.7586100496819	0
4.19	51.9028785486972	0	1	0	1	0	51.9028785486972	0
4.2	52.0476964229392	0	1	0	1	0	52.0476964229392	0
4.21	52.1930627013702	0	1	0	1	0	52.1930627013702	0
4.22	52.3389764221567	0	1	0	1	0	52.3389764221567	0
4.23	52.4854366325607	0	1	0	1	0	52.4854366325607	0
4.24	52.632442388832	0	1	0	1	0	52.632442388832	0
4.25	52.7799927561031	0	1	0	1	0	52.7799927561031	0
4.26	52.9280868082842	0	1	0	1	0	52.9280868082842	0
4.27	53.0767236279613	0	1	0	1	0	53.0767236279613	0
4.28	53.2259023062939	0	1	0	1	0	53.2259023062939	0
4.29	53.3756219429157	0	1	0	1	0	53.3756219429157	0
4.3	53.5258816458361	0	1	0	1	0	53.5258816458361	0
4.31	53.6766805313426	0	1	0	1	0	53.6766805313426	0
4.32	53.8280177239053	0	1	0	1	0	53.8280177239053	0
4.33	53.9798923560822	0	1	0	1	0	53.9798923560822	0
4.34	54.1323035684265	0	1	0	1	0	54.1323035684265	0
4.35	54.285250509394	0	1	0	1	0	54.285250509394	0
4.36	54.4387323352531	0	1	0	1	0	54.4387323352531	0
4.37	54.5927482099948	0	1	0	1	0	54.5927482099948	0
4.38	54.7472973052454	0	1	0	1	0	54.7472973052454	0
4.39	54.9023788001785	0	1	0	1	0	54.9023788001785	0
4.4	55.05799188143	0	1	0	1	0	55.05799188143	0
4.41	55.2141357430134	0	1	0	1	0	55.2141357430134	0
4.42	55.3708095862359	0	1	0	1	0	55.3708095862359	0
4.43	55.5280126196165	0	1	0	1	0	55.5280126196165	0
4.44	55.6857440588048	0	1	0	1	0	55.6857440588048	0
4.45	55.8440031265005	0	1	0	1	0	55.8440031265005	0
4.46	56.0027890523747	0	1	0	1	0	56.0027890523747	0
4.47	56.1621010729919	0	1	0	1	0	56.1621010729919	0
4.48	56.3219384317329	0	1	0	1	0	56.3219384317329	0
4.49	56.4823003787191	0	1	0	1	0	56.4823003787191	0
4.5	56.6431861707372	0	1	0	1	0	56.6431861707372	0
4.51	56.8045950711659	0	1	0	1	0	56.8045950711659	0
4.52	56.9665263499025	0	1	0	1	0	56.9665263499025	0
4.53	57.1289792832913	0	1	0	1	0	57.1289792832913	0
4.54	57.2919531540522	0	1	0	1	0	57.2919531540522	0
4.55	57.455447251211	0	1	0	1	0	57.455447251211	0
4.56	57.6194608700301	0	1	0	1	0	57.6194608700301	0
4.57	57.7839933119402	0	1	0	1	0	57.7839933119402	0
4.58	57.9490438844731	0	1	0	1	0	57.9490438844731	0
4.59	58.1146119011953	0	1	0	1	0	58.1146119011953	0
4.6	58.280696681642	0	1	0	1	0	58.280696681642	0
4.61	58.447297551253	0	1	0	1	0	58.447297551253	0
4.62	58.6144138413081	0	1	0	1	0	58.6144138413081	0
4.63	58.7820448888647	0	1	0	1	0	58.7820448888647	0
4.64	58.9501900366949	0	1	0	1	0	58.9501900366949	0
4.65	59.1188486332247	0	1	0	1	0	59.1188486332247	0
4.66	59.2880200324728	0	1	0	1	0	59.2880200324728	0
4.67	59.457703593991	0	1	0	1	0	59.457703593991	0
4.68	59.6278986828049	0	1	0	1	0	59.6278986828049	0
4.69	59.7986046693559	0	1	0	1	0	59.7986046693559	0
4.7	59.9698209294432	0	1	0	1	0	59.9698209294432	0
4.71	60.1415468441669	0	1	0	1	0	60.1415468441669	0
4.72	60.3137817998724	0	1	0	1	0	60.3137817998724	0
4.73	60.4865251880942	0	1	0	1	0	60.4865251880942	0
4.74	60.6597764055018	0	1	0	1	0	60.6597764055018	0
4.75	60.8335348538452	0	1	0	1	0	60.8335348538452	0
4.76	61.0077999399018	0	1	0	1	0	61.0077999399018	0
4.77	61.1825710754235	0	1	0	1	0	61.1825710754235	0
4.78	61.3578476770851	0	1	0	1	0	61.3578476770851	0
4.79	61.5336291664321	0	1	0	1	0	61.5336291664321	0
4.8	61.7099149698309	0	1	0	1	0	61.7099149698309	0
4.81	61.8867045184179	0	1	0	1	0	61.8867045184179	0
4.82	62.0639972480506	0	1	0	1	0	62.0639972480506	0
4.83	62.2417925992584	0	1	0	1	0	62.2417925992584	0
4.84	62.4200900171944	0	1	0	1	0	62.4200900171944	0
4.85	62.5988889515879	0	1	0	1	0	62.5988889515879	0
4.86	62.7781888566969	0	1	0	1	0	62.7781888566969	0
4.87	62.9579891912621	0	1	0	1	0	62.9579891912621	0
4.88	63.1382894184606	0	1	0	1	0	63.1382894184606	0
4.89	63.319089005861	0	1	0	1	0	63.319089005861	0
4.9	63.5003874253779	0	1	0	1	0	63.5003874253779	0
4.91	63.6821841532282	0	1	0	1	0	63.6821841532282	0
4.92	63.8644786698872	0	1	0	1	0	63.8644786698872	0
4.93	64.0472704600454	0	1	0	1	0	64.0472704600454	0
