# GHZ S RI R 50
1	52.7704431427553	0	1	0	1	0	52.7704431427553	0
1.01	52.3310722810322	0	1	0	1	0	52.3310722810322	0
1.02	51.9016444023236	0	1	0	1	0	51.9016444023236	0
1.03	51.4818829247484	0	1	0	1	0	51.4818829247484	0
1.04	51.0715219041902	0	1	0	1	0	51.0715219041902	0
1.05	50.6703055277369	0	1	0	1	0	50.6703055277369	0
1.06	50.2779876357939	0	1	0	1	0	50.2779876357939	0
1.07	49.8943312709945	0	1	0	1	0	49.8943312709945	0
1.08	49.5191082521707	0	1	0	1	0	49.5191082521707	0
1.09	49.1520987717753	0	1	0	1	0	49.1520987717753	0
1.1	48.7930910152629	0	1	0	1	0	48.7930910152629	0
1.11	48.4418808010447	0	1	0	1	0	48.4418808010447	0
1.12	48.0982712397313	0	1	0	1	0	48.0982712397313	0
1.13	47.7620724114696	0	1	0	1	0	47.7620724114696	0
1.14	47.4331010602605	0	1	0	1	0	47.4331010602605	0
1.15	47.1111803042271	0	1	0	1	0	47.1111803042271	0
1.16	46.7961393608672	0	1	0	1	0	46.7961393608672	0
1.17	46.4878132863968	0	1	0	1	0	46.4878132863968	0
1.18	46.1860427283466	0	1	0	1	0	46.1860427283466	0
1.19	45.8906736906327	0	1	0	1	0	45.8906736906327	0
1.2	45.6015573103741	0	1	0	1	0	45.6015573103741	0
1.21	45.3185496457769	0	1	0	1	0	45.3185496457769	0
1.22	45.04151147445	0	1	0	1	0	45.04151147445	0
1.23	44.77030810156	0	1	0	1	0	44.77030810156	0
1.24	44.5048091772679	0	1	0	1	0	44.5048091772679	0
1.25	44.2448885229296	0	1	0	1	0	44.2448885229296	0
1.26	43.9904239655725	0	1	0	1	0	43.9904239655725	0
1.27	43.7412971801912	0	1	0	1	0	43.7412971801912	0
1.28	43.4973935394371	0	1	0	1	0	43.4973935394371	0
1.29	43.2586019702978	0	1	0	1	0	43.2586019702978	0
1.3	43.0248148173921	0	1	0	1	0	43.0248148173921	0
1.31	42.795927712526	0	1	0	1	0	42.795927712526	0
1.32	42.571839450178	0	1	0	1	0	42.571839450178	0
1.33	42.3524518686018	0	1	0	1	0	42.3524518686018	0
1.34	42.1376697362525	0	1	0	1	0	42.1376697362525	0
1.35	41.9274006432603	0	1	0	1	0	41.9274006432603	0
1.36	41.7215548976931	0	1	0	1	0	41.7215548976931	0
1.37	41.5200454263612	0	1	0	1	0	41.5200454263612	0
1.38	41.3227876799355	0	1	0	1	0	41.3227876799355	0
1.39	41.1296995421611	0	1	0	1	0	41.1296995421611	0
1.4	40.9407012429618	0	1	0	1	0	40.9407012429618	0
1.41	40.7557152752422	0	1	0	1	0	40.7557152752422	0
1.42	40.5746663152056	0	1	0	1	0	40.5746663152056	0
1.43	40.3974811460145	0	1	0	1	0	40.3974811460145	0
1.44	40.2240885846323	0	1	0	1	0	40.2240885846323	0
1.45	40.0544194116927	0	1	0	1	0	40.0544194116927	0
1.46	39.8884063042501	0	1	0	1	0	39.8884063042501	0
1.47	39.7259837712759	0	1	0	1	0	39.7259837712759	0
1.48	39.5670880917694	0	1	0	1	0	39.5670880917694	0
1.49	39.4116572553606	0	1	0	1	0	39.4116572553606	0
1.5	39.2596309052896	0	1	0	1	0	39.2596309052896	0
1.51	39.1109502836508	0	1	0	1	0	39.1109502836508	0
1.52	38.9655581787994	0	1	0	1	0	38.9655581787994	0
1.53	38.82339887482	0	1	0	1	0	38.82339887482	0
1.54	38.6844181029636	0	1	0	1	0	38.6844181029636	0
1.55	38.5485629949651	0	1	0	1	0	38.5485629949651	0
1.56	38.4157820381562	0	1	0	1	0	38.4157820381562	0
1.57	38.286025032293	0	1	0	1	0	38.286025032293	0
1.58	38.1592430480238	0	1	0	1	0	38.1592430480238	0
1.59	38.0353883869242	0	1	0	1	0	38.0353883869242	0
1.6	37.9144145430303	0	1	0	1	0	37.9144145430303	0
1.61	37.7962761658059	0	1	0	1	0	37.7962761658059	0
1.62	37.6809290244812	0	1	0	1	0	37.6809290244812	0
1.63	37.5683299737038	0	1	0	1	0	37.5683299737038	0
1.64	37.4584369204473	0	1	0	1	0	37.4584369204473	0
1.65	37.351208792122	0	1	0	1	0	37.351208792122	0
1.66	37.2466055058395	0	1	0	1	0	37.2466055058395	0
1.67	37.1445879387803	0	1	0	1	0	37.1445879387803	0
1.68	37.0451178996207	0	1	0	1	0	37.0451178996207	0
1.69	36.9481581009736	0	1	0	1	0	36.9481581009736	0
1.7	36.8536721328023	0	1	0	1	0	36.8536721328023	0
1.71	36.7616244367668	0	1	0	1	0	36.7616244367668	0
1.72	36.6719802814652	0	1	0	1	0	36.6719802814652	0
1.73	36.5847057385339	0	1	0	1	0	36.5847057385339	0
1.74	36.4997676595715	0	1	0	1	0	36.4997676595715	0
1.75	36.4171336538546	0	1	0	1	0	36.4171336538546	0
1.76	36.3367720668124	0	1	0	1	0	36.3367720668124	0
1.77	36.2586519592317	0	1	0	1	0	36.2586519592317	0
1.78	36.1827430871625	0	1	0	1	0	36.1827430871625	0
1.79	36.1090158824973	0	1	0	1	0	36.1090158824973	0
1.8	36.0374414341976	0	1	0	1	0	36.0374414341976	0
1.81	35.9679914701429	0	1	0	1	0	35.9679914701429	0
1.82	35.9006383395781	0	1	0	1	0	35.9006383395781	0
1.83	35.835354996136	0	1	0	1	0	35.835354996136	0
1.84	35.772114981414	0	1	0	1	0	35.772114981414	0
1.85	35.7108924090831	0	1	0	1	0	35.7108924090831	0
1.86	35.6516619495094	0	1	0	1	0	35.6516619495094	0
1.87	35.5943988148695	0	1	0	1	0	35.5943988148695	0
1.88	35.5390787447405	0	1	0	1	0	35.5390787447405	0
1.89	35.4856779921475	0	1	0	1	0	35.4856779921475	0
1.9	35.4341733100521	0	1	0	1	0	35.4341733100521	0
1.91	35.3845419382645	0	1	0	1	0	35.3845419382645	0
1.92	35.336761590766	0	1	0	1	0	35.336761590766	0
1.93	35.290810443424	0	1	0	1	0	35.290810443424	0
1.94	35.2466671220879	0	1	0	1	0	35.2466671220879	0
1.95	35.2043106910517	0	1	0	1	0	35.2043106910517	0
1.96	35.1637206418681	0	1	0	1	0	35.1637206418681	0
1.97	35.1248768825055	0	1	0	1	0	35.1248768825055	0
1.98	35.0877597268316	0	1	0	1	0	35.0877597268316	0
1.99	35.0523498844153	0	1	0	1	0	35.0523498844153	0
2	35.0186284506343	0	1	0	1	0	35.0186284506343	0
2.01	34.9865768970775	0	1	0	1	0	34.9865768970775	0
2.02	34.9561770622331	0	1	0	1	0	34.9561770622331	0
2.03	34.9274111424515	0	1	0	1	0	34.9274111424515	0
2.04	34.9002616831745	0	1	0	1	0	34.9002616831745	0
2.05	34.8747115704205	0	1	0	1	0	34.8747115704205	0
2.06	34.8507440225181	0	1	0	1	0	34.8507440225181	0
2.07	34.8283425820796	0	1	0	1	0	34.8283425820796	0
2.08	34.8074911082056	0	1	0	1	0	34.8074911082056	0
2.09	34.7881737689131	0	1	0	1	0	34.7881737689131	0
2.1	34.770375033781	0	1	0	1	0	34.770375033781	0
2.11	34.7540796668035	0	1	0	1	0	34.7540796668035	0
2.12	34.7392727194469	0	1	0	1	0	34.7392727194469	0
2.13	34.725939523901	0	1	0	1	0	34.725939523901	0
2.14	34.7140656865201	0	1	0	1	0	34.7140656865201	0
2.15	34.7036370814476	0	1	0	1	0	34.7036370814476	0
2.16	34.6946398444165	0	1	0	1	0	34.6946398444165	0
2.17	34.6870603667226	0	1	0	1	0	34.6870603667226	0
2.18	34.6808852893625	0	1	0	1	0	34.6808852893625	0
2.19	34.6761014973331	0	1	0	1	0	34.6761014973331	0
2.2	34.6726961140855	0	1	0	1	0	34.6726961140855	0
2.21	34.6706564961309	0	1	0	1	0	34.6706564961309	0
2.22	34.6699702277909	0	1	0	1	0	34.6699702277909	0
2.23	34.67062511609	0	1	0	1	0	34.67062511609	0
2.24	34.6726091857843	0	1	0	1	0	34.6726091857843	0
2.25	34.675910674523	0	1	0	1	0	34.675910674523	0
2.26	34.6805180281388	0	1	0	1	0	34.6805180281388	0
2.27	34.6864198960619	0	1	0	1	0	34.6864198960619	0
2.28	34.6936051268552	0	1	0	1	0	34.6936051268552	0
2.29	34.7020627638667	0	1	0	1	0	34.7020627638667	0
2.3	34.7117820409947	0	1	0	1	0	34.7117820409947	0
2.31	34.7227523785638	0	1	0	1	0	34.7227523785638	0
2.32	34.7349633793065	0	1	0	1	0	34.7349633793065	0
2.33	34.7484048244493	0	1	0	1	0	34.7484048244493	0
2.34	34.7630666698984	0	1	0	1	0	34.7630666698984	0
2.35	34.7789390425237	0	1	0	1	0	34.7789390425237	0
2.36	34.7960122365359	0	1	0	1	0	34.7960122365359	0
2.37	34.8142767099566	0	1	0	1	0	34.8142767099566	0
2.38	34.8337230811769	0	1	0	1	0	34.8337230811769	0
2.39	34.8543421256022	0	1	0	1	0	34.8543421256022	0
2.4	34.8761247723811	0	1	0	1	0	34.8761247723811	0
2.41	34.8990621012157	0	1	0	1	0	34.8990621012157	0
2.42	34.9231453392513	0	1	0	1	0	34.9231453392513	0
2.43	34.948365858042	0	1	0	1	0	34.948365858042	0
2.44	34.9747151705921	0	1	0	1	0	34.9747151705921	0
2.45	35.002184928469	0	1	0	1	0	35.002184928469	0
2.46	35.0307669189868	0	1	0	1	0	35.0307669189868	0
2.47	35.0604530624588	0	1	0	1	0	35.0604530624588	0
2.48	35.0912354095158	0	1	0	1	0	35.0912354095158	0
2.49	35.1231061384893	0	1	0	1	0	35.1231061384893	0
2.5	35.1560575528573	0	1	0	1	0	35.1560575528573	0
2.51	35.1900820787517	0	1	0	1	0	35.1900820787517	0
2.52	35.2251722625247	0	1	0	1	0	35.2251722625247	0
2.53	35.2613207683723	0	1	0	1	0	35.2613207683723	0
2.54	35.2985203760154	0	1	0	1	0	35.2985203760154	0
2.55	35.336763978434	0	1	0	1	0	35.336763978434	0
2.56	35.3760445796552	0	1	0	1	0	35.3760445796552	0
2.57	35.416355292593	0	1	0	1	0	35.416355292593	0
2.58	35.4576893369378	0	1	0	1	0	35.4576893369378	0
2.59	35.5000400370953	0	1	0	1	0	35.5000400370953	0
2.6	35.5434008201726	0	1	0	1	0	35.5434008201726	0
2.61	35.5877652140108	0	1	0	1	0	35.5877652140108	0
2.62	35.6331268452627	0	1	0	1	0	35.6331268452627	0
2.63	35.6794794375138	0	1	0	1	0	35.6794794375138	0
2.64	35.7268168094472	0	1	0	1	0	35.7268168094472	0
2.65	35.7751328730487	0	1	0	1	0	35.7751328730487	0
2.66	35.8244216318531	0	1	0	1	0	35.8244216318531	0
2.67	35.87467717923	0	1	0	1	0	35.87467717923	0
2.68	35.9258936967078	0	1	0	1	0	35.9258936967078	0
2.69	35.9780654523346	0	1	0	1	0	35.9780654523346	0
2.7	36.0311867990765	0	1	0	1	0	36.0311867990765	0
2.71	36.0852521732507	0	1	0	1	0	36.0852521732507	0
2.72	36.1402560929931	0	1	0	1	0	36.1402560929931	0
2.73	36.1961931567602	0	1	0	1	0	36.1961931567602	0
2.74	36.2530580418629	0	1	0	1	0	36.2530580418629	0
2.75	36.3108455030331	0	1	0	1	0	36.3108455030331	0
2.76	36.3695503710211	0	1	0	1	0	36.3695503710211	0
2.77	36.4291675512235	0	1	0	1	0	36.4291675512235	0
2.78	36.4896920223404	0	1	0	1	0	36.4896920223404	0
2.79	36.5511188350619	0	1	0	1	0	36.5511188350619	0
2.8	36.6134431107827	0	1	0	1	0	36.6134431107827	0
2.81	36.6766600403435	0	1	0	1	0	36.6766600403435	0
2.82	36.7407648828002	0	1	0	1	0	36.7407648828002	0
2.83	36.8057529642187	0	1	0	1	0	36.8057529642187	0
2.84	36.8716196764947	0	1	0	1	0	36.8716196764947	0
2.85	36.9383604761991	0	1	0	1	0	36.9383604761991	0
2.86	37.0059708834474	0	1	0	1	0	37.0059708834474	0
2.87	37.0744464807922	0	1	0	1	0	37.0744464807922	0
2.88	37.1437829121399	0	1	0	1	0	37.1437829121399	0
2.89	37.2139758816887	0	1	0	1	0	37.2139758816887	0
2.9	37.2850211528892	0	1	0	1	0	37.2850211528892	0
2.91	37.3569145474263	0	1	0	1	0	37.3569145474263	0
2.92	37.4296519442224	0	1	0	1	0	37.4296519442224	0
2.93	37.5032292784599	0	1	0	1	0	37.5032292784599	0
2.94	37.5776425406252	0	1	0	1	0	37.5776425406252	0
2.95	37.6528877755708	0	1	0	1	0	37.6528877755708	0
2.96	37.7289610815973	0	1	0	1	0	37.7289610815973	0
2.97	37.8058586095532	0	1	0	1	0	37.8058586095532	0
2.98	37.8835765619537	0	1	0	1	0	37.8835765619537	0
2.99	37.9621111921163	0	1	0	1	0	37.9621111921163	0
3	38.0414588033144	0	1	0	1	0	38.0414588033144	0
3.01	38.1216157479472	0	1	0	1	0	38.1216157479472	0
3.02	38.2025784267266	0	1	0	1	0	38.2025784267266	0
3.03	38.2843432878798	0	1	0	1	0	38.2843432878798	0
3.04	38.3669068263679	0	1	0	1	0	38.3669068263679	0
3.05	38.4502655831198	0	1	0	1	0	38.4502655831198	0
3.06	38.5344161442807	0	1	0	1	0	38.5344161442807	0
3.07	38.6193551404763	0	1	0	1	0	38.6193551404763	0
3.08	38.7050792460904	0	1	0	1	0	38.7050792460904	0
3.09	38.7915851785566	0	1	0	1	0	38.7915851785566	0
3.1	38.8788696976645	0	1	0	1	0	38.8788696976645	0
3.11	38.9669296048782	0	1	0	1	0	38.9669296048782	0
3.12	39.0557617426688	0	1	0	1	0	39.0557617426688	0
3.13	39.1453629938591	0	1	0	1	0	39.1453629938591	0
3.14	39.2357302809814	0	1	0	1	0	39.2357302809814	0
3.15	39.3268605656465	0	1	0	1	0	39.3268605656465	0
3.16	39.4187508479264	0	1	0	1	0	39.4187508479264	0
3.17	39.5113981657466	0	1	0	1	0	39.5113981657466	0
3.18	39.6047995942916	0	1	0	1	0	39.6047995942916	0
3.19	39.6989522454208	0	1	0	1	0	39.6989522454208	0
3.2	39.7938532670951	0	1	0	1	0	39.7938532670951	0
3.21	39.8894998428151	0	1	0	1	0	39.8894998428151	0
3.22	39.9858891910688	0	1	0	1	0	39.9858891910688	0
3.23	40.0830185647902	0	1	0	1	0	40.0830185647902	0
3.24	40.1808852508277	0	1	0	1	0	40.1808852508277	0
3.25	40.2794865694224	0	1	0	1	0	40.2794865694224	0
3.26	40.3788198736958	0	1	0	1	0	40.3788198736958	0
3.27	40.4788825491471	0	1	0	1	0	40.4788825491471	0
3.28	40.5796720131597	0	1	0	1	0	40.5796720131597	0
3.29	40.6811857145166	0	1	0	1	0	40.6811857145166	0
3.3	40.7834211329247	0	1	0	1	0	40.7834211329247	0
3.31	40.8863757785474	0	1	0	1	0	40.8863757785474	0
3.32	40.9900471915464	0	1	0	1	0	40.9900471915464	0
3.33	41.0944329416309	0	1	0	1	0	41.0944329416309	0
3.34	41.1995306276152	0	1	0	1	0	41.1995306276152	0
3.35	41.3053378769849	0	1	0	1	0	41.3053378769849	0
3.36	41.4118523454693	0	1	0	1	0	41.4118523454693	0
3.37	41.5190717166233	0	1	0	1	0	41.5190717166233	0
3.38	41.626993701415	0	1	0	1	0	41.626993701415	0
3.39	41.7356160378222	0	1	0	1	0	41.7356160378222	0
3.4	41.8449364904341	0	1	0	1	0	41.8449364904341	0
3.41	41.9549528500623	0	1	0	1	0	41.9549528500623	0
3.42	42.0656629333565	0	1	0	1	0	42.0656629333565	0
3.43	42.1770645824284	0	1	0	1	0	42.1770645824284	0
3.44	42.2891556644813	0	1	0	1	0	42.2891556644813	0
3.45	42.4019340714466	0	1	0	1	0	42.4019340714466	0
3.46	42.5153977196266	0	1	0	1	0	42.5153977196266	0
3.47	42.629544549343	0	1	0	1	0	42.629544549343	0
3.48	42.7443725245919	0	1	0	1	0	42.7443725245919	0
3.49	42.8598796327048	0	1	0	1	0	42.8598796327048	0
3.5	42.9760638840153	0	1	0	1	0	42.9760638840153	0
3.51	43.0929233115308	0	1	0	1	0	43.0929233115308	0
3.52	43.2104559706114	0	1	0	1	0	43.2104559706114	0
3.53	43.3286599386525	0	1	0	1	0	43.3286599386525	0
3.54	43.4475333147738	0	1	0	1	0	43.4475333147738	0
3.55	43.5670742195135	0	1	0	1	0	43.5670742195135	0
3.56	43.6872807945273	0	1	0	1	0	43.6872807945273	0
3.57	43.8081512022927	0	1	0	1	0	43.8081512022927	0
3.58	43.9296836258182	0	1	0	1	0	43.9296836258182	0
3.59	44.0518762683573	0	1	0	1	0	44.0518762683573	0
3.6	44.1747273531274	0	1	0	1	0	44.1747273531274	0
3.61	44.2982351230331	0	1	0	1	0	44.2982351230331	0
3.62	44.4223978403945	0	1	0	1	0	44.4223978403945	0
3.63	44.5472137866797	0	1	0	1	0	44.5472137866797	0
3.64	44.6726812622419	0	1	0	1	0	44.6726812622419	0
3.65	44.7987985860603	0	1	0	1	0	44.7987985860603	0
3.66	44.9255640954861	0	1	0	1	0	44.9255640954861	0
3.67	45.0529761459919	0	1	0	1	0	45.0529761459919	0
3.68	45.1810331109258	0	1	0	1	0	45.1810331109258	0
3.69	45.3097333812686	0	1	0	1	0	45.3097333812686	0
3.7	45.4390753653964	0	1	0	1	0	45.4390753653964	0
3.71	45.5690574888452	0	1	0	1	0	45.5690574888452	0
3.72	45.6996781940811	0	1	0	1	0	45.6996781940811	0
3.73	45.8309359402727	0	1	0	1	0	45.8309359402727	0
3.74	45.9628292030681	0	1	0	1	0	45.9628292030681	0
3.75	46.0953564743754	0	1	0	1	0	46.0953564743754	0
3.76	46.228516262146	0	1	0	1	0	46.228516262146	0
3.77	46.3623070901621	0	1	0	1	0	46.3623070901621	0
3.78	46.4967274978273	0	1	0	1	0	46.4967274978273	0
3.79	46.6317760399605	0	1	0	1	0	46.6317760399605	0
3.8	46.7674512865928	0	1	0	1	0	46.7674512865928	0
3.81	46.9037518227685	0	1	0	1	0	46.9037518227685	0
3.82	47.0406762483477	0	1	0	1	0	47.0406762483477	0
3.83	47.1782231778139	0	1	0	1	0	47.1782231778139	0
3.84	47.3163912400826	0	1	0	1	0	47.3163912400826	0
3.85	47.4551790783146	0	1	0	1	0	47.4551790783146	0
3.86	47.5945853497311	0	1	0	1	0	47.5945853497311	0
3.87	47.7346087254322	0	1	0	1	0	47.7346087254322	0
3.88	47.875247890218	0	1	0	1	0	47.875247890218	0
3.89	48.0165015424125	0	1	0	1	0	48.0165015424125	0
3.9	48.1583683936902	0	1	0	1	0	48.1583683936902	0
3.91	48.3008471689055	0	1	0	1	0	48.3008471689055	0
3.92	48.4439366059243	0	1	0	1	0	48.4439366059243	0
3.93	48.5876354554587	0	1	0	1	0	48.5876354554587	0
3.94	48.7319424809042	0	1	0	1	0	48.7319424809042	0
3.95	48.8768564581784	0	1	0	1	0	48.8768564581784	0
3.96	49.0223761755639	0	1	0	1	0	49.0223761755639	0
3.97	49.1685004335515	0	1	0	1	0	49.1685004335515	0
3.98	49.3152280446878	0	1	0	1	0	49.3152280446878	0
3.99	49.4625578334235	0	1	0	1	0	49.4625578334235	0
4	49.6104886359648	0	1	0	1	0	49.6104886359648	0
4.01	49.7590193001268	0	1	0	1	0	49.7590193001268	0
4.02	49.9081486851893	0	1	0	1	0	49.9081486851893	0
4.03	50.0578756617541	0	1	0	1	0	50.0578756617541	0
4.04	50.2081991116054	0	1	0	1	0	50.2081991116054	0
4.05	50.3591179275715	0	1	0	1	0	50.3591179275715	0
4.06	50.5106310133884	0	1	0	1	0	50.5106310133884	0
4.07	50.6627372835669	0	1	0	1	0	50.6627372835669	0
4.08	50.8154356632591	0	1	0	1	0	50.8154356632591	0
4.09	50.9687250881297	0	1	0	1	0	50.9687250881297	0
4.1	51.1226045042268	0	1	0	1	0	51.1226045042268	0
4.11	51.2770728678559	0	1	0	1	0	51.2770728678559	0
4.12	51.4321291454556	0	1	0	1	0	51.4321291454556	0
4.13	51.5877723134749	0	1	0	1	0	51.5877723134749	0
4.14	51.7440013582519	0	1	0	1	0	51.7440013582519	0
4.15	51.9008152758951	0	1	0	1	0	51.9008152758951	0
4.16	52.0582130721658	0	1	0	1	0	52.0582130721658	0
4.17	52.2161937623622	0	1	0	1	0	52.2161937623622	0
4.18	52.3747563712058	0	1	0	1	0	52.3747563712058	0
4.19	52.5338999327284	0	1	0	1	0	52.5338999327284	0
4.2	52.6936234901615	0	1	0	1	0	52.6936234901615	0
4.21	52.8539260958272	0	1	0	1	0	52.8539260958272	0
4.22	53.01480681103	0	1	0	1	0	53.01480681103	0
4.23	53.1762647059514	0	1	0	1	0	53.1762647059514	0
4.24	53.3382988595443	0	1	0	1	0	53.3382988595443	0
4.25	53.5009083594308	0	1	0	1	0	53.5009083594308	0
4.26	53.6640923017994	0	1	0	1	0	53.6640923017994	0
4.27	53.8278497913056	0	1	0	1	0	53.8278497913056	0
4.28	53.9921799409724	0	1	0	1	0	53.9921799409724	0
4.29	54.1570818720932	0	1	0	1	0	54.1570818720932	0
4.3	54.3225547141351	0	1	0	1	0	54.3225547141351	0
4.31	54.4885976046446	0	1	0	1	0	54.4885976046446	0
4.32	54.6552096891538	0	1	0	1	0	54.6552096891538	0
4.33	54.8223901210885	0	1	0	1	0	54.8223901210885	0
4.34	54.9901380616766	0	1	0	1	0	54.9901380616766	0
4.35	55.1584526798592	0	1	0	1	0	55.1584526798592	0
4.36	55.3273331522018	0	1	0	1	0	55.3273331522018	0
4.37	55.4967786628067	0	1	0	1	0	55.4967786628067	0
4.38	55.6667884032276	0	1	0	1	0	55.6667884032276	0
4.39	55.8373615723845	0	1	0	1	0	55.8373615723845	0
4.4	56.0084973764799	0	1	0	1	0	56.0084973764799	0
4.41	56.180195028916	0	1	0	1	0	56.180195028916	0
4.42	56.352453750214	0	1	0	1	0	56.352453750214	0
4.43	56.5252727679329	0	1	0	1	0	56.5252727679329	0
4.44	56.6986513165909	0	1	0	1	0	56.6986513165909	0
4.45	56.8725886375867	0	1	0	1	0	56.8725886375867	0
4.46	57.0470839791227	0	1	0	1	0	57.0470839791227	0
4.47	57.2221365961289	0	1	0	1	0	57.2221365961289	0
4.48	57.3977457501876	0	1	0	1	0	57.3977457501876	0
4.49	57.5739107094594	0	1	0	1	0	57.5739107094594	0
4.5	57.7506307486101	0	1	0	1	0	57.7506307486101	0
4.51	57.9279051487389	0	1	0	1	0	57.9279051487389	0
4.52	58.1057331973066	0	1	0	1	0	58.1057331973066	0
4.53	58.284114188066	0	1	0	1	0	58.284114188066	0
4.54	58.4630474209921	0	1	0	1	0	58.4630474209921	0
4.55	58.6425322022143	0	1	0	1	0	58.6425322022143	0
4.56	58.8225678439482	0	1	0	1	0	58.8225678439482	0
4.57	59.0031536644297	0	1	0	1	0	59.0031536644297	0
4.58	59.1842889878488	0	1	0	1	0	59.1842889878488	0
4.59	59.365973144285	0	1	0	1	0	59.365973144285	0
4.6	59.5482054696431	0	1	0	1	0	59.5482054696431	0
4.61	59.7309853055903	0	1	0	1	0	59.7309853055903	0
4.62	59.9143119994934	0	1	0	1	0	59.9143119994934	0
4.63	60.0981849043576	0	1	0	1	0	60.0981849043576	0
4.64	60.2826033787659	0	1	0	1	0	60.2826033787659	0
4.65	60.4675667868183	0	1	0	1	0	60.4675667868183	0
4.66	60.6530744980738	0	1	0	1	0	60.6530744980738	0
4.67	60.8391258874908	0	1	0	1	0	60.8391258874908	0
4.68	61.0257203353704	0	1	0	1	0	61.0257203353704	0
4.69	61.2128572272985	0	1	0	1	0	61.2128572272985	0
4.7	61.4005359540904	0	1	0	1	0	61.4005359540904	0
4.71	61.5887559117349	0	1	0	1	0	61.5887559117349	0
4.72	61.7775165013393	0	1	0	1	0	61.7775165013393	0
4.73	61.9668171290759	0	1	0	1	0	61.9668171290759	0
4.74	62.156657206128	0	1	0	1	0	62.156657206128	0
4.75	62.3470361486372	0	1	0	1	0	62.3470361486372	0
4.76	62.5379533776518	0	1	0	1	0	62.5379533776518	0
4.77	62.7294083190748	0	1	0	1	0	62.7294083190748	0
4.78	62.9214004036136	0	1	0	1	0	62.9214004036136	0
4.79	63.1139290667292	0	1	0	1	0	63.1139290667292	0
4.8	63.3069937485876	0	1	0	1	0	63.3069937485876	0
4.81	63.5005938940099	0	1	0	1	0	63.5005938940099	0
4.82	63.6947289524248	0	1	0	1	0	63.6947289524248	0
4.83	63.8893983778207	0	1	0	1	0	63.8893983778207	0
4.84	64.084601628698	0	1	0	1	0	64.084601628698	0
4.85	64.2803381680236	0	1	0	1	0	64.2803381680236	0
4.86	64.4766074631842	0	1	0	1	0	64.4766074631842	0
4.87	64.6734089859411	0	1	0	1	0	64.6734089859411	0
4.88	64.8707422123855	0	1	0	1	0	64.8707422123855	0
4.89	65.0686066228942	0	1	0	1	0	65.0686066228942	0
4.9	65.2670017020856	0	1	0	1	0	65.2670017020856	0
4.91	65.465926938777	0	1	0	1	0	65.465926938777	0
4.92	65.6653818259416	0	1	0	1	0	65.6653818259416	0
4.93	65.8653658606663	0	1	0	1	0	65.8653658606663	0
