# GHZ S RI R 50
1	57.6701622624212	0	1	0	1	0	57.6701622624212	0
1.01	57.200043107514	0	1	0	1	0	57.200043107514	0
1.02	56.740422085832	0	1	0	1	0	56.740422085832	0
1.03	56.2910059778146	0	1	0	1	0	56.2910059778146	0
1.04	55.8515128415767	0	1	0	1	0	55.8515128415767	0
1.05	55.4216714758764	0	1	0	1	0	55.4216714758764	0
1.06	55.001220913481	0	1	0	1	0	55.001220913481	0
1.07	54.5899099429422	0	1	0	1	0	54.5899099429422	0
1.08	54.1874966569393	0	1	0	1	0	54.1874966569393	0
1.09	53.7937480254846	0	1	0	1	0	53.7937480254846	0
1.1	53.4084394924081	0	1	0	1	0	53.4084394924081	0
1.11	53.0313545936539	0	1	0	1	0	53.0313545936539	0
1.12	52.6622845960254	0	1	0	1	0	52.6622845960254	0
1.13	52.3010281551117	0	1	0	1	0	52.3010281551117	0
1.14	51.947390991218	0	1	0	1	0	51.947390991218	0
1.15	51.6011855822041	0	1	0	1	0	51.6011855822041	0
1.16	51.2622308722107	0	1	0	1	0	51.2622308722107	0
1.17	50.9303519953221	0	1	0	1	0	50.9303519953221	0
1.18	50.605380013281	0	1	0	1	0	50.605380013281	0
1.19	50.2871516664269	0	1	0	1	0	50.2871516664269	0
1.2	49.9755091370879	0	1	0	1	0	49.9755091370879	0
1.21	49.6702998247053	0	1	0	1	0	49.6702998247053	0
1.22	49.3713761320174	0	1	0	1	0	49.3713761320174	0
1.23	49.0785952616735	0	1	0	1	0	49.0785952616735	0
1.24	48.791819022689	0	1	0	1	0	48.791819022689	0
1.25	48.5109136461908	0	1	0	1	0	48.5109136461908	0
1.26	48.2357496099367	0	1	0	1	0	48.2357496099367	0
1.27	47.9662014711253	0	1	0	1	0	47.9662014711253	0
1.28	47.7021477070424	0	1	0	1	0	47.7021477070424	0
1.29	47.4434705631204	0	1	0	1	0	47.4434705631204	0
1.3	47.190055908009	0	1	0	1	0	47.190055908009	0
1.31	46.9417930952846	0	1	0	1	0	46.9417930952846	0
1.32	46.6985748314454	0	1	0	1	0	46.6985748314454	0
1.33	46.4602970498622	0	1	0	1	0	46.4602970498622	0
1.34	46.2268587903719	0	1	0	1	0	46.2268587903719	0
1.35	45.998162084224	0	1	0	1	0	45.998162084224	0
1.36	45.7741118441017	0	1	0	1	0	45.7741118441017	0
1.37	45.5546157589602	0	1	0	1	0	45.5546157589602	0
1.38	45.3395841934372	0	1	0	1	0	45.3395841934372	0
1.39	45.1289300916051	0	1	0	1	0	45.1289300916051	0
1.4	44.9225688848489	0	1	0	1	0	44.9225688848489	0
1.41	44.7204184036629	0	1	0	1	0	44.7204184036629	0
1.42	44.5223987931756	0	1	0	1	0	44.5223987931756	0
1.43	44.3284324322179	0	1	0	1	0	44.3284324322179	0
1.44	44.1384438557647	0	1	0	1	0	44.1384438557647	0
1.45	43.9523596805843	0	1	0	1	0	43.9523596805843	0
1.46	43.7701085339448	0	1	0	1	0	43.7701085339448	0
1.47	43.5916209852292	0	1	0	1	0	43.5916209852292	0
1.48	43.4168294803239	0	1	0	1	0	43.4168294803239	0
1.49	43.2456682786484	0	1	0	1	0	43.2456682786484	0
1.5	43.0780733927044	0	1	0	1	0	43.0780733927044	0
1.51	42.9139825300265	0	1	0	1	0	42.9139825300265	0
1.52	42.7533350374251	0	1	0	1	0	42.7533350374251	0
1.53	42.5960718474145	0	1	0	1	0	42.5960718474145	0
1.54	42.4421354267296	0	1	0	1	0	42.4421354267296	0
1.55	42.2914697268347	0	1	0	1	0	42.2914697268347	0
1.56	42.1440201363361	0	1	0	1	0	42.1440201363361	0
1.57	41.999733435213	0	1	0	1	0	41.999733435213	0
1.58	41.8585577507871	0	1	0	1	0	41.8585577507871	0
1.59	41.720442515353	0	1	0	1	0	41.720442515353	0
1.6	41.585338425398	0	1	0	1	0	41.585338425398	0
1.61	41.4531974023414	0	1	0	1	0	41.4531974023414	0
1.62	41.3239725547279	0	1	0	1	0	41.3239725547279	0
1.63	41.1976181418129	0	1	0	1	0	41.1976181418129	0
1.64	41.0740895384796	0	1	0	1	0	41.0740895384796	0
1.65	40.9533432014321	0	1	0	1	0	40.9533432014321	0
1.66	40.8353366366107	0	1	0	1	0	40.8353366366107	0
1.67	40.7200283677775	0	1	0	1	0	40.7200283677775	0
1.68	40.6073779062241	0	1	0	1	0	40.6073779062241	0
1.69	40.4973457215545	0	1	0	1	0	40.4973457215545	0
1.7	40.3898932134999	0	1	0	1	0	40.3898932134999	0
1.71	40.2849826847217	0	1	0	1	0	40.2849826847217	0
1.72	40.1825773145636	0	1	0	1	0	40.1825773145636	0
1.73	40.0826411337139	0	1	0	1	0	40.0826411337139	0
1.74	39.9851389997417	0	1	0	1	0	39.9851389997417	0
1.75	39.8900365734716	0	1	0	1	0	39.8900365734716	0
1.76	39.797300296164	0	1	0	1	0	39.797300296164	0
1.77	39.7068973674689	0	1	0	1	0	39.7068973674689	0
1.78	39.618795724123	0	1	0	1	0	39.618795724123	0
1.79	39.5329640193601	0	1	0	1	0	39.5329640193601	0
1.8	39.4493716030093	0	1	0	1	0	39.4493716030093	0
1.81	39.3679885022511	0	1	0	1	0	39.3679885022511	0
1.82	39.2887854030097	0	1	0	1	0	39.2887854030097	0
1.83	39.2117336319536	0	1	0	1	0	39.2117336319536	0
1.84	39.1368051390852	0	1	0	1	0	39.1368051390852	0
1.85	39.0639724808929	0	1	0	1	0	39.0639724808929	0
1.86	38.9932088040482	0	1	0	1	0	38.9932088040482	0
1.87	38.9244878296256	0	1	0	1	0	38.9244878296256	0
1.88	38.8577838378254	0	1	0	1	0	38.8577838378254	0
1.89	38.7930716531824	0	1	0	1	0	38.7930716531824	0
1.9	38.7303266302411	0	1	0	1	0	38.7303266302411	0
1.91	38.6695246396814	0	1	0	1	0	38.6695246396814	0
1.92	38.6106420548773	0	1	0	1	0	38.6106420548773	0
1.93	38.5536557388736	0	1	0	1	0	38.5536557388736	0
1.94	38.4985430317659	0	1	0	1	0	38.4985430317659	0
1.95	38.4452817384684	0	1	0	1	0	38.4452817384684	0
1.96	38.393850116856	0	1	0	1	0	38.393850116856	0
1.97	38.3442268662684	0	1	0	1	0	38.3442268662684	0
1.98	38.2963911163615	0	1	0	1	0	38.2963911163615	0
1.99	38.2503224162954	0	1	0	1	0	38.2503224162954	0
2	38.2060007242474	0	1	0	1	0	38.2060007242474	0
2.01	38.1634063972368	0	1	0	1	0	38.1634063972368	0
2.02	38.1225201812528	0	1	0	1	0	38.1225201812528	0
2.03	38.0833232016741	0	1	0	1	0	38.0833232016741	0
2.04	38.0457969539699	0	1	0	1	0	38.0457969539699	0
2.05	38.0099232946734	0	1	0	1	0	38.0099232946734	0
2.06	37.9756844326183	0	1	0	1	0	37.9756844326183	0
2.07	37.9430629204288	0	1	0	1	0	37.9430629204288	0
2.08	37.9120416462556	0	1	0	1	0	37.9120416462556	0
2.09	37.8826038257489	0	1	0	1	0	37.8826038257489	0
2.1	37.8547329942609	0	1	0	1	0	37.8547329942609	0
2.11	37.8284129992695	0	1	0	1	0	37.8284129992695	0
2.12	37.8036279930176	0	1	0	1	0	37.8036279930176	0
2.13	37.7803624253583	0	1	0	1	0	37.7803624253583	0
2.14	37.7586010368018	0	1	0	1	0	37.7586010368018	0
2.15	37.7383288517555	0	1	0	1	0	37.7383288517555	0
2.16	37.7195311719529	0	1	0	1	0	37.7195311719529	0
2.17	37.7021935700633	0	1	0	1	0	37.7021935700633	0
2.18	37.6863018834773	0	1	0	1	0	37.6863018834773	0
2.19	37.6718422082637	0	1	0	1	0	37.6718422082637	0
2.2	37.6588008932899	0	1	0	1	0	37.6588008932899	0
2.21	37.6471645345024	0	1	0	1	0	37.6471645345024	0
2.22	37.6369199693627	0	1	0	1	0	37.6369199693627	0
2.23	37.6280542714311	0	1	0	1	0	37.6280542714311	0
2.24	37.6205547450974	0	1	0	1	0	37.6205547450974	0
2.25	37.6144089204513	0	1	0	1	0	37.6144089204513	0
2.26	37.6096045482887	0	1	0	1	0	37.6096045482887	0
2.27	37.6061295952504	0	1	0	1	0	37.6061295952504	0
2.28	37.603972239089	0	1	0	1	0	37.603972239089	0
2.29	37.6031208640592	0	1	0	1	0	37.6031208640592	0
2.3	37.6035640564284	0	1	0	1	0	37.6035640564284	0
2.31	37.6052906001048	0	1	0	1	0	37.6052906001048	0
2.32	37.6082894723771	0	1	0	1	0	37.6082894723771	0
2.33	37.6125498397654	0	1	0	1	0	37.6125498397654	0
2.34	37.6180610539773	0	1	0	1	0	37.6180610539773	0
2.35	37.624812647968	0	1	0	1	0	37.624812647968	0
2.36	37.6327943321003	0	1	0	1	0	37.6327943321003	0
2.37	37.6419959904016	0	1	0	1	0	37.6419959904016	0
2.38	37.6524076769159	0	1	0	1	0	37.6524076769159	0
2.39	37.6640196121464	0	1	0	1	0	37.6640196121464	0
2.4	37.6768221795882	0	1	0	1	0	37.6768221795882	0
2.41	37.6908059223461	0	1	0	1	0	37.6908059223461	0
2.42	37.7059615398377	0	1	0	1	0	37.7059615398377	0
2.43	37.7222798845762	0	1	0	1	0	37.7222798845762	0
2.44	37.7397519590337	0	1	0	1	0	37.7397519590337	0
2.45	37.7583689125809	0	1	0	1	0	37.7583689125809	0
2.46	37.7781220385008	0	1	0	1	0	37.7781220385008	0
2.47	37.7990027710763	0	1	0	1	0	37.7990027710763	0
2.48	37.8210026827467	0	1	0	1	0	37.8210026827467	0
2.49	37.844113481334	0	1	0	1	0	37.844113481334	0
2.5	37.8683270073349	0	1	0	1	0	37.8683270073349	0
2.51	37.8936352312781	0	1	0	1	0	37.8936352312781	0
2.52	37.9200302511442	0	1	0	1	0	37.9200302511442	0
2.53	37.9475042898469	0	1	0	1	0	37.9475042898469	0
2.54	37.9760496927738	0	1	0	1	0	37.9760496927738	0
2.55	38.0056589253848	0	1	0	1	0	38.0056589253848	0
2.56	38.0363245708669	0	1	0	1	0	38.0363245708669	0
2.57	38.068039327844	0	1	0	1	0	38.068039327844	0
2.58	38.1007960081396	0	1	0	1	0	38.1007960081396	0
2.59	38.1345875345913	0	1	0	1	0	38.1345875345913	0
2.6	38.1694069389166	0	1	0	1	0	38.1694069389166	0
2.61	38.205247359626	0	1	0	1	0	38.205247359626	0
2.62	38.2421020399861	0	1	0	1	0	38.2421020399861	0
2.63	38.2799643260272	0	1	0	1	0	38.2799643260272	0
2.64	38.3188276645975	0	1	0	1	0	38.3188276645975	0
2.65	38.3586856014604	0	1	0	1	0	38.3586856014604	0
2.66	38.3995317794358	0	1	0	1	0	38.3995317794358	0
2.67	38.4413599365822	0	1	0	1	0	38.4413599365822	0
2.68	38.4841639044198	0	1	0	1	0	38.4841639044198	0
2.69	38.5279376061934	0	1	0	1	0	38.5279376061934	0
2.7	38.572675055174	0	1	0	1	0	38.572675055174	0
2.71	38.6183703529974	0	1	0	1	0	38.6183703529974	0
2.72	38.6650176880401	0	1	0	1	0	38.6650176880401	0
2.73	38.7126113338307	0	1	0	1	0	38.7126113338307	0
2.74	38.7611456474957	0	1	0	1	0	38.7611456474957	0
2.75	38.8106150682401	0	1	0	1	0	38.8106150682401	0
2.76	38.8610141158597	0	1	0	1	0	38.8610141158597	0
2.77	38.9123373892871	0	1	0	1	0	38.9123373892871	0
2.78	38.9645795651682	0	1	0	1	0	38.9645795651682	0
2.79	39.0177353964691	0	1	0	1	0	39.0177353964691	0
2.8	39.0717997111138	0	1	0	1	0	39.0717997111138	0
2.81	39.1267674106498	0	1	0	1	0	39.1267674106498	0
2.82	39.1826334689435	0	1	0	1	0	39.1826334689435	0
2.83	39.2393929309018	0	1	0	1	0	39.2393929309018	0
2.84	39.2970409112217	0	1	0	1	0	39.2970409112217	0
2.85	39.3555725931658	0	1	0	1	0	39.3555725931658	0
2.86	39.4149832273638	0	1	0	1	0	39.4149832273638	0
2.87	39.4752681306386	0	1	0	1	0	39.4752681306386	0
2.88	39.5364226848572	0	1	0	1	0	39.5364226848572	0
2.89	39.5984423358055	0	1	0	1	0	39.5984423358055	0
2.9	39.6613225920861	0	1	0	1	0	39.6613225920861	0
2.91	39.7250590240391	0	1	0	1	0	39.7250590240391	0
2.92	39.7896472626846	0	1	0	1	0	39.7896472626846	0
2.93	39.8550829986878	0	1	0	1	0	39.8550829986878	0
2.94	39.9213619813441	0	1	0	1	0	39.9213619813441	0
2.95	39.9884800175857	0	1	0	1	0	39.9884800175857	0
2.96	40.0564329710079	0	1	0	1	0	40.0564329710079	0
2.97	40.1252167609149	0	1	0	1	0	40.1252167609149	0
2.98	40.1948273613856	0	1	0	1	0	40.1948273613856	0
2.99	40.2652608003573	0	1	0	1	0	40.2652608003573	0
3	40.3365131587282	0	1	0	1	0	40.3365131587282	0
3.01	40.4085805694774	0	1	0	1	0	40.4085805694774	0
3.02	40.4814592168029	0	1	0	1	0	40.4814592168029	0
3.03	40.5551453352766	0	1	0	1	0	40.5551453352766	0
3.04	40.629635209015	0	1	0	1	0	40.629635209015	0
3.05	40.7049251708679	0	1	0	1	0	40.7049251708679	0
3.06	40.7810116016216	0	1	0	1	0	40.7810116016216	0
3.07	40.8578909292181	0	1	0	1	0	40.8578909292181	0
3.08	40.9355596279901	0	1	0	1	0	40.9355596279901	0
3.09	41.0140142179097	0	1	0	1	0	41.0140142179097	0
3.1	41.0932512638527	0	1	0	1	0	41.0932512638527	0
3.11	41.1732673748766	0	1	0	1	0	41.1732673748766	0
3.12	41.2540592035126	0	1	0	1	0	41.2540592035126	0
3.13	41.3356234450707	0	1	0	1	0	41.3356234450707	0
3.14	41.4179568369593	0	1	0	1	0	41.4179568369593	0
3.15	41.5010561580162	0	1	0	1	0	41.5010561580162	0
3.16	41.5849182278536	0	1	0	1	0	41.5849182278536	0
3.17	41.6695399062148	0	1	0	1	0	41.6695399062148	0
3.18	41.754918092343	0	1	0	1	0	41.754918092343	0
3.19	41.8410497243625	0	1	0	1	0	41.8410497243625	0
3.2	41.9279317786711	0	1	0	1	0	41.9279317786711	0
3.21	42.0155612693436	0	1	0	1	0	42.0155612693436	0
3.22	42.1039352475474	0	1	0	1	0	42.1039352475474	0
3.23	42.1930508009677	0	1	0	1	0	42.1930508009677	0
3.24	42.2829050532444	0	1	0	1	0	42.2829050532444	0
3.25	42.3734951634186	0	1	0	1	0	42.3734951634186	0
3.26	42.4648183253897	0	1	0	1	0	42.4648183253897	0
3.27	42.5568717673828	0	1	0	1	0	42.5568717673828	0
3.28	42.649652751425	0	1	0	1	0	42.649652751425	0
3.29	42.7431585728316	0	1	0	1	0	42.7431585728316	0
3.3	42.8373865597022	0	1	0	1	0	42.8373865597022	0
3.31	42.9323340724252	0	1	0	1	0	42.9323340724252	0
3.32	43.0279985031916	0	1	0	1	0	43.0279985031916	0
3.33	43.1243772755173	0	1	0	1	0	43.1243772755173	0
3.34	43.2214678437742	0	1	0	1	0	43.2214678437742	0
3.35	43.3192676927301	0	1	0	1	0	43.3192676927301	0
3.36	43.4177743370958	0	1	0	1	0	43.4177743370958	0
3.37	43.5169853210811	0	1	0	1	0	43.5169853210811	0
3.38	43.6168982179584	0	1	0	1	0	43.6168982179584	0
3.39	43.7175106296341	0	1	0	1	0	43.7175106296341	0
3.4	43.8188201862276	0	1	0	1	0	43.8188201862276	0
3.41	43.9208245456572	0	1	0	1	0	43.9208245456572	0
3.42	44.0235213932341	0	1	0	1	0	44.0235213932341	0
3.43	44.126908441263	0	1	0	1	0	44.126908441263	0
3.44	44.2309834286497	0	1	0	1	0	44.2309834286497	0
3.45	44.3357441205155	0	1	0	1	0	44.3357441205155	0
3.46	44.4411883078186	0	1	0	1	0	44.4411883078186	0
3.47	44.5473138069815	0	1	0	1	0	44.5473138069815	0
3.48	44.6541184595253	0	1	0	1	0	44.6541184595253	0
3.49	44.7616001317103	0	1	0	1	0	44.7616001317103	0
3.5	44.8697567141822	0	1	0	1	0	44.8697567141822	0
3.51	44.978586121625	0	1	0	1	0	44.978586121625	0
3.52	45.0880862924195	0	1	0	1	0	45.0880862924195	0
3.53	45.1982551883075	0	1	0	1	0	45.1982551883075	0
3.54	45.3090907940621	0	1	0	1	0	45.3090907940621	0
3.55	45.4205911171631	0	1	0	1	0	45.4205911171631	0
3.56	45.5327541874783	0	1	0	1	0	45.5327541874783	0
3.57	45.6455780569497	0	1	0	1	0	45.6455780569497	0
3.58	45.7590607992852	0	1	0	1	0	45.7590607992852	0
3.59	45.8732005096559	0	1	0	1	0	45.8732005096559	0
3.6	45.9879953043972	0	1	0	1	0	45.9879953043972	0
3.61	46.1034433207166	0	1	0	1	0	46.1034433207166	0
3.62	46.2195427164047	0	1	0	1	0	46.2195427164047	0
3.63	46.3362916695518	0	1	0	1	0	46.3362916695518	0
3.64	46.4536883782695	0	1	0	1	0	46.4536883782695	0
3.65	46.571731060416	0	1	0	1	0	46.571731060416	0
3.66	46.6904179533262	0	1	0	1	0	46.6904179533262	0
3.67	46.8097473135471	0	1	0	1	0	46.8097473135471	0
3.68	46.9297174165758	0	1	0	1	0	46.9297174165758	0
3.69	47.0503265566035	0	1	0	1	0	47.0503265566035	0
3.7	47.1715730462625	0	1	0	1	0	47.1715730462625	0
3.71	47.2934552163777	0	1	0	1	0	47.2934552163777	0
3.72	47.4159714157222	0	1	0	1	0	47.4159714157222	0
3.73	47.5391200107765	0	1	0	1	0	47.5391200107765	0
3.74	47.662899385492	0	1	0	1	0	47.662899385492	0
3.75	47.7873079410579	0	1	0	1	0	47.7873079410579	0
3.76	47.912344095672	0	1	0	1	0	47.912344095672	0
3.77	48.0380062843153	0	1	0	1	0	48.0380062843153	0
3.78	48.1642929585298	0	1	0	1	0	48.1642929585298	0
3.79	48.2912025861998	0	1	0	1	0	48.2912025861998	0
3.8	48.4187336513375	0	1	0	1	0	48.4187336513375	0
3.81	48.5468846538708	0	1	0	1	0	48.5468846538708	0
3.82	48.6756541094352	0	1	0	1	0	48.6756541094352	0
3.83	48.8050405491685	0	1	0	1	0	48.8050405491685	0
3.84	48.9350425195096	0	1	0	1	0	48.9350425195096	0
3.85	49.0656585819989	0	1	0	1	0	49.0656585819989	0
3.86	49.1968873130834	0	1	0	1	0	49.1968873130834	0
3.87	49.3287273039236	0	1	0	1	0	49.3287273039236	0
3.88	49.4611771602043	0	1	0	1	0	49.4611771602043	0
3.89	49.5942355019476	0	1	0	1	0	49.5942355019476	0
3.9	49.7279009633294	0	1	0	1	0	49.7279009633294	0
3.91	49.8621721924979	0	1	0	1	0	49.8621721924979	0
3.92	49.9970478513961	0	1	0	1	0	49.9970478513961	0
3.93	50.1325266155857	0	1	0	1	0	50.1325266155857	0
3.94	50.2686071740744	0	1	0	1	0	50.2686071740744	0
3.95	50.4052882291458	0	1	0	1	0	50.4052882291458	0
3.96	50.542568496192	0	1	0	1	0	50.542568496192	0
3.97	50.6804467035479	0	1	0	1	0	50.6804467035479	0
3.98	50.8189215923292	0	1	0	1	0	50.8189215923292	0
3.99	50.9579919162718	0	1	0	1	0	50.9579919162718	0
4	51.0976564415745	0	1	0	1	0	51.0976564415745	0
4.01	51.2379139467431	0	1	0	1	0	51.2379139467431	0
4.02	51.3787632224376	0	1	0	1	0	51.3787632224376	0
4.03	51.5202030713215	0	1	0	1	0	51.5202030713215	0
4.04	51.6622323079131	0	1	0	1	0	51.6622323079131	0
4.05	51.804849758439	0	1	0	1	0	51.804849758439	0
4.06	51.9480542606903	0	1	0	1	0	51.9480542606903	0
4.07	52.0918446638801	0	1	0	1	0	52.0918446638801	0
4.08	52.2362198285039	0	1	0	1	0	52.2362198285039	0
4.09	52.3811786262013	0	1	0	1	0	52.3811786262013	0
4.1	52.5267199396204	0	1	0	1	0	52.5267199396204	0
4.11	52.6728426622839	0	1	0	1	0	52.6728426622839	0
4.12	52.8195456984568	0	1	0	1	0	52.8195456984568	0
4.13	52.9668279630165	0	1	0	1	0	52.9668279630165	0
4.14	53.114688381325	0	1	0	1	0	53.114688381325	0
4.15	53.2631258891019	0	1	0	1	0	53.2631258891019	0
4.16	53.4121394323004	0	1	0	1	0	53.4121394323004	0
4.17	53.5617279669846	0	1	0	1	0	53.5617279669846	0
4.18	53.7118904592082	0	1	0	1	0	53.7118904592082	0
4.19	53.8626258848957	0	1	0	1	0	53.8626258848957	0
4.2	54.0139332297244	0	1	0	1	0	54.0139332297244	0
4.21	54.1658114890093	0	1	0	1	0	54.1658114890093	0
4.22	54.3182596675881	0	1	0	1	0	54.3182596675881	0
4.23	54.4712767797093	0	1	0	1	0	54.4712767797093	0
4.24	54.6248618489206	0	1	0	1	0	54.6248618489206	0
4.25	54.7790139079602	0	1	0	1	0	54.7790139079602	0
4.26	54.9337319986485	0	1	0	1	0	54.9337319986485	0
4.27	55.0890151717816	0	1	0	1	0	55.0890151717816	0
4.28	55.2448624870268	0	1	0	1	0	55.2448624870268	0
4.29	55.4012730128192	0	1	0	1	0	55.4012730128192	0
4.3	55.5582458262594	0	1	0	1	0	55.5582458262594	0
4.31	55.7157800130134	0	1	0	1	0	55.7157800130134	0
4.32	55.873874667213	0	1	0	1	0	55.873874667213	0
4.33	56.0325288913585	0	1	0	1	0	56.0325288913585	0
4.34	56.191741796222	0	1	0	1	0	56.191741796222	0
4.35	56.3515125007525	0	1	0	1	0	56.3515125007525	0
4.36	56.511840131982	0	1	0	1	0	56.511840131982	0
4.37	56.672723824933	0	1	0	1	0	56.672723824933	0
4.38	56.8341627225273	0	1	0	1	0	56.8341627225273	0
4.39	56.9961559754963	0	1	0	1	0	56.9961559754963	0
4.4	57.1587027422916	0	1	0	1	0	57.1587027422916	0
4.41	57.3218021889983	0	1	0	1	0	57.3218021889983	0
4.42	57.4854534892482	0	1	0	1	0	57.4854534892482	0
4.43	57.6496558241344	0	1	0	1	0	57.6496558241344	0
4.44	57.8144083821277	0	1	0	1	0	57.8144083821277	0
4.45	57.9797103589936	0	1	0	1	0	57.9797103589936	0
4.46	58.1455609577103	0	1	0	1	0	58.1455609577103	0
4.47	58.3119593883885	0	1	0	1	0	58.3119593883885	0
4.48	58.4789048681911	0	1	0	1	0	58.4789048681911	0
4.49	58.6463966212553	0	1	0	1	0	58.6463966212553	0
4.5	58.8144338786147	0	1	0	1	0	58.8144338786147	0
4.51	58.9830158781232	0	1	0	1	0	58.9830158781232	0
4.52	59.1521418643791	0	1	0	1	0	59.1521418643791	0
4.53	59.3218110886512	0	1	0	1	0	59.3218110886512	0
4.54	59.4920228088049	0	1	0	1	0	59.4920228088049	0
4.55	59.6627762892297	0	1	0	1	0	59.6627762892297	0
4.56	59.8340708007681	0	1	0	1	0	59.8340708007681	0
4.57	60.0059056206446	0	1	0	1	0	60.0059056206446	0
4.58	60.1782800323962	0	1	0	1	0	60.1782800323962	0
4.59	60.3511933258035	0	1	0	1	0	60.3511933258035	0
4.6	60.524644796823	0	1	0	1	0	60.524644796823	0
4.61	60.6986337475199	0	1	0	1	0	60.6986337475199	0
4.62	60.8731594860024	0	1	0	1	0	60.8731594860024	0
4.63	61.0482213263558	0	1	0	1	0	61.0482213263558	0
4.64	61.2238185885789	0	1	0	1	0	61.2238185885789	0
4.65	61.3999505985195	0	1	0	1	0	61.3999505985195	0
4.66	61.5766166878124	0	1	0	1	0	61.5766166878124	0
4.67	61.7538161938172	0	1	0	1	0	61.7538161938172	0
4.68	61.9315484595569	0	1	0	1	0	61.9315484595569	0
4.69	62.1098128336578	0	1	0	1	0	62.1098128336578	0
4.7	62.2886086702899	0	1	0	1	0	62.2886086702899	0
4.71	62.4679353291077	0	1	0	1	0	62.4679353291077	0
4.72	62.6477921751927	0	1	0	1	0	62.6477921751927	0
4.73	62.8281785789954	0	1	0	1	0	62.8281785789954	0
4.74	63.0090939162792	0	1	0	1	0	63.0090939162792	0
4.75	63.1905375680639	0	1	0	1	0	63.1905375680639	0
4.76	63.3725089205712	0	1	0	1	0	63.3725089205712	0
4.77	63.5550073651695	0	1	0	1	0	63.5550073651695	0
4.78	63.7380322983204	0	1	0	1	0	63.7380322983204	0
4.79	63.9215831215257	0	1	0	1	0	63.9215831215257	0
4.8	64.1056592412744	0	1	0	1	0	64.1056592412744	0
4.81	64.2902600689913	0	1	0	1	0	64.2902600689913	0
4.82	64.4753850209855	0	1	0	1	0	64.4753850209855	0
4.83	64.6610335184003	0	1	0	1	0	64.6610335184003	0
4.84	64.8472049871626	0	1	0	1	0	64.8472049871626	0
4.85	65.033898857934	0	1	0	1	0	65.033898857934	0
4.86	65.2211145660622	0	1	0	1	0	65.2211145660622	0
4.87	65.4088515515324	0	1	0	1	0	65.4088515515324	0
4.88	65.5971092589204	0	1	0	1	0	65.5971092589204	0
4.89	65.7858871373451	0	1	0	1	0	65.7858871373451	0
4.9	65.9751846404225	0	1	0	1	0	65.9751846404225	0
4.91	66.1650012262198	0	1	0	1	0	66.1650012262198	0
4.92	66.3553363572101	0	1	0	1	0	66.3553363572101	0
4.93	66.5461895002279	0	1	0	1	0	66.5461895002279	0
