# GHZ S RI R 50
1	56.5713532451178	0	1	0	1	0	56.5713532451178	0
1.01	56.0975909657666	0	1	0	1	0	56.0975909657666	0
1.02	55.6343095587302	0	1	0	1	0	55.6343095587302	0
1.03	55.1812154375533	0	1	0	1	0	55.1812154375533	0
1.04	54.7380263075674	0	1	0	1	0	54.7380263075674	0
1.05	54.3044706281866	0	1	0	1	0	54.3044706281866	0
1.06	53.8802871056396	0	1	0	1	0	53.8802871056396	0
1.07	53.4652242141464	0	1	0	1	0	53.4652242141464	0
1.08	53.0590397436969	0	1	0	1	0	53.0590397436969	0
1.09	52.6615003727214	0	1	0	1	0	52.6615003727214	0
1.1	52.2723812640713	0	1	0	1	0	52.2723812640713	0
1.11	51.8914656828372	0	1	0	1	0	51.8914656828372	0
1.12	51.5185446346425	0	1	0	1	0	51.5185446346425	0
1.13	51.1534165231414	0	1	0	1	0	51.1534165231414	0
1.14	50.7958868255443	0	1	0	1	0	50.7958868255443	0
1.15	50.4457677850714	0	1	0	1	0	50.4457677850714	0
1.16	50.1028781193149	0	1	0	1	0	50.1028781193149	0
1.17	49.767042743556	0	1	0	1	0	49.767042743556	0
1.18	49.4380925081512	0	1	0	1	0	49.4380925081512	0
1.19	49.1158639491591	0	1	0	1	0	49.1158639491591	0
1.2	48.8001990514366	0	1	0	1	0	48.8001990514366	0
1.21	48.4909450234816	0	1	0	1	0	48.4909450234816	0
1.22	48.1879540833495	0	1	0	1	0	48.1879540833495	0
1.23	47.8910832550123	0	1	0	1	0	47.8910832550123	0
1.24	47.6001941745724	0	1	0	1	0	47.6001941745724	0
1.25	47.3151529057766	0	1	0	1	0	47.3151529057766	0
1.26	47.0358297643164	0	1	0	1	0	47.0358297643164	0
1.27	46.7620991504283	0	1	0	1	0	46.7620991504283	0
1.28	46.4938393893415	0	1	0	1	0	46.4938393893415	0
1.29	46.2309325791463	0	1	0	1	0	46.2309325791463	0
1.3	45.9732644456842	0	1	0	1	0	45.9732644456842	0
1.31	45.7207242040837	0	1	0	1	0	45.7207242040837	0
1.32	45.4732044265909	0	1	0	1	0	45.4732044265909	0
1.33	45.2306009163616	0	1	0	1	0	45.2306009163616	0
1.34	44.9928125869053	0	1	0	1	0	44.9928125869053	0
1.35	44.7597413468866	0	1	0	1	0	44.7597413468866	0
1.36	44.5312919900095	0	1	0	1	0	44.5312919900095	0
1.37	44.3073720897238	0	1	0	1	0	44.3073720897238	0
1.38	44.0878918985099	0	1	0	1	0	44.0878918985099	0
1.39	43.8727642515105	0	1	0	1	0	43.8727642515105	0
1.4	43.6619044742928	0	1	0	1	0	43.6619044742928	0
1.41	43.4552302945355	0	1	0	1	0	43.4552302945355	0
1.42	43.2526617574476	0	1	0	1	0	43.2526617574476	0
1.43	43.0541211447358	0	1	0	1	0	43.0541211447358	0
1.44	42.8595328969481	0	1	0	1	0	42.8595328969481	0
1.45	42.6688235390313	0	1	0	1	0	42.6688235390313	0
1.46	42.4819216089473	0	1	0	1	0	42.4819216089473	0
1.47	42.2987575892033	0	1	0	1	0	42.2987575892033	0
1.48	42.1192638411576	0	1	0	1	0	42.1192638411576	0
1.49	41.9433745419711	0	1	0	1	0	41.9433745419711	0
1.5	41.7710256240802	0	1	0	1	0	41.7710256240802	0
1.51	41.6021547170754	0	1	0	1	0	41.6021547170754	0
1.52	41.4367010918738	0	1	0	1	0	41.4367010918738	0
1.53	41.2746056070809	0	1	0	1	0	41.2746056070809	0
1.54	41.1158106574425	0	1	0	1	0	41.1158106574425	0
1.55	40.9602601242912	0	1	0	1	0	40.9602601242912	0
1.56	40.8078993279001	0	1	0	1	0	40.8078993279001	0
1.57	40.6586749816563	0	1	0	1	0	40.6586749816563	0
1.58	40.5125351479752	0	1	0	1	0	40.5125351479752	0
1.59	40.3694291958777	0	1	0	1	0	40.3694291958777	0
1.6	40.2293077601597	0	1	0	1	0	40.2293077601597	0
1.61	40.0921227020814	0	1	0	1	0	40.0921227020814	0
1.62	39.957827071514	0	1	0	1	0	39.957827071514	0
1.63	39.8263750704791	0	1	0	1	0	39.8263750704791	0
1.64	39.6977220180222	0	1	0	1	0	39.6977220180222	0
1.65	39.5718243163634	0	1	0	1	0	39.5718243163634	0
1.66	39.4486394182718	0	1	0	1	0	39.4486394182718	0
1.67	39.3281257956117	0	1	0	1	0	39.3281257956117	0
1.68	39.2102429090126	0	1	0	1	0	39.2102429090126	0
1.69	39.0949511786158	0	1	0	1	0	39.0949511786158	0
1.7	38.9822119558533	0	1	0	1	0	38.9822119558533	0
1.71	38.8719874962173	0	1	0	1	0	38.8719874962173	0
1.72	38.7642409329791	0	1	0	1	0	38.7642409329791	0
1.73	38.6589362518199	0	1	0	1	0	38.6589362518199	0
1.74	38.5560382663364	0	1	0	1	0	38.5560382663364	0
1.75	38.455512594386	0	1	0	1	0	38.455512594386	0
1.76	38.3573256352381	0	1	0	1	0	38.3573256352381	0
1.77	38.2614445475011	0	1	0	1	0	38.2614445475011	0
1.78	38.1678372277918	0	1	0	1	0	38.1678372277918	0
1.79	38.0764722901214	0	1	0	1	0	38.0764722901214	0
1.8	37.9873190459671	0	1	0	1	0	37.9873190459671	0
1.81	37.9003474850059	0	1	0	1	0	37.9003474850059	0
1.82	37.815528256482	0	1	0	1	0	37.815528256482	0
1.83	37.7328326511865	0	1	0	1	0	37.7328326511865	0
1.84	37.6522325840235	0	1	0	1	0	37.6522325840235	0
1.85	37.5737005771425	0	1	0	1	0	37.5737005771425	0
1.86	37.4972097436145	0	1	0	1	0	37.4972097436145	0
1.87	37.422733771632	0	1	0	1	0	37.422733771632	0
1.88	37.3502469092131	0	1	0	1	0	37.3502469092131	0
1.89	37.2797239493916	0	1	0	1	0	37.2797239493916	0
1.9	37.2111402158741	0	1	0	1	0	37.2111402158741	0
1.91	37.1444715491482	0	1	0	1	0	37.1444715491482	0
1.92	37.0796942930247	0	1	0	1	0	37.0796942930247	0
1.93	37.0167852815982	0	1	0	1	0	37.0167852815982	0
1.94	36.9557218266108	0	1	0	1	0	36.9557218266108	0
1.95	36.8964817052047	0	1	0	1	0	36.8964817052047	0
1.96	36.8390431480498	0	1	0	1	0	36.8390431480498	0
1.97	36.783384827833	0	1	0	1	0	36.783384827833	0
1.98	36.7294858480959	0	1	0	1	0	36.7294858480959	0
1.99	36.6773257324093	0	1	0	1	0	36.6773257324093	0
2	36.6268844138728	0	1	0	1	0	36.6268844138728	0
2.01	36.5781422249273	0	1	0	1	0	36.5781422249273	0
2.02	36.5310798874701	0	1	0	1	0	36.5310798874701	0
2.03	36.4856785032627	0	1	0	1	0	36.4856785032627	0
2.04	36.4419195446204	0	1	0	1	0	36.4419195446204	0
2.05	36.3997848453742	0	1	0	1	0	36.3997848453742	0
2.06	36.3592565920963	0	1	0	1	0	36.3592565920963	0
2.07	36.3203173155796	0	1	0	1	0	36.3203173155796	0
2.08	36.2829498825634	0	1	0	1	0	36.2829498825634	0
2.09	36.2471374876963	0	1	0	1	0	36.2471374876963	0
2.1	36.2128636457288	0	1	0	1	0	36.2128636457288	0
2.11	36.180112183928	0	1	0	1	0	36.180112183928	0
2.12	36.1488672347068	0	1	0	1	0	36.1488672347068	0
2.13	36.1191132284612	0	1	0	1	0	36.1191132284612	0
2.14	36.0908348866076	0	1	0	1	0	36.0908348866076	0
2.15	36.0640172148151	0	1	0	1	0	36.0640172148151	0
2.16	36.0386454964259	0	1	0	1	0	36.0386454964259	0
2.17	36.0147052860566	0	1	0	1	0	36.0147052860566	0
2.18	35.992182403377	0	1	0	1	0	35.992182403377	0
2.19	35.9710629270582	0	1	0	1	0	35.9710629270582	0
2.2	35.9513331888864	0	1	0	1	0	35.9513331888864	0
2.21	35.9329797680365	0	1	0	1	0	35.9329797680365	0
2.22	35.9159894854997	0	1	0	1	0	35.9159894854997	0
2.23	35.9003493986623	0	1	0	1	0	35.9003493986623	0
2.24	35.8860467960284	0	1	0	1	0	35.8860467960284	0
2.25	35.8730691920846	0	1	0	1	0	35.8730691920846	0
2.26	35.8614043222997	0	1	0	1	0	35.8614043222997	0
2.27	35.8510401382578	0	1	0	1	0	35.8510401382578	0
2.28	35.8419648029187	0	1	0	1	0	35.8419648029187	0
2.29	35.8341666860026	0	1	0	1	0	35.8341666860026	0
2.3	35.8276343594955	0	1	0	1	0	35.8276343594955	0
2.31	35.8223565932713	0	1	0	1	0	35.8223565932713	0
2.32	35.8183223508263	0	1	0	1	0	35.8183223508263	0
2.33	35.8155207851252	0	1	0	1	0	35.8155207851252	0
2.34	35.8139412345517	0	1	0	1	0	35.8139412345517	0
2.35	35.813573218964	0	1	0	1	0	35.813573218964	0
2.36	35.8144064358498	0	1	0	1	0	35.8144064358498	0
2.37	35.8164307565789	0	1	0	1	0	35.8164307565789	0
2.38	35.8196362227501	0	1	0	1	0	35.8196362227501	0
2.39	35.82401304263	0	1	0	1	0	35.82401304263	0
2.4	35.8295515876809	0	1	0	1	0	35.8295515876809	0
2.41	35.8362423891747	0	1	0	1	0	35.8362423891747	0
2.42	35.8440761348912	0	1	0	1	0	35.8440761348912	0
2.43	35.8530436658979	0	1	0	1	0	35.8530436658979	0
2.44	35.8631359734087	0	1	0	1	0	35.8631359734087	0
2.45	35.8743441957196	0	1	0	1	0	35.8743441957196	0
2.46	35.8866596152194	0	1	0	1	0	35.8866596152194	0
2.47	35.900073655473	0	1	0	1	0	35.900073655473	0
2.48	35.9145778783745	0	1	0	1	0	35.9145778783745	0
2.49	35.9301639813703	0	1	0	1	0	35.9301639813703	0
2.5	35.9468237947474	0	1	0	1	0	35.9468237947474	0
2.51	35.9645492789875	0	1	0	1	0	35.9645492789875	0
2.52	35.9833325221838	0	1	0	1	0	35.9833325221838	0
2.53	36.0031657375188	0	1	0	1	0	36.0031657375188	0
2.54	36.0240412608021	0	1	0	1	0	36.0240412608021	0
2.55	36.0459515480658	0	1	0	1	0	36.0459515480658	0
2.56	36.0688891732167	0	1	0	1	0	36.0688891732167	0
2.57	36.0928468257427	0	1	0	1	0	36.0928468257427	0
2.58	36.1178173084729	0	1	0	1	0	36.1178173084729	0
2.59	36.1437935353898	0	1	0	1	0	36.1437935353898	0
2.6	36.1707685294914	0	1	0	1	0	36.1707685294914	0
2.61	36.198735420703	0	1	0	1	0	36.198735420703	0
2.62	36.2276874438365	0	1	0	1	0	36.2276874438365	0
2.63	36.2576179365964	0	1	0	1	0	36.2576179365964	0
2.64	36.2885203376311	0	1	0	1	0	36.2885203376311	0
2.65	36.3203881846283	0	1	0	1	0	36.3203881846283	0
2.66	36.3532151124533	0	1	0	1	0	36.3532151124533	0
2.67	36.3869948513291	0	1	0	1	0	36.3869948513291	0
2.68	36.4217212250576	0	1	0	1	0	36.4217212250576	0
2.69	36.4573881492802	0	1	0	1	0	36.4573881492802	0
2.7	36.4939896297766	0	1	0	1	0	36.4939896297766	0
2.71	36.5315197608023	0	1	0	1	0	36.5315197608023	0
2.72	36.5699727234621	0	1	0	1	0	36.5699727234621	0
2.73	36.609342784119	0	1	0	1	0	36.609342784119	0
2.74	36.6496242928391	0	1	0	1	0	36.6496242928391	0
2.75	36.690811681869	0	1	0	1	0	36.690811681869	0
2.76	36.7328994641476	0	1	0	1	0	36.7328994641476	0
2.77	36.7758822318494	0	1	0	1	0	36.7758822318494	0
2.78	36.8197546549592	0	1	0	1	0	36.8197546549592	0
2.79	36.8645114798778	0	1	0	1	0	36.8645114798778	0
2.8	36.9101475280574	0	1	0	1	0	36.9101475280574	0
2.81	36.9566576946662	0	1	0	1	0	36.9566576946662	0
2.82	37.0040369472815	0	1	0	1	0	37.0040369472815	0
2.83	37.0522803246101	0	1	0	1	0	37.0522803246101	0
2.84	37.1013829352361	0	1	0	1	0	37.1013829352361	0
2.85	37.1513399563953	0	1	0	1	0	37.1513399563953	0
2.86	37.2021466327745	0	1	0	1	0	37.2021466327745	0
2.87	37.2537982753368	0	1	0	1	0	37.2537982753368	0
2.88	37.3062902601707	0	1	0	1	0	37.3062902601707	0
2.89	37.3596180273636	0	1	0	1	0	37.3596180273636	0
2.9	37.4137770798981	0	1	0	1	0	37.4137770798981	0
2.91	37.4687629825716	0	1	0	1	0	37.4687629825716	0
2.92	37.5245713609376	0	1	0	1	0	37.5245713609376	0
2.93	37.5811979002692	0	1	0	1	0	37.5811979002692	0
2.94	37.6386383445429	0	1	0	1	0	37.6386383445429	0
2.95	37.6968884954444	0	1	0	1	0	37.6968884954444	0
2.96	37.7559442113931	0	1	0	1	0	37.7559442113931	0
2.97	37.8158014065874	0	1	0	1	0	37.8158014065874	0
2.98	37.8764560500686	0	1	0	1	0	37.8764560500686	0
2.99	37.9379041648039	0	1	0	1	0	37.9379041648039	0
3	38.0001418267877	0	1	0	1	0	38.0001418267877	0
3.01	38.0631651641604	0	1	0	1	0	38.0631651641604	0
3.02	38.1269703563456	0	1	0	1	0	38.1269703563456	0
3.03	38.1915536332033	0	1	0	1	0	38.1915536332033	0
3.04	38.2569112742008	0	1	0	1	0	38.2569112742008	0
3.05	38.3230396075992	0	1	0	1	0	38.3230396075992	0
3.06	38.3899350096562	0	1	0	1	0	38.3899350096562	0
3.07	38.4575939038443	0	1	0	1	0	38.4575939038443	0
3.08	38.5260127600845	0	1	0	1	0	38.5260127600845	0
3.09	38.5951880939946	0	1	0	1	0	38.5951880939946	0
3.1	38.6651164661521	0	1	0	1	0	38.6651164661521	0
3.11	38.7357944813716	0	1	0	1	0	38.7357944813716	0
3.12	38.8072187879956	0	1	0	1	0	38.8072187879956	0
3.13	38.8793860771993	0	1	0	1	0	38.8793860771993	0
3.14	38.9522930823085	0	1	0	1	0	38.9522930823085	0
3.15	39.0259365781307	0	1	0	1	0	39.0259365781307	0
3.16	39.1003133802984	0	1	0	1	0	39.1003133802984	0
3.17	39.1754203446257	0	1	0	1	0	39.1754203446257	0
3.18	39.251254366476	0	1	0	1	0	39.251254366476	0
3.19	39.3278123801423	0	1	0	1	0	39.3278123801423	0
3.2	39.405091358239	0	1	0	1	0	39.405091358239	0
3.21	39.483088311105	0	1	0	1	0	39.483088311105	0
3.22	39.5618002862176	0	1	0	1	0	39.5618002862176	0
3.23	39.6412243676182	0	1	0	1	0	39.6412243676182	0
3.24	39.7213576753475	0	1	0	1	0	39.7213576753475	0
3.25	39.8021973648917	0	1	0	1	0	39.8021973648917	0
3.26	39.8837406266393	0	1	0	1	0	39.8837406266393	0
3.27	39.965984685347	0	1	0	1	0	39.965984685347	0
3.28	40.0489267996159	0	1	0	1	0	40.0489267996159	0
3.29	40.1325642613772	0	1	0	1	0	40.1325642613772	0
3.3	40.2168943953873	0	1	0	1	0	40.2168943953873	0
3.31	40.3019145587316	0	1	0	1	0	40.3019145587316	0
3.32	40.387622140338	0	1	0	1	0	40.387622140338	0
3.33	40.4740145604986	0	1	0	1	0	40.4740145604986	0
3.34	40.5610892704002	0	1	0	1	0	40.5610892704002	0
3.35	40.6488437516632	0	1	0	1	0	40.6488437516632	0
3.36	40.7372755158887	0	1	0	1	0	40.7372755158887	0
3.37	40.8263821042136	0	1	0	1	0	40.8263821042136	0
3.38	40.916161086874	0	1	0	1	0	40.916161086874	0
3.39	41.0066100627756	0	1	0	1	0	41.0066100627756	0
3.4	41.0977266590723	0	1	0	1	0	41.0977266590723	0
3.41	41.189508530752	0	1	0	1	0	41.189508530752	0
3.42	41.2819533602296	0	1	0	1	0	41.2819533602296	0
3.43	41.3750588569472	0	1	0	1	0	41.3750588569472	0
3.44	41.4688227569815	0	1	0	1	0	41.4688227569815	0
3.45	41.5632428226573	0	1	0	1	0	41.5632428226573	0
3.46	41.6583168421687	0	1	0	1	0	41.6583168421687	0
3.47	41.7540426292059	0	1	0	1	0	41.7540426292059	0
3.48	41.8504180225894	0	1	0	1	0	41.8504180225894	0
3.49	41.9474408859095	0	1	0	1	0	41.9474408859095	0
3.5	42.0451091071725	0	1	0	1	0	42.0451091071725	0
3.51	42.1434205984531	0	1	0	1	0	42.1434205984531	0
3.52	42.2423732955526	0	1	0	1	0	42.2423732955526	0
3.53	42.3419651576623	0	1	0	1	0	42.3419651576623	0
3.54	42.4421941670338	0	1	0	1	0	42.4421941670338	0
3.55	42.5430583286538	0	1	0	1	0	42.5430583286538	0
3.56	42.6445556699247	0	1	0	1	0	42.6445556699247	0
3.57	42.7466842403511	0	1	0	1	0	42.7466842403511	0
3.58	42.8494421112308	0	1	0	1	0	42.8494421112308	0
3.59	42.952827375351	0	1	0	1	0	42.952827375351	0
3.6	43.0568381466906	0	1	0	1	0	43.0568381466906	0
3.61	43.161472560126	0	1	0	1	0	43.161472560126	0
3.62	43.2667287711428	0	1	0	1	0	43.2667287711428	0
3.63	43.3726049555516	0	1	0	1	0	43.3726049555516	0
3.64	43.4790993092094	0	1	0	1	0	43.4790993092094	0
3.65	43.5862100477443	0	1	0	1	0	43.5862100477443	0
3.66	43.6939354062859	0	1	0	1	0	43.6939354062859	0
3.67	43.8022736391994	0	1	0	1	0	43.8022736391994	0
3.68	43.9112230198244	0	1	0	1	0	43.9112230198244	0
3.69	44.0207818402175	0	1	0	1	0	44.0207818402175	0
3.7	44.1309484108996	0	1	0	1	0	44.1309484108996	0
3.71	44.2417210606072	0	1	0	1	0	44.2417210606072	0
3.72	44.3530981360472	0	1	0	1	0	44.3530981360472	0
3.73	44.465078001656	0	1	0	1	0	44.465078001656	0
3.74	44.5776590393632	0	1	0	1	0	44.5776590393632	0
3.75	44.6908396483572	0	1	0	1	0	44.6908396483572	0
3.76	44.8046182448568	0	1	0	1	0	44.8046182448568	0
3.77	44.9189932618845	0	1	0	1	0	44.9189932618845	0
3.78	45.0339631490448	0	1	0	1	0	45.0339631490448	0
3.79	45.1495263723051	0	1	0	1	0	45.1495263723051	0
3.8	45.2656814137805	0	1	0	1	0	45.2656814137805	0
3.81	45.382426771522	0	1	0	1	0	45.382426771522	0
3.82	45.4997609593078	0	1	0	1	0	45.4997609593078	0
3.83	45.6176825064379	0	1	0	1	0	45.6176825064379	0
3.84	45.7361899575321	0	1	0	1	0	45.7361899575321	0
3.85	45.8552818723311	0	1	0	1	0	45.8552818723311	0
3.86	45.9749568255006	0	1	0	1	0	45.9749568255006	0
3.87	46.0952134064383	0	1	0	1	0	46.0952134064383	0
3.88	46.2160502190844	0	1	0	1	0	46.2160502190844	0
3.89	46.3374658817342	0	1	0	1	0	46.3374658817342	0
3.9	46.4594590268546	0	1	0	1	0	46.4594590268546	0
3.91	46.5820283009024	0	1	0	1	0	46.5820283009024	0
3.92	46.7051723641462	0	1	0	1	0	46.7051723641462	0
3.93	46.8288898904904	0	1	0	1	0	46.8288898904904	0
3.94	46.9531795673025	0	1	0	1	0	46.9531795673025	0
3.95	47.0780400952424	0	1	0	1	0	47.0780400952424	0
3.96	47.2034701880944	0	1	0	1	0	47.2034701880944	0
3.97	47.3294685726027	0	1	0	1	0	47.3294685726027	0
3.98	47.4560339883074	0	1	0	1	0	47.4560339883074	0
3.99	47.5831651873853	0	1	0	1	0	47.5831651873853	0
4	47.7108609344912	0	1	0	1	0	47.7108609344912	0
4.01	47.8391200066025	0	1	0	1	0	47.8391200066025	0
4.02	47.9679411928661	0	1	0	1	0	47.9679411928661	0
4.03	48.0973232944474	0	1	0	1	0	48.0973232944474	0
4.04	48.227265124381	0	1	0	1	0	48.227265124381	0
4.05	48.3577655074252	0	1	0	1	0	48.3577655074252	0
4.06	48.4888232799166	0	1	0	1	0	48.4888232799166	0
4.07	48.6204372896285	0	1	0	1	0	48.6204372896285	0
4.08	48.7526063956305	0	1	0	1	0	48.7526063956305	0
4.09	48.8853294681503	0	1	0	1	0	48.8853294681503	0
4.1	49.0186053884381	0	1	0	1	0	49.0186053884381	0
4.11	49.1524330486319	0	1	0	1	0	49.1524330486319	0
4.12	49.2868113516257	0	1	0	1	0	49.2868113516257	0
4.13	49.4217392109392	0	1	0	1	0	49.4217392109392	0
4.14	49.5572155505896	0	1	0	1	0	49.5572155505896	0
4.15	49.6932393049649	0	1	0	1	0	49.6932393049649	0
4.16	49.8298094186995	0	1	0	1	0	49.8298094186995	0
4.17	49.966924846551	0	1	0	1	0	49.966924846551	0
4.18	50.1045845532797	0	1	0	1	0	50.1045845532797	0
4.19	50.2427875135283	0	1	0	1	0	50.2427875135283	0
4.2	50.3815327117054	0	1	0	1	0	50.3815327117054	0
4.21	50.5208191418685	0	1	0	1	0	50.5208191418685	0
4.22	50.6606458076103	0	1	0	1	0	50.6606458076103	0
4.23	50.8010117219456	0	1	0	1	0	50.8010117219456	0
4.24	50.9419159072007	0	1	0	1	0	50.9419159072007	0
4.25	51.0833573949032	0	1	0	1	0	51.0833573949032	0
4.26	51.2253352256746	0	1	0	1	0	51.2253352256746	0
4.27	51.3678484491234	0	1	0	1	0	51.3678484491234	0
4.28	51.5108961237403	0	1	0	1	0	51.5108961237403	0
4.29	51.6544773167946	0	1	0	1	0	51.6544773167946	0
4.3	51.7985911042323	0	1	0	1	0	51.7985911042323	0
4.31	51.9432365705752	0	1	0	1	0	51.9432365705752	0
4.32	52.0884128088217	0	1	0	1	0	52.0884128088217	0
4.33	52.234118920349	0	1	0	1	0	52.234118920349	0
4.34	52.3803540148167	0	1	0	1	0	52.3803540148167	0
4.35	52.5271172100713	0	1	0	1	0	52.5271172100713	0
4.36	52.6744076320524	0	1	0	1	0	52.6744076320524	0
4.37	52.8222244147003	0	1	0	1	0	52.8222244147003	0
4.38	52.9705666998643	0	1	0	1	0	52.9705666998643	0
4.39	53.119433637213	0	1	0	1	0	53.119433637213	0
4.4	53.2688243841454	0	1	0	1	0	53.2688243841454	0
4.41	53.4187381057029	0	1	0	1	0	53.4187381057029	0
4.42	53.5691739744832	0	1	0	1	0	53.5691739744832	0
4.43	53.7201311705549	0	1	0	1	0	53.7201311705549	0
4.44	53.8716088813733	0	1	0	1	0	53.8716088813733	0
4.45	54.0236063016976	0	1	0	1	0	54.0236063016976	0
4.46	54.1761226335088	0	1	0	1	0	54.1761226335088	0
4.47	54.329157085929	0	1	0	1	0	54.329157085929	0
4.48	54.4827088751419	0	1	0	1	0	54.4827088751419	0
4.49	54.6367772243136	0	1	0	1	0	54.6367772243136	0
4.5	54.7913613635157	0	1	0	1	0	54.7913613635157	0
4.51	54.9464605296483	0	1	0	1	0	54.9464605296483	0
4.52	55.1020739663647	0	1	0	1	0	55.1020739663647	0
4.53	55.2582009239967	0	1	0	1	0	55.2582009239967	0
4.54	55.414840659481	0	1	0	1	0	55.414840659481	0
4.55	55.5719924362869	0	1	0	1	0	55.5719924362869	0
4.56	55.7296555243444	0	1	0	1	0	55.7296555243444	0
4.57	55.8878291999737	0	1	0	1	0	55.8878291999737	0
4.58	56.0465127458151	0	1	0	1	0	56.0465127458151	0
4.59	56.2057054507607	0	1	0	1	0	56.2057054507607	0
4.6	56.3654066098861	0	1	0	1	0	56.3654066098861	0
4.61	56.5256155243831	0	1	0	1	0	56.5256155243831	0
4.62	56.6863315014942	0	1	0	1	0	56.6863315014942	0
4.63	56.8475538544465	0	1	0	1	0	56.8475538544465	0
4.64	57.0092819023877	0	1	0	1	0	57.0092819023877	0
4.65	57.1715149703224	0	1	0	1	0	57.1715149703224	0
4.66	57.3342523890489	0	1	0	1	0	57.3342523890489	0
4.67	57.4974934950976	0	1	0	1	0	57.4974934950976	0
4.68	57.6612376306696	0	1	0	1	0	57.6612376306696	0
4.69	57.8254841435761	0	1	0	1	0	57.8254841435761	0
4.7	57.990232387179	0	1	0	1	0	57.990232387179	0
4.71	58.1554817203316	0	1	0	1	0	58.1554817203316	0
4.72	58.3212315073209	0	1	0	1	0	58.3212315073209	0
4.73	58.4874811178097	0	1	0	1	0	58.4874811178097	0
4.74	58.6542299267801	0	1	0	1	0	58.6542299267801	0
4.75	58.8214773144778	0	1	0	1	0	58.8214773144778	0
4.76	58.9892226663562	0	1	0	1	0	58.9892226663562	0
4.77	59.1574653730222	0	1	0	1	0	59.1574653730222	0
4.78	59.3262048301824	0	1	0	1	0	59.3262048301824	0
4.79	59.4954404385894	0	1	0	1	0	59.4954404385894	0
4.8	59.6651716039898	0	1	0	1	0	59.6651716039898	0
4.81	59.8353977370719	0	1	0	1	0	59.8353977370719	0
4.82	60.0061182534144	0	1	0	1	0	60.0061182534144	0
4.83	60.1773325734363	0	1	0	1	0	60.1773325734363	0
4.84	60.3490401223462	0	1	0	1	0	60.3490401223462	0
4.85	60.5212403300933	0	1	0	1	0	60.5212403300933	0
4.86	60.6939326313188	0	1	0	1	0	60.6939326313188	0
4.87	60.8671164653071	0	1	0	1	0	60.8671164653071	0
4.88	61.0407912759391	0	1	0	1	0	61.0407912759391	0
4.89	61.2149565116444	0	1	0	1	0	61.2149565116444	0
4.9	61.3896116253553	0	1	0	1	0	61.3896116253553	0
4.91	61.5647560744609	0	1	0	1	0	61.5647560744609	0
4.92	61.7403893207617	0	1	0	1	0	61.7403893207617	0
4.93	61.916510830425	0	1	0	1	0	61.916510830425	0
