# GHZ S RI R 50
1	56.0298419533327	0	1	0	1	0	56.0298419533327	0
1.01	55.5602681741333	0	1	0	1	0	55.5602681741333	0
1.02	55.1010745531567	0	1	0	1	0	55.1010745531567	0
1.03	54.6519702551286	0	1	0	1	0	54.6519702551286	0
1.04	54.2126756307464	0	1	0	1	0	54.2126756307464	0
1.05	53.7829216840145	0	1	0	1	0	53.7829216840145	0
1.06	53.3624495697294	0	1	0	1	0	53.3624495697294	0
1.07	52.9510101191439	0	1	0	1	0	52.9510101191439	0
1.08	52.548363391983	0	1	0	1	0	52.548363391983	0
1.09	52.1542782531192	0	1	0	1	0	52.1542782531192	0
1.1	51.768531972339	0	1	0	1	0	51.768531972339	0
1.11	51.3909098457426	0	1	0	1	0	51.3909098457426	0
1.12	51.0212048374268	0	1	0	1	0	51.0212048374268	0
1.13	50.659217240193	0	1	0	1	0	50.659217240193	0
1.14	50.3047543541126	0	1	0	1	0	50.3047543541126	0
1.15	49.9576301818631	0	1	0	1	0	49.9576301818631	0
1.16	49.6176651398231	0	1	0	1	0	49.6176651398231	0
1.17	49.284685783982	0	1	0	1	0	49.284685783982	0
1.18	48.9585245497871	0	1	0	1	0	48.9585245497871	0
1.19	48.6390195051078	0	1	0	1	0	48.6390195051078	0
1.2	48.3260141155511	0	1	0	1	0	48.3260141155511	0
1.21	48.0193570214147	0	1	0	1	0	48.0193570214147	0
1.22	47.7189018256095	0	1	0	1	0	47.7189018256095	0
1.23	47.4245068919273	0	1	0	1	0	47.4245068919273	0
1.24	47.1360351530699	0	1	0	1	0	47.1360351530699	0
1.25	46.8533539278927	0	1	0	1	0	46.8533539278927	0
1.26	46.5763347473507	0	1	0	1	0	46.5763347473507	0
1.27	46.3048531886683	0	1	0	1	0	46.3048531886683	0
1.28	46.0387887172815	0	1	0	1	0	46.0387887172815	0
1.29	45.7780245361322	0	1	0	1	0	45.7780245361322	0
1.3	45.5224474419179	0	1	0	1	0	45.5224474419179	0
1.31	45.2719476879254	0	1	0	1	0	45.2719476879254	0
1.32	45.0264188530997	0	1	0	1	0	45.0264188530997	0
1.33	44.7857577170189	0	1	0	1	0	44.7857577170189	0
1.34	44.5498641404677	0	1	0	1	0	44.5498641404677	0
1.35	44.3186409513187	0	1	0	1	0	44.3186409513187	0
1.36	44.0919938354483	0	1	0	1	0	44.0919938354483	0
1.37	43.8698312324298	0	1	0	1	0	43.8698312324298	0
1.38	43.6520642357621	0	1	0	1	0	43.6520642357621	0
1.39	43.4386064974044	0	1	0	1	0	43.4386064974044	0
1.4	43.2293741364028	0	1	0	1	0	43.2293741364028	0
1.41	43.0242856514051	0	1	0	1	0	43.0242856514051	0
1.42	42.8232618368715	0	1	0	1	0	42.8232618368715	0
1.43	42.6262257028022	0	1	0	1	0	42.6262257028022	0
1.44	42.4331023978081	0	1	0	1	0	42.4331023978081	0
1.45	42.2438191353663	0	1	0	1	0	42.2438191353663	0
1.46	42.0583051231051	0	1	0	1	0	42.0583051231051	0
1.47	41.8764914949758	0	1	0	1	0	41.8764914949758	0
1.48	41.6983112461744	0	1	0	1	0	41.6983112461744	0
1.49	41.5236991706834	0	1	0	1	0	41.5236991706834	0
1.5	41.3525918013125	0	1	0	1	0	41.3525918013125	0
1.51	41.1849273521216	0	1	0	1	0	41.1849273521216	0
1.52	41.0206456631162	0	1	0	1	0	41.0206456631162	0
1.53	40.8596881471123	0	1	0	1	0	40.8596881471123	0
1.54	40.7019977386707	0	1	0	1	0	40.7019977386707	0
1.55	40.5475188450089	0	1	0	1	0	40.5475188450089	0
1.56	40.3961972988003	0	1	0	1	0	40.3961972988003	0
1.57	40.2479803127777	0	1	0	1	0	40.2479803127777	0
1.58	40.1028164360601	0	1	0	1	0	40.1028164360601	0
1.59	39.9606555121285	0	1	0	1	0	39.9606555121285	0
1.6	39.8214486383769	0	1	0	1	0	39.8214486383769	0
1.61	39.6851481271709	0	1	0	1	0	39.6851481271709	0
1.62	39.5517074683483	0	1	0	1	0	39.5517074683483	0
1.63	39.4210812931009	0	1	0	1	0	39.4210812931009	0
1.64	39.2932253391766	0	1	0	1	0	39.2932253391766	0
1.65	39.1680964173476	0	1	0	1	0	39.1680964173476	0
1.66	39.0456523790905	0	1	0	1	0	39.0456523790905	0
1.67	38.9258520854272	0	1	0	1	0	38.9258520854272	0
1.68	38.8086553768793	0	1	0	1	0	38.8086553768793	0
1.69	38.6940230444885	0	1	0	1	0	38.6940230444885	0
1.7	38.58191680186	0	1	0	1	0	38.58191680186	0
1.71	38.4722992581876	0	1	0	1	0	38.4722992581876	0
1.72	38.3651338922184	0	1	0	1	0	38.3651338922184	0
1.73	38.2603850271216	0	1	0	1	0	38.2603850271216	0
1.74	38.1580178062236	0	1	0	1	0	38.1580178062236	0
1.75	38.0579981695746	0	1	0	1	0	38.0579981695746	0
1.76	37.9602928313146	0	1	0	1	0	37.9602928313146	0
1.77	37.8648692578065	0	1	0	1	0	37.8648692578065	0
1.78	37.771695646506	0	1	0	1	0	37.771695646506	0
1.79	37.6807409055403	0	1	0	1	0	37.6807409055403	0
1.8	37.5919746339672	0	1	0	1	0	37.5919746339672	0
1.81	37.5053671026884	0	1	0	1	0	37.5053671026884	0
1.82	37.4208892359923	0	1	0	1	0	37.4208892359923	0
1.83	37.3385125937021	0	1	0	1	0	37.3385125937021	0
1.84	37.2582093539058	0	1	0	1	0	37.2582093539058	0
1.85	37.1799522962461	0	1	0	1	0	37.1799522962461	0
1.86	37.1037147857497	0	1	0	1	0	37.1037147857497	0
1.87	37.0294707571754	0	1	0	1	0	37.0294707571754	0
1.88	36.9571946998618	0	1	0	1	0	36.9571946998618	0
1.89	36.8868616430553	0	1	0	1	0	36.8868616430553	0
1.9	36.8184471417028	0	1	0	1	0	36.8184471417028	0
1.91	36.751927262689	0	1	0	1	0	36.751927262689	0
1.92	36.6872785715056	0	1	0	1	0	36.6872785715056	0
1.93	36.6244781193333	0	1	0	1	0	36.6244781193333	0
1.94	36.5635034305246	0	1	0	1	0	36.5635034305246	0
1.95	36.5043324904707	0	1	0	1	0	36.5043324904707	0
1.96	36.4469437338406	0	1	0	1	0	36.4469437338406	0
1.97	36.391316033178	0	1	0	1	0	36.391316033178	0
1.98	36.3374286878441	0	1	0	1	0	36.3374286878441	0
1.99	36.285261413293	0	1	0	1	0	36.285261413293	0
2	36.23479433067	0	1	0	1	0	36.23479433067	0
2.01	36.1860079567195	0	1	0	1	0	36.1860079567195	0
2.02	36.1388831939926	0	1	0	1	0	36.1388831939926	0
2.03	36.0934013213453	0	1	0	1	0	36.0934013213453	0
2.04	36.0495439847145	0	1	0	1	0	36.0495439847145	0
2.05	36.0072931881652	0	1	0	1	0	36.0072931881652	0
2.06	35.9666312851983	0	1	0	1	0	35.9666312851983	0
2.07	35.9275409703095	0	1	0	1	0	35.9275409703095	0
2.08	35.8900052707929	0	1	0	1	0	35.8900052707929	0
2.09	35.8540075387789	0	1	0	1	0	35.8540075387789	0
2.1	35.8195314435004	0	1	0	1	0	35.8195314435004	0
2.11	35.786560963778	0	1	0	1	0	35.786560963778	0
2.12	35.7550803807191	0	1	0	1	0	35.7550803807191	0
2.13	35.7250742706211	0	1	0	1	0	35.7250742706211	0
2.14	35.6965274980753	0	1	0	1	0	35.6965274980753	0
2.15	35.6694252092619	0	1	0	1	0	35.6694252092619	0
2.16	35.6437528254317	0	1	0	1	0	35.6437528254317	0
2.17	35.6194960365683	0	1	0	1	0	35.6194960365683	0
2.18	35.5966407952244	0	1	0	1	0	35.5966407952244	0
2.19	35.5751733105271	0	1	0	1	0	35.5751733105271	0
2.2	35.5550800423467	0	1	0	1	0	35.5550800423467	0
2.21	35.5363476956235	0	1	0	1	0	35.5363476956235	0
2.22	35.5189632148486	0	1	0	1	0	35.5189632148486	0
2.23	35.5029137786927	0	1	0	1	0	35.5029137786927	0
2.24	35.4881867947787	0	1	0	1	0	35.4881867947787	0
2.25	35.4747698945939	0	1	0	1	0	35.4747698945939	0
2.26	35.4626509285375	0	1	0	1	0	35.4626509285375	0
2.27	35.4518179610985	0	1	0	1	0	35.4518179610985	0
2.28	35.4422592661608	0	1	0	1	0	35.4422592661608	0
2.29	35.4339633224314	0	1	0	1	0	35.4339633224314	0
2.3	35.4269188089874	0	1	0	1	0	35.4269188089874	0
2.31	35.4211146009394	0	1	0	1	0	35.4211146009394	0
2.32	35.4165397652065	0	1	0	1	0	35.4165397652065	0
2.33	35.4131835563999	0	1	0	1	0	35.4131835563999	0
2.34	35.4110354128128	0	1	0	1	0	35.4110354128128	0
2.35	35.4100849525122	0	1	0	1	0	35.4100849525122	0
2.36	35.41032196953	0	1	0	1	0	35.41032196953	0
2.37	35.4117364301507	0	1	0	1	0	35.4117364301507	0
2.38	35.4143184692928	0	1	0	1	0	35.4143184692928	0
2.39	35.4180583869805	0	1	0	1	0	35.4180583869805	0
2.4	35.4229466449046	0	1	0	1	0	35.4229466449046	0
2.41	35.4289738630679	0	1	0	1	0	35.4289738630679	0
2.42	35.4361308165144	0	1	0	1	0	35.4361308165144	0
2.43	35.4444084321394	0	1	0	1	0	35.4444084321394	0
2.44	35.4537977855776	0	1	0	1	0	35.4537977855776	0
2.45	35.4642900981675	0	1	0	1	0	35.4642900981675	0
2.46	35.4758767339901	0	1	0	1	0	35.4758767339901	0
2.47	35.4885491969794	0	1	0	1	0	35.4885491969794	0
2.48	35.5022991281028	0	1	0	1	0	35.5022991281028	0
2.49	35.5171183026091	0	1	0	1	0	35.5171183026091	0
2.5	35.5329986273433	0	1	0	1	0	35.5329986273433	0
2.51	35.549932138125	0	1	0	1	0	35.549932138125	0
2.52	35.5679109971892	0	1	0	1	0	35.5679109971892	0
2.53	35.5869274906884	0	1	0	1	0	35.5869274906884	0
2.54	35.6069740262528	0	1	0	1	0	35.6069740262528	0
2.55	35.6280431306085	0	1	0	1	0	35.6280431306085	0
2.56	35.6501274472519	0	1	0	1	0	35.6501274472519	0
2.57	35.673219734177	0	1	0	1	0	35.673219734177	0
2.58	35.6973128616575	0	1	0	1	0	35.6973128616575	0
2.59	35.7223998100782	0	1	0	1	0	35.7223998100782	0
2.6	35.7484736678184	0	1	0	1	0	35.7484736678184	0
2.61	35.7755276291823	0	1	0	1	0	35.7755276291823	0
2.62	35.803554992378	0	1	0	1	0	35.803554992378	0
2.63	35.832549157542	0	1	0	1	0	35.832549157542	0
2.64	35.8625036248088	0	1	0	1	0	35.8625036248088	0
2.65	35.8934119924238	0	1	0	1	0	35.8934119924238	0
2.66	35.9252679548998	0	1	0	1	0	35.9252679548998	0
2.67	35.9580653012134	0	1	0	1	0	35.9580653012134	0
2.68	35.9917979130434	0	1	0	1	0	35.9917979130434	0
2.69	36.0264597630471	0	1	0	1	0	36.0264597630471	0
2.7	36.0620449131759	0	1	0	1	0	36.0620449131759	0
2.71	36.0985475130276	0	1	0	1	0	36.0985475130276	0
2.72	36.1359617982354	0	1	0	1	0	36.1359617982354	0
2.73	36.1742820888921	0	1	0	1	0	36.1742820888921	0
2.74	36.2135027880088	0	1	0	1	0	36.2135027880088	0
2.75	36.2536183800072	0	1	0	1	0	36.2536183800072	0
2.76	36.2946234292452	0	1	0	1	0	36.2946234292452	0
2.77	36.3365125785736	0	1	0	1	0	36.3365125785736	0
2.78	36.3792805479245	0	1	0	1	0	36.3792805479245	0
2.79	36.4229221329298	0	1	0	1	0	36.4229221329298	0
2.8	36.4674322035696	0	1	0	1	0	36.4674322035696	0
2.81	36.5128057028493	0	1	0	1	0	36.5128057028493	0
2.82	36.5590376455044	0	1	0	1	0	36.5590376455044	0
2.83	36.6061231167339	0	1	0	1	0	36.6061231167339	0
2.84	36.6540572709591	0	1	0	1	0	36.6540572709591	0
2.85	36.7028353306095	0	1	0	1	0	36.7028353306095	0
2.86	36.7524525849337	0	1	0	1	0	36.7524525849337	0
2.87	36.8029043888355	0	1	0	1	0	36.8029043888355	0
2.88	36.8541861617337	0	1	0	1	0	36.8541861617337	0
2.89	36.9062933864465	0	1	0	1	0	36.9062933864465	0
2.9	36.9592216080977	0	1	0	1	0	36.9592216080977	0
2.91	37.0129664330467	0	1	0	1	0	37.0129664330467	0
2.92	37.0675235278397	0	1	0	1	0	37.0675235278397	0
2.93	37.1228886181827	0	1	0	1	0	37.1228886181827	0
2.94	37.1790574879354	0	1	0	1	0	37.1790574879354	0
2.95	37.2360259781255	0	1	0	1	0	37.2360259781255	0
2.96	37.2937899859829	0	1	0	1	0	37.2937899859829	0
2.97	37.3523454639938	0	1	0	1	0	37.3523454639938	0
2.98	37.4116884189734	0	1	0	1	0	37.4116884189734	0
2.99	37.4718149111574	0	1	0	1	0	37.4718149111574	0
3	37.5327210533117	0	1	0	1	0	37.5327210533117	0
3.01	37.5944030098599	0	1	0	1	0	37.5944030098599	0
3.02	37.6568569960278	0	1	0	1	0	37.6568569960278	0
3.03	37.7200792770052	0	1	0	1	0	37.7200792770052	0
3.04	37.7840661671244	0	1	0	1	0	37.7840661671244	0
3.05	37.848814029054	0	1	0	1	0	37.848814029054	0
3.06	37.9143192730095	0	1	0	1	0	37.9143192730095	0
3.07	37.980578355979	0	1	0	1	0	37.980578355979	0
3.08	38.0475877809636	0	1	0	1	0	38.0475877809636	0
3.09	38.115344096233	0	1	0	1	0	38.115344096233	0
3.1	38.1838438945954	0	1	0	1	0	38.1838438945954	0
3.11	38.2530838126813	0	1	0	1	0	38.2530838126813	0
3.12	38.3230605302415	0	1	0	1	0	38.3230605302415	0
3.13	38.393770769458	0	1	0	1	0	38.393770769458	0
3.14	38.4652112942685	0	1	0	1	0	38.4652112942685	0
3.15	38.5373789097033	0	1	0	1	0	38.5373789097033	0
3.16	38.6102704612357	0	1	0	1	0	38.6102704612357	0
3.17	38.6838828341435	0	1	0	1	0	38.6838828341435	0
3.18	38.7582129528837	0	1	0	1	0	38.7582129528837	0
3.19	38.8332577804777	0	1	0	1	0	38.8332577804777	0
3.2	38.9090143179095	0	1	0	1	0	38.9090143179095	0
3.21	38.9854796035337	0	1	0	1	0	38.9854796035337	0
3.22	39.0626507124959	0	1	0	1	0	39.0626507124959	0
3.23	39.1405247561623	0	1	0	1	0	39.1405247561623	0
3.24	39.2190988815617	0	1	0	1	0	39.2190988815617	0
3.25	39.2983702708363	0	1	0	1	0	39.2983702708363	0
3.26	39.378336140703	0	1	0	1	0	39.378336140703	0
3.27	39.4589937419252	0	1	0	1	0	39.4589937419252	0
3.28	39.5403403587935	0	1	0	1	0	39.5403403587935	0
3.29	39.6223733086164	0	1	0	1	0	39.6223733086164	0
3.3	39.7050899412196	0	1	0	1	0	39.7050899412196	0
3.31	39.7884876384552	0	1	0	1	0	39.7884876384552	0
3.32	39.8725638137193	0	1	0	1	0	39.8725638137193	0
3.33	39.9573159114783	0	1	0	1	0	39.9573159114783	0
3.34	40.0427414068038	0	1	0	1	0	40.0427414068038	0
3.35	40.1288378049156	0	1	0	1	0	40.1288378049156	0
3.36	40.2156026407337	0	1	0	1	0	40.2156026407337	0
3.37	40.3030334784367	0	1	0	1	0	40.3030334784367	0
3.38	40.3911279110299	0	1	0	1	0	40.3911279110299	0
3.39	40.4798835599195	0	1	0	1	0	40.4798835599195	0
3.4	40.5692980744951	0	1	0	1	0	40.5692980744951	0
3.41	40.6593691317197	0	1	0	1	0	40.6593691317197	0
3.42	40.7500944357261	0	1	0	1	0	40.7500944357261	0
3.43	40.8414717174212	0	1	0	1	0	40.8414717174212	0
3.44	40.9334987340965	0	1	0	1	0	40.9334987340965	0
3.45	41.0261732690462	0	1	0	1	0	41.0261732690462	0
3.46	41.1194931311909	0	1	0	1	0	41.1194931311909	0
3.47	41.2134561547088	0	1	0	1	0	41.2134561547088	0
3.48	41.3080601986725	0	1	0	1	0	41.3080601986725	0
3.49	41.4033031466924	0	1	0	1	0	41.4033031466924	0
3.5	41.4991829065663	0	1	0	1	0	41.4991829065663	0
3.51	41.5956974099348	0	1	0	1	0	41.5956974099348	0
3.52	41.6928446119425	0	1	0	1	0	41.6928446119425	0
3.53	41.7906224909051	0	1	0	1	0	41.7906224909051	0
3.54	41.8890290479823	0	1	0	1	0	41.8890290479823	0
3.55	41.988062306856	0	1	0	1	0	41.988062306856	0
3.56	42.0877203134138	0	1	0	1	0	42.0877203134138	0
3.57	42.1880011354381	0	1	0	1	0	42.1880011354381	0
3.58	42.2889028623005	0	1	0	1	0	42.2889028623005	0
3.59	42.3904236046607	0	1	0	1	0	42.3904236046607	0
3.6	42.4925614941712	0	1	0	1	0	42.4925614941712	0
3.61	42.5953146831865	0	1	0	1	0	42.5953146831865	0
3.62	42.6986813444768	0	1	0	1	0	42.6986813444768	0
3.63	42.8026596709475	0	1	0	1	0	42.8026596709475	0
3.64	42.9072478753616	0	1	0	1	0	42.9072478753616	0
3.65	43.0124441900689	0	1	0	1	0	43.0124441900689	0
3.66	43.1182468667372	0	1	0	1	0	43.1182468667372	0
3.67	43.2246541760901	0	1	0	1	0	43.2246541760901	0
3.68	43.3316644076475	0	1	0	1	0	43.3316644076475	0
3.69	43.439275869471	0	1	0	1	0	43.439275869471	0
3.7	43.5474868879138	0	1	0	1	0	43.5474868879138	0
3.71	43.6562958073734	0	1	0	1	0	43.6562958073734	0
3.72	43.7657009900496	0	1	0	1	0	43.7657009900496	0
3.73	43.8757008157058	0	1	0	1	0	43.8757008157058	0
3.74	43.9862936814342	0	1	0	1	0	43.9862936814342	0
3.75	44.0974780014246	0	1	0	1	0	44.0974780014246	0
3.76	44.209252206737	0	1	0	1	0	44.209252206737	0
3.77	44.3216147450781	0	1	0	1	0	44.3216147450781	0
3.78	44.4345640805811	0	1	0	1	0	44.4345640805811	0
3.79	44.5480986935886	0	1	0	1	0	44.5480986935886	0
3.8	44.6622170804399	0	1	0	1	0	44.6622170804399	0
3.81	44.7769177532605	0	1	0	1	0	44.7769177532605	0
3.82	44.8921992397559	0	1	0	1	0	44.8921992397559	0
3.83	45.008060083008	0	1	0	1	0	45.008060083008	0
3.84	45.1244988412749	0	1	0	1	0	45.1244988412749	0
3.85	45.2415140877939	0	1	0	1	0	45.2415140877939	0
3.86	45.3591044105873	0	1	0	1	0	45.3591044105873	0
3.87	45.4772684122715	0	1	0	1	0	45.4772684122715	0
3.88	45.5960047098691	0	1	0	1	0	45.5960047098691	0
3.89	45.7153119346234	0	1	0	1	0	45.7153119346234	0
3.9	45.8351887318162	0	1	0	1	0	45.8351887318162	0
3.91	45.9556337605884	0	1	0	1	0	45.9556337605884	0
3.92	46.076645693763	0	1	0	1	0	46.076645693763	0
3.93	46.1982232176713	0	1	0	1	0	46.1982232176713	0
3.94	46.3203650319813	0	1	0	1	0	46.3203650319813	0
3.95	46.443069849529	0	1	0	1	0	46.443069849529	0
3.96	46.5663363961518	0	1	0	1	0	46.5663363961518	0
3.97	46.6901634105252	0	1	0	1	0	46.6901634105252	0
3.98	46.8145496440014	0	1	0	1	0	46.8145496440014	0
3.99	46.9394938604502	0	1	0	1	0	46.9394938604502	0
4	47.0649948361029	0	1	0	1	0	47.0649948361029	0
4.01	47.1910513593977	0	1	0	1	0	47.1910513593977	0
4.02	47.3176622308283	0	1	0	1	0	47.3176622308283	0
4.03	47.4448262627943	0	1	0	1	0	47.4448262627943	0
4.04	47.5725422794534	0	1	0	1	0	47.5725422794534	0
4.05	47.7008091165769	0	1	0	1	0	47.7008091165769	0
4.06	47.8296256214061	0	1	0	1	0	47.8296256214061	0
4.07	47.9589906525117	0	1	0	1	0	47.9589906525117	0
4.08	48.0889030796548	0	1	0	1	0	48.0889030796548	0
4.09	48.2193617836503	0	1	0	1	0	48.2193617836503	0
4.1	48.3503656562321	0	1	0	1	0	48.3503656562321	0
4.11	48.4819135999197	0	1	0	1	0	48.4819135999197	0
4.12	48.6140045278882	0	1	0	1	0	48.6140045278882	0
4.13	48.7466373638387	0	1	0	1	0	48.7466373638387	0
4.14	48.8798110418713	0	1	0	1	0	48.8798110418713	0
4.15	49.0135245063598	0	1	0	1	0	49.0135245063598	0
4.16	49.1477767118282	0	1	0	1	0	49.1477767118282	0
4.17	49.2825666228293	0	1	0	1	0	49.2825666228293	0
4.18	49.4178932138243	0	1	0	1	0	49.4178932138243	0
4.19	49.5537554690646	0	1	0	1	0	49.5537554690646	0
4.2	49.6901523824758	0	1	0	1	0	49.6901523824758	0
4.21	49.827082957542	0	1	0	1	0	49.827082957542	0
4.22	49.9645462071932	0	1	0	1	0	49.9645462071932	0
4.23	50.1025411536933	0	1	0	1	0	50.1025411536933	0
4.24	50.2410668285301	0	1	0	1	0	50.2410668285301	0
4.25	50.3801222723069	0	1	0	1	0	50.3801222723069	0
4.26	50.5197065346353	0	1	0	1	0	50.5197065346353	0
4.27	50.65981867403	0	1	0	1	0	50.65981867403	0
4.28	50.8004577578044	0	1	0	1	0	50.8004577578044	0
4.29	50.9416228619685	0	1	0	1	0	50.9416228619685	0
4.3	51.0833130711274	0	1	0	1	0	51.0833130711274	0
4.31	51.2255274783818	0	1	0	1	0	51.2255274783818	0
4.32	51.3682651852298	0	1	0	1	0	51.3682651852298	0
4.33	51.5115253014694	0	1	0	1	0	51.5115253014694	0
4.34	51.6553069451034	0	1	0	1	0	51.6553069451034	0
4.35	51.7996092422449	0	1	0	1	0	51.7996092422449	0
4.36	51.9444313270245	0	1	0	1	0	51.9444313270245	0
4.37	52.0897723414981	0	1	0	1	0	52.0897723414981	0
4.38	52.2356314355567	0	1	0	1	0	52.2356314355567	0
4.39	52.3820077668375	0	1	0	1	0	52.3820077668375	0
4.4	52.5289005006352	0	1	0	1	0	52.5289005006352	0
4.41	52.6763088098156	0	1	0	1	0	52.6763088098156	0
4.42	52.82423187473	0	1	0	1	0	52.82423187473	0
4.43	52.9726688831305	0	1	0	1	0	52.9726688831305	0
4.44	53.1216190300868	0	1	0	1	0	53.1216190300868	0
4.45	53.2710815179038	0	1	0	1	0	53.2710815179038	0
4.46	53.4210555560408	0	1	0	1	0	53.4210555560408	0
4.47	53.5715403610312	0	1	0	1	0	53.5715403610312	0
4.48	53.7225351564036	0	1	0	1	0	53.7225351564036	0
4.49	53.874039172604	0	1	0	1	0	53.874039172604	0
4.5	54.0260516469188	0	1	0	1	0	54.0260516469188	0
4.51	54.1785718233991	0	1	0	1	0	54.1785718233991	0
4.52	54.3315989527859	0	1	0	1	0	54.3315989527859	0
4.53	54.4851322924361	0	1	0	1	0	54.4851322924361	0
4.54	54.6391711062496	0	1	0	1	0	54.6391711062496	0
4.55	54.7937146645976	0	1	0	1	0	54.7937146645976	0
4.56	54.9487622442517	0	1	0	1	0	54.9487622442517	0
4.57	55.1043131283134	0	1	0	1	0	55.1043131283134	0
4.58	55.2603666061456	0	1	0	1	0	55.2603666061456	0
4.59	55.4169219733041	0	1	0	1	0	55.4169219733041	0
4.6	55.5739785314701	0	1	0	1	0	55.5739785314701	0
4.61	55.7315355883842	0	1	0	1	0	55.7315355883842	0
4.62	55.8895924577805	0	1	0	1	0	55.8895924577805	0
4.63	56.0481484593217	0	1	0	1	0	56.0481484593217	0
4.64	56.207202918536	0	1	0	1	0	56.207202918536	0
4.65	56.3667551667531	0	1	0	1	0	56.3667551667531	0
4.66	56.5268045410426	0	1	0	1	0	56.5268045410426	0
4.67	56.687350384152	0	1	0	1	0	56.687350384152	0
4.68	56.8483920444466	0	1	0	1	0	56.8483920444466	0
4.69	57.0099288758494	0	1	0	1	0	57.0099288758494	0
4.7	57.1719602377818	0	1	0	1	0	57.1719602377818	0
4.71	57.3344854951052	0	1	0	1	0	57.3344854951052	0
4.72	57.4975040180639	0	1	0	1	0	57.4975040180639	0
4.73	57.6610151822275	0	1	0	1	0	57.6610151822275	0
4.74	57.8250183684352	0	1	0	1	0	57.8250183684352	0
4.75	57.9895129627403	0	1	0	1	0	57.9895129627403	0
4.76	58.154498356355	0	1	0	1	0	58.154498356355	0
4.77	58.319973945597	0	1	0	1	0	58.319973945597	0
4.78	58.4859391318354	0	1	0	1	0	58.4859391318354	0
4.79	58.6523933214386	0	1	0	1	0	58.6523933214386	0
4.8	58.8193359257218	0	1	0	1	0	58.8193359257218	0
4.81	58.9867663608957	0	1	0	1	0	58.9867663608957	0
4.82	59.1546840480156	0	1	0	1	0	59.1546840480156	0
4.83	59.3230884129316	0	1	0	1	0	59.3230884129316	0
4.84	59.4919788862387	0	1	0	1	0	59.4919788862387	0
4.85	59.6613549032282	0	1	0	1	0	59.6613549032282	0
4.86	59.8312159038389	0	1	0	1	0	59.8312159038389	0
4.87	60.00156133261	0	1	0	1	0	60.00156133261	0
4.88	60.1723906386335	0	1	0	1	0	60.1723906386335	0
4.89	60.3437032755078	0	1	0	1	0	60.3437032755078	0
4.9	60.5154987012917	0	1	0	1	0	60.5154987012917	0
4.91	60.6877763784591	0	1	0	1	0	60.6877763784591	0
4.92	60.860535773854	0	1	0	1	0	60.860535773854	0
4.93	61.0337763586462	0	1	0	1	0	61.0337763586462	0
