# GHZ S RI R 50
1	63.4737154964777	0	1	0	1	0	63.4737154964777	0
1.01	62.9404117604893	0	1	0	1	0	62.9404117604893	0
1.02	62.41874197684	0	1	0	1	0	62.41874197684	0
1.03	61.9083788330343	0	1	0	1	0	61.9083788330343	0
1.04	61.4090076055185	0	1	0	1	0	61.4090076055185	0
1.05	60.920325560208	0	1	0	1	0	60.920325560208	0
1.06	60.4420413869455	0	1	0	1	0	60.4420413869455	0
1.07	59.9738746656735	0	1	0	1	0	59.9738746656735	0
1.08	59.5155553622622	0	1	0	1	0	59.5155553622622	0
1.09	59.0668233520914	0	1	0	1	0	59.0668233520914	0
1.1	58.6274279696176	0	1	0	1	0	58.6274279696176	0
1.11	58.1971275822904	0	1	0	1	0	58.1971275822904	0
1.12	57.775689187293	0	1	0	1	0	57.775689187293	0
1.13	57.3628880296959	0	1	0	1	0	57.3628880296959	0
1.14	56.9585072407077	0	1	0	1	0	56.9585072407077	0
1.15	56.5623374947991	0	1	0	1	0	56.5623374947991	0
1.16	56.1741766845626	0	1	0	1	0	56.1741766845626	0
1.17	55.7938296122457	0	1	0	1	0	55.7938296122457	0
1.18	55.4211076969686	0	1	0	1	0	55.4211076969686	0
1.19	55.0558286967051	0	1	0	1	0	55.0558286967051	0
1.2	54.6978164441627	0	1	0	1	0	54.6978164441627	0
1.21	54.3469005957613	0	1	0	1	0	54.3469005957613	0
1.22	54.0029163929562	0	1	0	1	0	54.0029163929562	0
1.23	53.6657044352041	0	1	0	1	0	53.6657044352041	0
1.24	53.3351104639148	0	1	0	1	0	53.3351104639148	0
1.25	53.0109851567729	0	1	0	1	0	53.0109851567729	0
1.26	52.693183931854	0	1	0	1	0	52.693183931854	0
1.27	52.381566760995	0	1	0	1	0	52.381566760995	0
1.28	52.0759979919131	0	1	0	1	0	52.0759979919131	0
1.29	51.7763461785976	0	1	0	1	0	51.7763461785976	0
1.3	51.4824839195307	0	1	0	1	0	51.4824839195307	0
1.31	51.1942877033171	0	1	0	1	0	51.1942877033171	0
1.32	50.911637761331	0	1	0	1	0	50.911637761331	0
1.33	50.6344179270107	0	1	0	1	0	50.6344179270107	0
1.34	50.3625155014529	0	1	0	1	0	50.3625155014529	0
1.35	50.0958211249813	0	1	0	1	0	50.0958211249813	0
1.36	49.8342286543804	0	1	0	1	0	49.8342286543804	0
1.37	49.5776350455068	0	1	0	1	0	49.5776350455068	0
1.38	49.3259402410039	0	1	0	1	0	49.3259402410039	0
1.39	49.0790470628635	0	1	0	1	0	49.0790470628635	0
1.4	48.8368611095919	0	1	0	1	0	48.8368611095919	0
1.41	48.5992906577518	0	1	0	1	0	48.5992906577518	0
1.42	48.3662465676649	0	1	0	1	0	48.3662465676649	0
1.43	48.1376421930704	0	1	0	1	0	48.1376421930704	0
1.44	47.9133932945481	0	1	0	1	0	47.9133932945481	0
1.45	47.6934179565239	0	1	0	1	0	47.6934179565239	0
1.46	47.4776365076859	0	1	0	1	0	47.4776365076859	0
1.47	47.2659714446492	0	1	0	1	0	47.2659714446492	0
1.48	47.0583473587148	0	1	0	1	0	47.0583473587148	0
1.49	46.8546908655785	0	1	0	1	0	46.8546908655785	0
1.5	46.6549305378507	0	1	0	1	0	46.6549305378507	0
1.51	46.4589968402582	0	1	0	1	0	46.4589968402582	0
1.52	46.2668220674034	0	1	0	1	0	46.2668220674034	0
1.53	46.0783402839643	0	1	0	1	0	46.0783402839643	0
1.54	45.893487267225	0	1	0	1	0	45.893487267225	0
1.55	45.7122004518296	0	1	0	1	0	45.7122004518296	0
1.56	45.5344188766624	0	1	0	1	0	45.5344188766624	0
1.57	45.3600831337571	0	1	0	1	0	45.3600831337571	0
1.58	45.1891353191464	0	1	0	1	0	45.1891353191464	0
1.59	45.0215189855666	0	1	0	1	0	45.0215189855666	0
1.6	44.8571790969358	0	1	0	1	0	44.8571790969358	0
1.61	44.696061984528	0	1	0	1	0	44.696061984528	0
1.62	44.5381153047709	0	1	0	1	0	44.5381153047709	0
1.63	44.3832879985972	0	1	0	1	0	44.3832879985972	0
1.64	44.2315302522825	0	1	0	1	0	44.2315302522825	0
1.65	44.0827934597081	0	1	0	1	0	44.0827934597081	0
1.66	43.9370301859868	0	1	0	1	0	43.9370301859868	0
1.67	43.7941941323964	0	1	0	1	0	43.7941941323964	0
1.68	43.6542401025656	0	1	0	1	0	43.6542401025656	0
1.69	43.5171239698592	0	1	0	1	0	43.5171239698592	0
1.7	43.382802645916	0	1	0	1	0	43.382802645916	0
1.71	43.2512340502897	0	1	0	1	0	43.2512340502897	0
1.72	43.122377081149	0	1	0	1	0	43.122377081149	0
1.73	42.996191586994	0	1	0	1	0	42.996191586994	0
1.74	42.8726383393476	0	1	0	1	0	42.8726383393476	0
1.75	42.7516790063839	0	1	0	1	0	42.7516790063839	0
1.76	42.6332761274547	0	1	0	1	0	42.6332761274547	0
1.77	42.51739308848	0	1	0	1	0	42.51739308848	0
1.78	42.4039940981684	0	1	0	1	0	42.4039940981684	0
1.79	42.2930441650336	0	1	0	1	0	42.2930441650336	0
1.8	42.1845090751781	0	1	0	1	0	42.1845090751781	0
1.81	42.0783553708125	0	1	0	1	0	42.0783553708125	0
1.82	41.9745503294836	0	1	0	1	0	41.9745503294836	0
1.83	41.8730619439829	0	1	0	1	0	41.8730619439829	0
1.84	41.7738589029108	0	1	0	1	0	41.7738589029108	0
1.85	41.676910571871	0	1	0	1	0	41.676910571871	0
1.86	41.5821869752715	0	1	0	1	0	41.5821869752715	0
1.87	41.4896587787092	0	1	0	1	0	41.4896587787092	0
1.88	41.3992972719174	0	1	0	1	0	41.3992972719174	0
1.89	41.3110743522541	0	1	0	1	0	41.3110743522541	0
1.9	41.2249625087118	0	1	0	1	0	41.2249625087118	0
1.91	41.1409348064299	0	1	0	1	0	41.1409348064299	0
1.92	41.0589648716904	0	1	0	1	0	41.0589648716904	0
1.93	40.9790268773812	0	1	0	1	0	40.9790268773812	0
1.94	40.9010955289079	0	1	0	1	0	40.9010955289079	0
1.95	40.8251460505394	0	1	0	1	0	40.8251460505394	0
1.96	40.751154172172	0	1	0	1	0	40.751154172172	0
1.97	40.6790961164957	0	1	0	1	0	40.6790961164957	0
1.98	40.6089485865506	0	1	0	1	0	40.6089485865506	0
1.99	40.5406887536569	0	1	0	1	0	40.5406887536569	0
2	40.4742942457089	0	1	0	1	0	40.4742942457089	0
2.01	40.4097431358165	0	1	0	1	0	40.4097431358165	0
2.02	40.3470139312858	0	1	0	1	0	40.3470139312858	0
2.03	40.286085562924	0	1	0	1	0	40.286085562924	0
2.04	40.2269373746599	0	1	0	1	0	40.2269373746599	0
2.05	40.1695491134674	0	1	0	1	0	40.1695491134674	0
2.06	40.1139009195833	0	1	0	1	0	40.1139009195833	0
2.07	40.0599733170077	0	1	0	1	0	40.0599733170077	0
2.08	40.0077472042793	0	1	0	1	0	40.0077472042793	0
2.09	39.9572038455149	0	1	0	1	0	39.9572038455149	0
2.1	39.9083248617054	0	1	0	1	0	39.9083248617054	0
2.11	39.8610922222589	0	1	0	1	0	39.8610922222589	0
2.12	39.8154882367832	0	1	0	1	0	39.8154882367832	0
2.13	39.7714955471002	0	1	0	1	0	39.7714955471002	0
2.14	39.7290971194838	0	1	0	1	0	39.7290971194838	0
2.15	39.6882762371141	0	1	0	1	0	39.6882762371141	0
2.16	39.6490164927423	0	1	0	1	0	39.6490164927423	0
2.17	39.6113017815571	0	1	0	1	0	39.6113017815571	0
2.18	39.5751162942486	0	1	0	1	0	39.5751162942486	0
2.19	39.5404445102611	0	1	0	1	0	39.5404445102611	0
2.2	39.507271191231	0	1	0	1	0	39.507271191231	0
2.21	39.4755813746022	0	1	0	1	0	39.4755813746022	0
2.22	39.4453603674143	0	1	0	1	0	39.4453603674143	0
2.23	39.4165937402574	0	1	0	1	0	39.4165937402574	0
2.24	39.38926732139	0	1	0	1	0	39.38926732139	0
2.25	39.3633671910125	0	1	0	1	0	39.3633671910125	0
2.26	39.3388796756935	0	1	0	1	0	39.3388796756935	0
2.27	39.315791342943	0	1	0	1	0	39.315791342943	0
2.28	39.2940889959289	0	1	0	1	0	39.2940889959289	0
2.29	39.2737596683314	0	1	0	1	0	39.2737596683314	0
2.3	39.2547906193318	0	1	0	1	0	39.2547906193318	0
2.31	39.2371693287317	0	1	0	1	0	39.2371693287317	0
2.32	39.2208834921983	0	1	0	1	0	39.2208834921983	0
2.33	39.2059210166318	0	1	0	1	0	39.2059210166318	0
2.34	39.1922700156521	0	1	0	1	0	39.1922700156521	0
2.35	39.1799188052006	0	1	0	1	0	39.1799188052006	0
2.36	39.1688558992535	0	1	0	1	0	39.1688558992535	0
2.37	39.1590700056439	0	1	0	1	0	39.1590700056439	0
2.38	39.1505500219892	0	1	0	1	0	39.1505500219892	0
2.39	39.1432850317208	0	1	0	1	0	39.1432850317208	0
2.4	39.137264300213	0	1	0	1	0	39.137264300213	0
2.41	39.132477271008	0	1	0	1	0	39.132477271008	0
2.42	39.1289135621349	0	1	0	1	0	39.1289135621349	0
2.43	39.1265629625196	0	1	0	1	0	39.1265629625196	0
2.44	39.1254154284825	0	1	0	1	0	39.1254154284825	0
2.45	39.1254610803226	0	1	0	1	0	39.1254610803226	0
2.46	39.1266901989843	0	1	0	1	0	39.1266901989843	0
2.47	39.1290932228056	0	1	0	1	0	39.1290932228056	0
2.48	39.1326607443449	0	1	0	1	0	39.1326607443449	0
2.49	39.1373835072843	0	1	0	1	0	39.1373835072843	0
2.5	39.1432524034069	0	1	0	1	0	39.1432524034069	0
2.51	39.1502584696464	0	1	0	1	0	39.1502584696464	0
2.52	39.1583928852079	0	1	0	1	0	39.1583928852079	0
2.53	39.1676469687552	0	1	0	1	0	39.1676469687552	0
2.54	39.1780121756664	0	1	0	1	0	39.1780121756664	0
2.55	39.1894800953528	0	1	0	1	0	39.1894800953528	0
2.56	39.2020424486411	0	1	0	1	0	39.2020424486411	0
2.57	39.2156910852167	0	1	0	1	0	39.2156910852167	0
2.58	39.2304179811266	0	1	0	1	0	39.2304179811266	0
2.59	39.2462152363397	0	1	0	1	0	39.2462152363397	0
2.6	39.2630750723639	0	1	0	1	0	39.2630750723639	0
2.61	39.2809898299177	0	1	0	1	0	39.2809898299177	0
2.62	39.2999519666554	0	1	0	1	0	39.2999519666554	0
2.63	39.3199540549434	0	1	0	1	0	39.3199540549434	0
2.64	39.3409887796882	0	1	0	1	0	39.3409887796882	0
2.65	39.363048936213	0	1	0	1	0	39.363048936213	0
2.66	39.3861274281816	0	1	0	1	0	39.3861274281816	0
2.67	39.4102172655702	0	1	0	1	0	39.4102172655702	0
2.68	39.4353115626838	0	1	0	1	0	39.4353115626838	0
2.69	39.4614035362166	0	1	0	1	0	39.4614035362166	0
2.7	39.4884865033566	0	1	0	1	0	39.4884865033566	0
2.71	39.5165538799308	0	1	0	1	0	39.5165538799308	0
2.72	39.5455991785923	0	1	0	1	0	39.5455991785923	0
2.73	39.5756160070472	0	1	0	1	0	39.5756160070472	0
2.74	39.6065980663193	0	1	0	1	0	39.6065980663193	0
2.75	39.6385391490543	0	1	0	1	0	39.6385391490543	0
2.76	39.6714331378592	0	1	0	1	0	39.6714331378592	0
2.77	39.7052740036791	0	1	0	1	0	39.7052740036791	0
2.78	39.740055804208	0	1	0	1	0	39.740055804208	0
2.79	39.775772682334	0	1	0	1	0	39.775772682334	0
2.8	39.8124188646186	0	1	0	1	0	39.8124188646186	0
2.81	39.8499886598073	0	1	0	1	0	39.8499886598073	0
2.82	39.8884764573726	0	1	0	1	0	39.8884764573726	0
2.83	39.9278767260879	0	1	0	1	0	39.9278767260879	0
2.84	39.9681840126309	0	1	0	1	0	39.9681840126309	0
2.85	40.0093929402173	0	1	0	1	0	40.0093929402173	0
2.86	40.0514982072628	0	1	0	1	0	40.0514982072628	0
2.87	40.0944945860725	0	1	0	1	0	40.0944945860725	0
2.88	40.1383769215585	0	1	0	1	0	40.1383769215585	0
2.89	40.1831401299835	0	1	0	1	0	40.1831401299835	0
2.9	40.2287791977308	0	1	0	1	0	40.2287791977308	0
2.91	40.2752891800993	0	1	0	1	0	40.2752891800993	0
2.92	40.3226652001237	0	1	0	1	0	40.3226652001237	0
2.93	40.3709024474183	0	1	0	1	0	40.3709024474183	0
2.94	40.4199961770449	0	1	0	1	0	40.4199961770449	0
2.95	40.4699417084033	0	1	0	1	0	40.4699417084033	0
2.96	40.5207344241448	0	1	0	1	0	40.5207344241448	0
2.97	40.5723697691071	0	1	0	1	0	40.5723697691071	0
2.98	40.6248432492713	0	1	0	1	0	40.6248432492713	0
2.99	40.6781504307387	0	1	0	1	0	40.6781504307387	0
3	40.7322869387296	0	1	0	1	0	40.7322869387296	0
3.01	40.7872484566008	0	1	0	1	0	40.7872484566008	0
3.02	40.8430307248832	0	1	0	1	0	40.8430307248832	0
3.03	40.8996295403382	0	1	0	1	0	40.8996295403382	0
3.04	40.9570407550331	0	1	0	1	0	40.9570407550331	0
3.05	41.0152602754344	0	1	0	1	0	41.0152602754344	0
3.06	41.0742840615185	0	1	0	1	0	41.0742840615185	0
3.07	41.134108125901	0	1	0	1	0	41.134108125901	0
3.08	41.1947285329814	0	1	0	1	0	41.1947285329814	0
3.09	41.2561413981055	0	1	0	1	0	41.2561413981055	0
3.1	41.3183428867438	0	1	0	1	0	41.3183428867438	0
3.11	41.3813292136854	0	1	0	1	0	41.3813292136854	0
3.12	41.4450966422479	0	1	0	1	0	41.4450966422479	0
3.13	41.5096414835018	0	1	0	1	0	41.5096414835018	0
3.14	41.5749600955105	0	1	0	1	0	41.5749600955105	0
3.15	41.6410488825841	0	1	0	1	0	41.6410488825841	0
3.16	41.7079042945479	0	1	0	1	0	41.7079042945479	0
3.17	41.7755228260243	0	1	0	1	0	41.7755228260243	0
3.18	41.8439010157284	0	1	0	1	0	41.8439010157284	0
3.19	41.9130354457772	0	1	0	1	0	41.9130354457772	0
3.2	41.982922741011	0	1	0	1	0	41.982922741011	0
3.21	42.0535595683283	0	1	0	1	0	42.0535595683283	0
3.22	42.1249426360327	0	1	0	1	0	42.1249426360327	0
3.23	42.1970686931915	0	1	0	1	0	42.1970686931915	0
3.24	42.2699345290072	0	1	0	1	0	42.2699345290072	0
3.25	42.3435369722	0	1	0	1	0	42.3435369722	0
3.26	42.4178728904011	0	1	0	1	0	42.4178728904011	0
3.27	42.4929391895583	0	1	0	1	0	42.4929391895583	0
3.28	42.568732813352	0	1	0	1	0	42.568732813352	0
3.29	42.6452507426211	0	1	0	1	0	42.6452507426211	0
3.3	42.7224899948006	0	1	0	1	0	42.7224899948006	0
3.31	42.8004476233686	0	1	0	1	0	42.8004476233686	0
3.32	42.8791207173033	0	1	0	1	0	42.8791207173033	0
3.33	42.9585064005504	0	1	0	1	0	42.9585064005504	0
3.34	43.0386018314992	0	1	0	1	0	43.0386018314992	0
3.35	43.1194042024685	0	1	0	1	0	43.1194042024685	0
3.36	43.2009107392023	0	1	0	1	0	43.2009107392023	0
3.37	43.2831187003731	0	1	0	1	0	43.2831187003731	0
3.38	43.3660253770952	0	1	0	1	0	43.3660253770952	0
3.39	43.4496280924464	0	1	0	1	0	43.4496280924464	0
3.4	43.5339242009973	0	1	0	1	0	43.5339242009973	0
3.41	43.6189110883504	0	1	0	1	0	43.6189110883504	0
3.42	43.7045861706855	0	1	0	1	0	43.7045861706855	0
3.43	43.7909468943146	0	1	0	1	0	43.7909468943146	0
3.44	43.877990735244	0	1	0	1	0	43.877990735244	0
3.45	43.9657151987432	0	1	0	1	0	43.9657151987432	0
3.46	44.0541178189229	0	1	0	1	0	44.0541178189229	0
3.47	44.1431961583188	0	1	0	1	0	44.1431961583188	0
3.48	44.2329478074837	0	1	0	1	0	44.2329478074837	0
3.49	44.3233703845856	0	1	0	1	0	44.3233703845856	0
3.5	44.4144615350134	0	1	0	1	0	44.4144615350134	0
3.51	44.5062189309895	0	1	0	1	0	44.5062189309895	0
3.52	44.5986402711879	0	1	0	1	0	44.5986402711879	0
3.53	44.6917232803604	0	1	0	1	0	44.6917232803604	0
3.54	44.7854657089673	0	1	0	1	0	44.7854657089673	0
3.55	44.8798653328163	0	1	0	1	0	44.8798653328163	0
3.56	44.9749199527058	0	1	0	1	0	44.9749199527058	0
3.57	45.0706273940751	0	1	0	1	0	45.0706273940751	0
3.58	45.1669855066603	0	1	0	1	0	45.1669855066603	0
3.59	45.2639921641559	0	1	0	1	0	45.2639921641559	0
3.6	45.361645263882	0	1	0	1	0	45.361645263882	0
3.61	45.459942726457	0	1	0	1	0	45.459942726457	0
3.62	45.5588824954762	0	1	0	1	0	45.5588824954762	0
3.63	45.6584625371946	0	1	0	1	0	45.6584625371946	0
3.64	45.7586808402163	0	1	0	1	0	45.7586808402163	0
3.65	45.8595354151881	0	1	0	1	0	45.8595354151881	0
3.66	45.9610242944981	0	1	0	1	0	45.9610242944981	0
3.67	46.0631455319802	0	1	0	1	0	46.0631455319802	0
3.68	46.1658972026218	0	1	0	1	0	46.1658972026218	0
3.69	46.2692774022781	0	1	0	1	0	46.2692774022781	0
3.7	46.3732842473892	0	1	0	1	0	46.3732842473892	0
3.71	46.4779158747036	0	1	0	1	0	46.4779158747036	0
3.72	46.5831704410043	0	1	0	1	0	46.5831704410043	0
3.73	46.6890461228411	0	1	0	1	0	46.6890461228411	0
3.74	46.7955411162656	0	1	0	1	0	46.7955411162656	0
3.75	46.9026536365718	0	1	0	1	0	46.9026536365718	0
3.76	47.0103819180398	0	1	0	1	0	47.0103819180398	0
3.77	47.118724213684	0	1	0	1	0	47.118724213684	0
3.78	47.2276787950057	0	1	0	1	0	47.2276787950057	0
3.79	47.3372439517488	0	1	0	1	0	47.3372439517488	0
3.8	47.4474179916598	0	1	0	1	0	47.4474179916598	0
3.81	47.5581992402517	0	1	0	1	0	47.5581992402517	0
3.82	47.6695860405715	0	1	0	1	0	47.6695860405715	0
3.83	47.7815767529711	0	1	0	1	0	47.7815767529711	0
3.84	47.8941697548821	0	1	0	1	0	47.8941697548821	0
3.85	48.0073634405939	0	1	0	1	0	48.0073634405939	0
3.86	48.1211562210354	0	1	0	1	0	48.1211562210354	0
3.87	48.2355465235601	0	1	0	1	0	48.2355465235601	0
3.88	48.3505327917342	0	1	0	1	0	48.3505327917342	0
3.89	48.4661134851285	0	1	0	1	0	48.4661134851285	0
3.9	48.582287079113	0	1	0	1	0	48.582287079113	0
3.91	48.699052064655	0	1	0	1	0	48.699052064655	0
3.92	48.8164069481199	0	1	0	1	0	48.8164069481199	0
3.93	48.9343502510758	0	1	0	1	0	48.9343502510758	0
3.94	49.0528805101	0	1	0	1	0	49.0528805101	0
3.95	49.1719962765894	0	1	0	1	0	49.1719962765894	0
3.96	49.2916961165731	0	1	0	1	0	49.2916961165731	0
3.97	49.4119786105286	0	1	0	1	0	49.4119786105286	0
3.98	49.5328423531997	0	1	0	1	0	49.5328423531997	0
3.99	49.6542859534179	0	1	0	1	0	49.6542859534179	0
4	49.7763080339266	0	1	0	1	0	49.7763080339266	0
4.01	49.8989072312073	0	1	0	1	0	49.8989072312073	0
4.02	50.0220821953089	0	1	0	1	0	50.0220821953089	0
4.03	50.1458315896793	0	1	0	1	0	50.1458315896793	0
4.04	50.2701540909996	0	1	0	1	0	50.2701540909996	0
4.05	50.3950483890207	0	1	0	1	0	50.3950483890207	0
4.06	50.5205131864023	0	1	0	1	0	50.5205131864023	0
4.07	50.6465471985545	0	1	0	1	0	50.6465471985545	0
4.08	50.7731491534814	0	1	0	1	0	50.7731491534814	0
4.09	50.9003177916271	0	1	0	1	0	50.9003177916271	0
4.1	51.028051865724	0	1	0	1	0	51.028051865724	0
4.11	51.1563501406434	0	1	0	1	0	51.1563501406434	0
4.12	51.2852113932482	0	1	0	1	0	51.2852113932482	0
4.13	51.4146344122477	0	1	0	1	0	51.4146344122477	0
4.14	51.5446179980544	0	1	0	1	0	51.5446179980544	0
4.15	51.675160962643	0	1	0	1	0	51.675160962643	0
4.16	51.8062621294117	0	1	0	1	0	51.8062621294117	0
4.17	51.9379203330449	0	1	0	1	0	51.9379203330449	0
4.18	52.0701344193785	0	1	0	1	0	52.0701344193785	0
4.19	52.2029032452666	0	1	0	1	0	52.2029032452666	0
4.2	52.3362256784504	0	1	0	1	0	52.3362256784504	0
4.21	52.4701005974289	0	1	0	1	0	52.4701005974289	0
4.22	52.6045268913314	0	1	0	1	0	52.6045268913314	0
4.23	52.7395034597919	0	1	0	1	0	52.7395034597919	0
4.24	52.8750292128253	0	1	0	1	0	52.8750292128253	0
4.25	53.0111030707052	0	1	0	1	0	53.0111030707052	0
4.26	53.1477239638432	0	1	0	1	0	53.1477239638432	0
4.27	53.2848908326708	0	1	0	1	0	53.2848908326708	0
4.28	53.4226026275219	0	1	0	1	0	53.4226026275219	0
4.29	53.5608583085174	0	1	0	1	0	53.5608583085174	0
4.3	53.6996568454516	0	1	0	1	0	53.6996568454516	0
4.31	53.8389972176798	0	1	0	1	0	53.8389972176798	0
4.32	53.9788784140078	0	1	0	1	0	53.9788784140078	0
4.33	54.1192994325825	0	1	0	1	0	54.1192994325825	0
4.34	54.2602592807848	0	1	0	1	0	54.2602592807848	0
4.35	54.4017569751229	0	1	0	1	0	54.4017569751229	0
4.36	54.5437915411278	0	1	0	1	0	54.5437915411278	0
4.37	54.6863620132503	0	1	0	1	0	54.6863620132503	0
4.38	54.8294674347588	0	1	0	1	0	54.8294674347588	0
4.39	54.9731068576394	0	1	0	1	0	54.9731068576394	0
4.4	55.1172793424962	0	1	0	1	0	55.1172793424962	0
4.41	55.261983958454	0	1	0	1	0	55.261983958454	0
4.42	55.4072197830618	0	1	0	1	0	55.4072197830618	0
4.43	55.5529859021977	0	1	0	1	0	55.5529859021977	0
4.44	55.6992814099753	0	1	0	1	0	55.6992814099753	0
4.45	55.8461054086508	0	1	0	1	0	55.8461054086508	0
4.46	55.993457008532	0	1	0	1	0	55.993457008532	0
4.47	56.1413353278881	0	1	0	1	0	56.1413353278881	0
4.48	56.2897394928609	0	1	0	1	0	56.2897394928609	0
4.49	56.4386686373773	0	1	0	1	0	56.4386686373773	0
4.5	56.5881219030624	0	1	0	1	0	56.5881219030624	0
4.51	56.7380984391545	0	1	0	1	0	56.7380984391545	0
4.52	56.8885974024207	0	1	0	1	0	56.8885974024207	0
4.53	57.039617957074	0	1	0	1	0	57.039617957074	0
4.54	57.1911592746909	0	1	0	1	0	57.1911592746909	0
4.55	57.343220534131	0	1	0	1	0	57.343220534131	0
4.56	57.4958009214568	0	1	0	1	0	57.4958009214568	0
4.57	57.648899629855	0	1	0	1	0	57.648899629855	0
4.58	57.8025158595586	0	1	0	1	0	57.8025158595586	0
4.59	57.9566488177704	0	1	0	1	0	57.9566488177704	0
4.6	58.1112977185869	0	1	0	1	0	58.1112977185869	0
4.61	58.266461782924	0	1	0	1	0	58.266461782924	0
4.62	58.4221402384426	0	1	0	1	0	58.4221402384426	0
4.63	58.5783323194762	0	1	0	1	0	58.5783323194762	0
4.64	58.7350372669591	0	1	0	1	0	58.7350372669591	0
4.65	58.8922543283548	0	1	0	1	0	58.8922543283548	0
4.66	59.0499827575867	0	1	0	1	0	59.0499827575867	0
4.67	59.2082218149682	0	1	0	1	0	59.2082218149682	0
4.68	59.3669707671352	0	1	0	1	0	59.3669707671352	0
4.69	59.5262288869781	0	1	0	1	0	59.5262288869781	0
4.7	59.6859954535755	0	1	0	1	0	59.6859954535755	0
4.71	59.8462697521284	0	1	0	1	0	59.8462697521284	0
4.72	60.0070510738955	0	1	0	1	0	60.0070510738955	0
4.73	60.1683387161291	0	1	0	1	0	60.1683387161291	0
4.74	60.3301319820118	0	1	0	1	0	60.3301319820118	0
4.75	60.4924301805942	0	1	0	1	0	60.4924301805942	0
4.76	60.6552326267331	0	1	0	1	0	60.6552326267331	0
4.77	60.8185386410309	0	1	0	1	0	60.8185386410309	0
4.78	60.9823475497752	0	1	0	1	0	60.9823475497752	0
4.79	61.1466586848796	0	1	0	1	0	61.1466586848796	0
4.8	61.3114713838252	0	1	0	1	0	61.3114713838252	0
4.81	61.4767849896024	0	1	0	1	0	61.4767849896024	0
4.82	61.6425988506541	0	1	0	1	0	61.6425988506541	0
4.83	61.8089123208191	0	1	0	1	0	61.8089123208191	0
4.84	61.9757247592765	0	1	0	1	0	61.9757247592765	0
4.85	62.1430355304903	0	1	0	1	0	62.1430355304903	0
4.86	62.3108440041554	0	1	0	1	0	62.3108440041554	0
4.87	62.4791495551437	0	1	0	1	0	62.4791495551437	0
4.88	62.6479515634511	0	1	0	1	0	62.6479515634511	0
4.89	62.817249414145	0	1	0	1	0	62.817249414145	0
4.9	62.9870424973128	0	1	0	1	0	62.9870424973128	0
4.91	63.1573302080107	0	1	0	1	0	63.1573302080107	0
4.92	63.3281119462129	0	1	0	1	0	63.3281119462129	0
4.93	63.4993871167622	0	1	0	1	0	63.4993871167622	0
