# GHZ S RI R 50
1	63.8678441310611	0	1	0	1	0	63.8678441310611	0
1.01	63.3374128820383	0	1	0	1	0	63.3374128820383	0
1.02	62.8188040250091	0	1	0	1	0	62.8188040250091	0
1.03	62.3116871588115	0	1	0	1	0	62.3116871588115	0
1.04	61.8157445900205	0	1	0	1	0	61.8157445900205	0
1.05	61.3306707278177	0	1	0	1	0	61.3306707278177	0
1.06	60.8561715131137	0	1	0	1	0	60.8561715131137	0
1.07	60.3919638796823	0	1	0	1	0	60.3919638796823	0
1.08	59.9377752452316	0	1	0	1	0	59.9377752452316	0
1.09	59.4933430304895	0	1	0	1	0	59.4933430304895	0
1.1	59.0584142045212	0	1	0	1	0	59.0584142045212	0
1.11	58.6327448546237	0	1	0	1	0	58.6327448546237	0
1.12	58.216099779262	0	1	0	1	0	58.216099779262	0
1.13	57.808252102619	0	1	0	1	0	57.808252102619	0
1.14	57.4089829094329	0	1	0	1	0	57.4089829094329	0
1.15	57.0180808988855	0	1	0	1	0	57.0180808988855	0
1.16	56.6353420563938	0	1	0	1	0	56.6353420563938	0
1.17	56.2605693422324	0	1	0	1	0	56.2605693422324	0
1.18	55.8935723959886	0	1	0	1	0	55.8935723959886	0
1.19	55.534167255919	0	1	0	1	0	55.534167255919	0
1.2	55.1821760923384	0	1	0	1	0	55.1821760923384	0
1.21	54.8374269542286	0	1	0	1	0	54.8374269542286	0
1.22	54.4997535283102	0	1	0	1	0	54.4997535283102	0
1.23	54.1689949098652	0	1	0	1	0	54.1689949098652	0
1.24	53.8449953846507	0	1	0	1	0	53.8449953846507	0
1.25	53.5276042212795	0	1	0	1	0	53.5276042212795	0
1.26	53.2166754734878	0	1	0	1	0	53.2166754734878	0
1.27	52.9120677917445	0	1	0	1	0	52.9120677917445	0
1.28	52.6136442436914	0	1	0	1	0	52.6136442436914	0
1.29	52.3212721429348	0	1	0	1	0	52.3212721429348	0
1.3	52.0348228857393	0	1	0	1	0	52.0348228857393	0
1.31	51.7541717952012	0	1	0	1	0	51.7541717952012	0
1.32	51.4791979725046	0	1	0	1	0	51.4791979725046	0
1.33	51.2097841548885	0	1	0	1	0	51.2097841548885	0
1.34	50.9458165799727	0	1	0	1	0	50.9458165799727	0
1.35	50.6871848561139	0	1	0	1	0	50.6871848561139	0
1.36	50.4337818384823	0	1	0	1	0	50.4337818384823	0
1.37	50.1855035105641	0	1	0	1	0	50.1855035105641	0
1.38	49.9422488708168	0	1	0	1	0	49.9422488708168	0
1.39	49.7039198242173	0	1	0	1	0	49.7039198242173	0
1.4	49.4704210784574	0	1	0	1	0	49.4704210784574	0
1.41	49.2416600445566	0	1	0	1	0	49.2416600445566	0
1.42	49.0175467416749	0	1	0	1	0	49.0175467416749	0
1.43	48.797993705919	0	1	0	1	0	48.797993705919	0
1.44	48.5829159029478	0	1	0	1	0	48.5829159029478	0
1.45	48.3722306441954	0	1	0	1	0	48.3722306441954	0
1.46	48.165857506536	0	1	0	1	0	48.165857506536	0
1.47	47.9637182552283	0	1	0	1	0	47.9637182552283	0
1.48	47.7657367699832	0	1	0	1	0	47.7657367699832	0
1.49	47.5718389740095	0	1	0	1	0	47.5718389740095	0
1.5	47.3819527658971	0	1	0	1	0	47.3819527658971	0
1.51	47.1960079542068	0	1	0	1	0	47.1960079542068	0
1.52	47.0139361946429	0	1	0	1	0	47.0139361946429	0
1.53	46.8356709296883	0	1	0	1	0	46.8356709296883	0
1.54	46.6611473305929	0	1	0	1	0	46.6611473305929	0
1.55	46.4903022416063	0	1	0	1	0	46.4903022416063	0
1.56	46.3230741263567	0	1	0	1	0	46.3230741263567	0
1.57	46.1594030162775	0	1	0	1	0	46.1594030162775	0
1.58	45.9992304609941	0	1	0	1	0	45.9992304609941	0
1.59	45.8424994805811	0	1	0	1	0	45.8424994805811	0
1.6	45.6891545196117	0	1	0	1	0	45.6891545196117	0
1.61	45.5391414029179	0	1	0	1	0	45.5391414029179	0
1.62	45.3924072929902	0	1	0	1	0	45.3924072929902	0
1.63	45.2489006489451	0	1	0	1	0	45.2489006489451	0
1.64	45.1085711869938	0	1	0	1	0	45.1085711869938	0
1.65	44.9713698423486	0	1	0	1	0	44.9713698423486	0
1.66	44.8372487325056	0	1	0	1	0	44.8372487325056	0
1.67	44.7061611218474	0	1	0	1	0	44.7061611218474	0
1.68	44.5780613875092	0	1	0	1	0	44.5780613875092	0
1.69	44.4529049864577	0	1	0	1	0	44.4529049864577	0
1.7	44.3306484237305	0	1	0	1	0	44.3306484237305	0
1.71	44.2112492217915	0	1	0	1	0	44.2112492217915	0
1.72	44.0946658909543	0	1	0	1	0	44.0946658909543	0
1.73	43.9808579008314	0	1	0	1	0	43.9808579008314	0
1.74	43.8697856527686	0	1	0	1	0	43.8697856527686	0
1.75	43.7614104532236	0	1	0	1	0	43.7614104532236	0
1.76	43.6556944880529	0	1	0	1	0	43.6556944880529	0
1.77	43.5526007976698	0	1	0	1	0	43.5526007976698	0
1.78	43.4520932530403	0	1	0	1	0	43.4520932530403	0
1.79	43.3541365324829	0	1	0	1	0	43.3541365324829	0
1.8	43.2586960992424	0	1	0	1	0	43.2586960992424	0
1.81	43.1657381798071	0	1	0	1	0	43.1657381798071	0
1.82	43.0752297429398	0	1	0	1	0	43.0752297429398	0
1.83	42.987138479398	0	1	0	1	0	42.987138479398	0
1.84	42.9014327823137	0	1	0	1	0	42.9014327823137	0
1.85	42.8180817282108	0	1	0	1	0	42.8180817282108	0
1.86	42.7370550586342	0	1	0	1	0	42.7370550586342	0
1.87	42.6583231623684	0	1	0	1	0	42.6583231623684	0
1.88	42.5818570582239	0	1	0	1	0	42.5818570582239	0
1.89	42.5076283783696	0	1	0	1	0	42.5076283783696	0
1.9	42.4356093521919	0	1	0	1	0	42.4356093521919	0
1.91	42.3657727906607	0	1	0	1	0	42.3657727906607	0
1.92	42.2980920711842	0	1	0	1	0	42.2980920711842	0
1.93	42.2325411229339	0	1	0	1	0	42.2325411229339	0
1.94	42.1690944126243	0	1	0	1	0	42.1690944126243	0
1.95	42.1077269307298	0	1	0	1	0	42.1077269307298	0
1.96	42.0484141781228	0	1	0	1	0	42.0484141781228	0
1.97	41.9911321531204	0	1	0	1	0	41.9911321531204	0
1.98	41.9358573389218	0	1	0	1	0	41.9358573389218	0
1.99	41.8825666914261	0	1	0	1	0	41.8825666914261	0
2	41.831237627414	0	1	0	1	0	41.831237627414	0
2.01	41.7818480130839	0	1	0	1	0	41.7818480130839	0
2.02	41.7343761529269	0	1	0	1	0	41.7343761529269	0
2.03	41.6888007789322	0	1	0	1	0	41.6888007789322	0
2.04	41.6451010401085	0	1	0	1	0	41.6451010401085	0
2.05	41.6032564923134	0	1	0	1	0	41.6032564923134	0
2.06	41.5632470883778	0	1	0	1	0	41.5632470883778	0
2.07	41.5250531685179	0	1	0	1	0	41.5250531685179	0
2.08	41.4886554510223	0	1	0	1	0	41.4886554510223	0
2.09	41.4540350232078	0	1	0	1	0	41.4540350232078	0
2.1	41.4211733326328	0	1	0	1	0	41.4211733326328	0
2.11	41.3900521785605	0	1	0	1	0	41.3900521785605	0
2.12	41.3606537036645	0	1	0	1	0	41.3606537036645	0
2.13	41.3329603859672	0	1	0	1	0	41.3329603859672	0
2.14	41.3069550310044	0	1	0	1	0	41.3069550310044	0
2.15	41.2826207642093	0	1	0	1	0	41.2826207642093	0
2.16	41.2599410235066	0	1	0	1	0	41.2599410235066	0
2.17	41.2388995521131	0	1	0	1	0	41.2388995521131	0
2.18	41.219480391535	0	1	0	1	0	41.219480391535	0
2.19	41.2016678747578	0	1	0	1	0	41.2016678747578	0
2.2	41.1854466196221	0	1	0	1	0	41.1854466196221	0
2.21	41.1708015223783	0	1	0	1	0	41.1708015223783	0
2.22	41.1577177514165	0	1	0	1	0	41.1577177514165	0
2.23	41.1461807411648	0	1	0	1	0	41.1461807411648	0
2.24	41.1361761861507	0	1	0	1	0	41.1361761861507	0
2.25	41.1276900352211	0	1	0	1	0	41.1276900352211	0
2.26	41.1207084859161	0	1	0	1	0	41.1207084859161	0
2.27	41.1152179789908	0	1	0	1	0	41.1152179789908	0
2.28	41.1112051930819	0	1	0	1	0	41.1112051930819	0
2.29	41.1086570395134	0	1	0	1	0	41.1086570395134	0
2.3	41.1075606572389	0	1	0	1	0	41.1075606572389	0
2.31	41.1079034079136	0	1	0	1	0	41.1079034079136	0
2.32	41.1096728710956	0	1	0	1	0	41.1096728710956	0
2.33	41.1128568395693	0	1	0	1	0	41.1128568395693	0
2.34	41.1174433147894	0	1	0	1	0	41.1174433147894	0
2.35	41.1234205024413	0	1	0	1	0	41.1234205024413	0
2.36	41.1307768081139	0	1	0	1	0	41.1307768081139	0
2.37	41.1395008330824	0	1	0	1	0	41.1395008330824	0
2.38	41.1495813701973	0	1	0	1	0	41.1495813701973	0
2.39	41.1610073998764	0	1	0	1	0	41.1610073998764	0
2.4	41.1737680861971	0	1	0	1	0	41.1737680861971	0
2.41	41.1878527730863	0	1	0	1	0	41.1878527730863	0
2.42	41.2032509806042	0	1	0	1	0	41.2032509806042	0
2.43	41.2199524013205	0	1	0	1	0	41.2199524013205	0
2.44	41.2379468967789	0	1	0	1	0	41.2379468967789	0
2.45	41.257224494049	0	1	0	1	0	41.257224494049	0
2.46	41.2777753823621	0	1	0	1	0	41.2777753823621	0
2.47	41.2995899098281	0	1	0	1	0	41.2995899098281	0
2.48	41.3226585802326	0	1	0	1	0	41.3226585802326	0
2.49	41.3469720499107	0	1	0	1	0	41.3469720499107	0
2.5	41.3725211246965	0	1	0	1	0	41.3725211246965	0
2.51	41.3992967569443	0	1	0	1	0	41.3992967569443	0
2.52	41.4272900426221	0	1	0	1	0	41.4272900426221	0
2.53	41.4564922184728	0	1	0	1	0	41.4564922184728	0
2.54	41.4868946592437	0	1	0	1	0	41.4868946592437	0
2.55	41.51848887498	0	1	0	1	0	41.51848887498	0
2.56	41.5512665083823	0	1	0	1	0	41.5512665083823	0
2.57	41.5852193322263	0	1	0	1	0	41.5852193322263	0
2.58	41.6203392468411	0	1	0	1	0	41.6203392468411	0
2.59	41.6566182776476	0	1	0	1	0	41.6566182776476	0
2.6	41.6940485727523	0	1	0	1	0	41.6940485727523	0
2.61	41.7326224005974	0	1	0	1	0	41.7326224005974	0
2.62	41.7723321476641	0	1	0	1	0	41.7723321476641	0
2.63	41.8131703162285	0	1	0	1	0	41.8131703162285	0
2.64	41.8551295221686	0	1	0	1	0	41.8551295221686	0
2.65	41.8982024928208	0	1	0	1	0	41.8982024928208	0
2.66	41.9423820648851	0	1	0	1	0	41.9423820648851	0
2.67	41.9876611823766	0	1	0	1	0	41.9876611823766	0
2.68	42.0340328946237	0	1	0	1	0	42.0340328946237	0
2.69	42.0814903543104	0	1	0	1	0	42.0814903543104	0
2.7	42.1300268155627	0	1	0	1	0	42.1300268155627	0
2.71	42.1796356320764	0	1	0	1	0	42.1796356320764	0
2.72	42.2303102552871	0	1	0	1	0	42.2303102552871	0
2.73	42.2820442325804	0	1	0	1	0	42.2820442325804	0
2.74	42.3348312055402	0	1	0	1	0	42.3348312055402	0
2.75	42.3886649082367	0	1	0	1	0	42.3886649082367	0
2.76	42.4435391655506	0	1	0	1	0	42.4435391655506	0
2.77	42.499447891534	0	1	0	1	0	42.499447891534	0
2.78	42.5563850878067	0	1	0	1	0	42.5563850878067	0
2.79	42.6143448419867	0	1	0	1	0	42.6143448419867	0
2.8	42.6733213261545	0	1	0	1	0	42.6733213261545	0
2.81	42.7333087953505	0	1	0	1	0	42.7333087953505	0
2.82	42.7943015861038	0	1	0	1	0	42.7943015861038	0
2.83	42.8562941149925	0	1	0	1	0	42.8562941149925	0
2.84	42.9192808772346	0	1	0	1	0	42.9192808772346	0
2.85	42.9832564453079	0	1	0	1	0	42.9832564453079	0
2.86	43.0482154676	0	1	0	1	0	43.0482154676	0
2.87	43.1141526670852	0	1	0	1	0	43.1141526670852	0
2.88	43.1810628400297	0	1	0	1	0	43.1810628400297	0
2.89	43.2489408547241	0	1	0	1	0	43.2489408547241	0
2.9	43.3177816502408	0	1	0	1	0	43.3177816502408	0
2.91	43.3875802352184	0	1	0	1	0	43.3875802352184	0
2.92	43.4583316866702	0	1	0	1	0	43.4583316866702	0
2.93	43.5300311488177	0	1	0	1	0	43.5300311488177	0
2.94	43.6026738319473	0	1	0	1	0	43.6026738319473	0
2.95	43.6762550112907	0	1	0	1	0	43.6762550112907	0
2.96	43.7507700259276	0	1	0	1	0	43.7507700259276	0
2.97	43.8262142777115	0	1	0	1	0	43.8262142777115	0
2.98	43.9025832302155	0	1	0	1	0	43.9025832302155	0
2.99	43.9798724077011	0	1	0	1	0	43.9798724077011	0
3	44.0580773941059	0	1	0	1	0	44.0580773941059	0
3.01	44.1371938320532	0	1	0	1	0	44.1371938320532	0
3.02	44.2172174218793	0	1	0	1	0	44.2172174218793	0
3.03	44.2981439206824	0	1	0	1	0	44.2981439206824	0
3.04	44.3799691413878	0	1	0	1	0	44.3799691413878	0
3.05	44.4626889518335	0	1	0	1	0	44.4626889518335	0
3.06	44.5462992738728	0	1	0	1	0	44.5462992738728	0
3.07	44.6307960824942	0	1	0	1	0	44.6307960824942	0
3.08	44.7161754049592	0	1	0	1	0	44.7161754049592	0
3.09	44.8024333199565	0	1	0	1	0	44.8024333199565	0
3.1	44.889565956772	0	1	0	1	0	44.889565956772	0
3.11	44.9775694944761	0	1	0	1	0	44.9775694944761	0
3.12	45.0664401611251	0	1	0	1	0	45.0664401611251	0
3.13	45.1561742329794	0	1	0	1	0	45.1561742329794	0
3.14	45.2467680337354	0	1	0	1	0	45.2467680337354	0
3.15	45.3382179337726	0	1	0	1	0	45.3382179337726	0
3.16	45.4305203494153	0	1	0	1	0	45.4305203494153	0
3.17	45.5236717422076	0	1	0	1	0	45.5236717422076	0
3.18	45.6176686182025	0	1	0	1	0	45.6176686182025	0
3.19	45.712507527264	0	1	0	1	0	45.712507527264	0
3.2	45.8081850623832	0	1	0	1	0	45.8081850623832	0
3.21	45.9046978590059	0	1	0	1	0	45.9046978590059	0
3.22	46.0020425943737	0	1	0	1	0	46.0020425943737	0
3.23	46.1002159868767	0	1	0	1	0	46.1002159868767	0
3.24	46.1992147954191	0	1	0	1	0	46.1992147954191	0
3.25	46.299035818795	0	1	0	1	0	46.299035818795	0
3.26	46.3996758950776	0	1	0	1	0	46.3996758950776	0
3.27	46.5011319010178	0	1	0	1	0	46.5011319010178	0
3.28	46.603400751455	0	1	0	1	0	46.603400751455	0
3.29	46.7064793987381	0	1	0	1	0	46.7064793987381	0
3.3	46.8103648321573	0	1	0	1	0	46.8103648321573	0
3.31	46.9150540773859	0	1	0	1	0	46.9150540773859	0
3.32	47.0205441959325	0	1	0	1	0	47.0205441959325	0
3.33	47.1268322846031	0	1	0	1	0	47.1268322846031	0
3.34	47.2339154749721	0	1	0	1	0	47.2339154749721	0
3.35	47.341790932864	0	1	0	1	0	47.341790932864	0
3.36	47.4504558578436	0	1	0	1	0	47.4504558578436	0
3.37	47.5599074827149	0	1	0	1	0	47.5599074827149	0
3.38	47.6701430730302	0	1	0	1	0	47.6701430730302	0
3.39	47.7811599266064	0	1	0	1	0	47.7811599266064	0
3.4	47.8929553730509	0	1	0	1	0	47.8929553730509	0
3.41	48.0055267732953	0	1	0	1	0	48.0055267732953	0
3.42	48.1188715191376	0	1	0	1	0	48.1188715191376	0
3.43	48.232987032792	0	1	0	1	0	48.232987032792	0
3.44	48.3478707664471	0	1	0	1	0	48.3478707664471	0
3.45	48.4635202018312	0	1	0	1	0	48.4635202018312	0
3.46	48.5799328497856	0	1	0	1	0	48.5799328497856	0
3.47	48.6971062498452	0	1	0	1	0	48.6971062498452	0
3.48	48.815037969826	0	1	0	1	0	48.815037969826	0
3.49	48.9337256054201	0	1	0	1	0	48.9337256054201	0
3.5	49.0531667797973	0	1	0	1	0	49.0531667797973	0
3.51	49.1733591432138	0	1	0	1	0	49.1733591432138	0
3.52	49.2943003726275	0	1	0	1	0	49.2943003726275	0
3.53	49.4159881713198	0	1	0	1	0	49.4159881713198	0
3.54	49.5384202685235	0	1	0	1	0	49.5384202685235	0
3.55	49.6615944190577	0	1	0	1	0	49.6615944190577	0
3.56	49.7855084029681	0	1	0	1	0	49.7855084029681	0
3.57	49.910160025174	0	1	0	1	0	49.910160025174	0
3.58	50.0355471151207	0	1	0	1	0	50.0355471151207	0
3.59	50.1616675264378	0	1	0	1	0	50.1616675264378	0
3.6	50.2885191366036	0	1	0	1	0	50.2885191366036	0
3.61	50.4160998466147	0	1	0	1	0	50.4160998466147	0
3.62	50.544407580661	0	1	0	1	0	50.544407580661	0
3.63	50.6734402858063	0	1	0	1	0	50.6734402858063	0
3.64	50.8031959316742	0	1	0	1	0	50.8031959316742	0
3.65	50.9336725101392	0	1	0	1	0	50.9336725101392	0
3.66	51.0648680350221	0	1	0	1	0	51.0648680350221	0
3.67	51.1967805417918	0	1	0	1	0	51.1967805417918	0
3.68	51.3294080872706	0	1	0	1	0	51.3294080872706	0
3.69	51.4627487493452	0	1	0	1	0	51.4627487493452	0
3.7	51.5968006266818	0	1	0	1	0	51.5968006266818	0
3.71	51.7315618384461	0	1	0	1	0	51.7315618384461	0
3.72	51.8670305240279	0	1	0	1	0	51.8670305240279	0
3.73	52.00320484277	0	1	0	1	0	52.00320484277	0
3.74	52.1400829737014	0	1	0	1	0	52.1400829737014	0
3.75	52.2776631152745	0	1	0	1	0	52.2776631152745	0
3.76	52.4159434851073	0	1	0	1	0	52.4159434851073	0
3.77	52.5549223197292	0	1	0	1	0	52.5549223197292	0
3.78	52.6945978743303	0	1	0	1	0	52.6945978743303	0
3.79	52.8349684225158	0	1	0	1	0	52.8349684225158	0
3.8	52.9760322560634	0	1	0	1	0	52.9760322560634	0
3.81	53.117787684685	0	1	0	1	0	53.117787684685	0
3.82	53.2602330357917	0	1	0	1	0	53.2602330357917	0
3.83	53.403366654263	0	1	0	1	0	53.403366654263	0
3.84	53.5471869022192	0	1	0	1	0	53.5471869022192	0
3.85	53.6916921587975	0	1	0	1	0	53.6916921587975	0
3.86	53.8368808199317	0	1	0	1	0	53.8368808199317	0
3.87	53.982751298135	0	1	0	1	0	53.982751298135	0
3.88	54.1293020222864	0	1	0	1	0	54.1293020222864	0
3.89	54.2765314374206	0	1	0	1	0	54.2765314374206	0
3.9	54.4244380045205	0	1	0	1	0	54.4244380045205	0
3.91	54.5730202003135	0	1	0	1	0	54.5730202003135	0
3.92	54.7222765170703	0	1	0	1	0	54.7222765170703	0
3.93	54.872205462408	0	1	0	1	0	54.872205462408	0
3.94	55.0228055590943	0	1	0	1	0	55.0228055590943	0
3.95	55.1740753448565	0	1	0	1	0	55.1740753448565	0
3.96	55.3260133721921	0	1	0	1	0	55.3260133721921	0
3.97	55.4786182081833	0	1	0	1	0	55.4786182081833	0
3.98	55.6318884343132	0	1	0	1	0	55.6318884343132	0
3.99	55.7858226462858	0	1	0	1	0	55.7858226462858	0
4	55.940419453848	0	1	0	1	0	55.940419453848	0
4.01	56.0956774806145	0	1	0	1	0	56.0956774806145	0
4.02	56.2515953638956	0	1	0	1	0	56.2515953638956	0
4.03	56.4081717545268	0	1	0	1	0	56.4081717545268	0
4.04	56.5654053167017	0	1	0	1	0	56.5654053167017	0
4.05	56.7232947278072	0	1	0	1	0	56.7232947278072	0
4.06	56.8818386782608	0	1	0	1	0	56.8818386782608	0
4.07	57.0410358713505	0	1	0	1	0	57.0410358713505	0
4.08	57.2008850230773	0	1	0	1	0	57.2008850230773	0
4.09	57.3613848619996	0	1	0	1	0	57.3613848619996	0
4.1	57.52253412908	0	1	0	1	0	57.52253412908	0
4.11	57.6843315775347	0	1	0	1	0	57.6843315775347	0
4.12	57.8467759726844	0	1	0	1	0	57.8467759726844	0
4.13	58.009866091808	0	1	0	1	0	58.009866091808	0
4.14	58.1736007239984	0	1	0	1	0	58.1736007239984	0
4.15	58.3379786700195	0	1	0	1	0	58.3379786700195	0
4.16	58.5029987421665	0	1	0	1	0	58.5029987421665	0
4.17	58.6686597641275	0	1	0	1	0	58.6686597641275	0
4.18	58.834960570847	0	1	0	1	0	58.834960570847	0
4.19	59.001900008392	0	1	0	1	0	59.001900008392	0
4.2	59.1694769338192	0	1	0	1	0	59.1694769338192	0
4.21	59.3376902150445	0	1	0	1	0	59.3376902150445	0
4.22	59.5065387307146	0	1	0	1	0	59.5065387307146	0
4.23	59.67602137008	0	1	0	1	0	59.67602137008	0
4.24	59.84613703287	0	1	0	1	0	59.84613703287	0
4.25	60.0168846291693	0	1	0	1	0	60.0168846291693	0
4.26	60.1882630792967	0	1	0	1	0	60.1882630792967	0
4.27	60.3602713136848	0	1	0	1	0	60.3602713136848	0
4.28	60.5329082727625	0	1	0	1	0	60.5329082727625	0
4.29	60.706172906838	0	1	0	1	0	60.706172906838	0
4.3	60.880064175984	0	1	0	1	0	60.880064175984	0
4.31	61.0545810499247	0	1	0	1	0	61.0545810499247	0
4.32	61.2297225079236	0	1	0	1	0	61.2297225079236	0
4.33	61.405487538674	0	1	0	1	0	61.405487538674	0
4.34	61.5818751401897	0	1	0	1	0	61.5818751401897	0
4.35	61.7588843196983	0	1	0	1	0	61.7588843196983	0
4.36	61.9365140935354	0	1	0	1	0	61.9365140935354	0
4.37	62.1147634870403	0	1	0	1	0	62.1147634870403	0
4.38	62.2936315344535	0	1	0	1	0	62.2936315344535	0
4.39	62.4731172788148	0	1	0	1	0	62.4731172788148	0
4.4	62.6532197718641	0	1	0	1	0	62.6532197718641	0
4.41	62.8339380739419	0	1	0	1	0	62.8339380739419	0
4.42	63.0152712538926	0	1	0	1	0	63.0152712538926	0
4.43	63.1972183889682	0	1	0	1	0	63.1972183889682	0
4.44	63.3797785647339	0	1	0	1	0	63.3797785647339	0
4.45	63.5629508749745	0	1	0	1	0	63.5629508749745	0
4.46	63.7467344216022	0	1	0	1	0	63.7467344216022	0
4.47	63.9311283145659	0	1	0	1	0	63.9311283145659	0
4.48	64.1161316717612	0	1	0	1	0	64.1161316717612	0
4.49	64.3017436189423	0	1	0	1	0	64.3017436189423	0
4.5	64.4879632896344	0	1	0	1	0	64.4879632896344	0
4.51	64.6747898250475	0	1	0	1	0	64.6747898250475	0
4.52	64.8622223739917	0	1	0	1	0	64.8622223739917	0
4.53	65.050260092793	0	1	0	1	0	65.050260092793	0
4.54	65.2389021452107	0	1	0	1	0	65.2389021452107	0
4.55	65.4281477023557	0	1	0	1	0	65.4281477023557	0
4.56	65.6179959426098	0	1	0	1	0	65.6179959426098	0
4.57	65.8084460515462	0	1	0	1	0	65.8084460515462	0
4.58	65.999497221851	0	1	0	1	0	65.999497221851	0
4.59	66.1911486532458	0	1	0	1	0	66.1911486532458	0
4.6	66.3833995524111	0	1	0	1	0	66.3833995524111	0
4.61	66.5762491329107	0	1	0	1	0	66.5762491329107	0
4.62	66.7696966151177	0	1	0	1	0	66.7696966151177	0
4.63	66.9637412261403	0	1	0	1	0	66.9637412261403	0
4.64	67.1583821997498	0	1	0	1	0	67.1583821997498	0
4.65	67.3536187763086	0	1	0	1	0	67.3536187763086	0
4.66	67.5494502026996	0	1	0	1	0	67.5494502026996	0
4.67	67.7458757322565	0	1	0	1	0	67.7458757322565	0
4.68	67.9428946246945	0	1	0	1	0	67.9428946246945	0
4.69	68.1405061460429	0	1	0	1	0	68.1405061460429	0
4.7	68.3387095685773	0	1	0	1	0	68.3387095685773	0
4.71	68.5375041707534	0	1	0	1	0	68.5375041707534	0
4.72	68.7368892371422	0	1	0	1	0	68.7368892371422	0
4.73	68.9368640583643	0	1	0	1	0	68.9368640583643	0
4.74	69.137427931027	0	1	0	1	0	69.137427931027	0
4.75	69.3385801576606	0	1	0	1	0	69.3385801576606	0
4.76	69.5403200466568	0	1	0	1	0	69.5403200466568	0
4.77	69.7426469122068	0	1	0	1	0	69.7426469122068	0
4.78	69.9455600742407	0	1	0	1	0	69.9455600742407	0
4.79	70.1490588583677	0	1	0	1	0	70.1490588583677	0
4.8	70.3531425958172	0	1	0	1	0	70.3531425958172	0
4.81	70.5578106233798	0	1	0	1	0	70.5578106233798	0
4.82	70.7630622833499	0	1	0	1	0	70.7630622833499	0
4.83	70.9688969234689	0	1	0	1	0	70.9688969234689	0
4.84	71.1753138968688	0	1	0	1	0	71.1753138968688	0
4.85	71.3823125620164	0	1	0	1	0	71.3823125620164	0
4.86	71.5898922826587	0	1	0	1	0	71.5898922826587	0
4.87	71.7980524277687	0	1	0	1	0	71.7980524277687	0
4.88	72.0067923714916	0	1	0	1	0	72.0067923714916	0
4.89	72.2161114930922	0	1	0	1	0	72.2161114930922	0
4.9	72.4260091769024	0	1	0	1	0	72.4260091769024	0
4.91	72.6364848122696	0	1	0	1	0	72.6364848122696	0
4.92	72.8475377935064	0	1	0	1	0	72.8475377935064	0
4.93	73.059167519839	0	1	0	1	0	73.059167519839	0
