# GHZ S RI R 50
1	54.9514712797901	0	1	0	1	0	54.9514712797901	0
1.01	54.4806920909697	0	1	0	1	0	54.4806920909697	0
1.02	54.0204596377876	0	1	0	1	0	54.0204596377876	0
1.03	53.5704796347261	0	1	0	1	0	53.5704796347261	0
1.04	53.1304691149412	0	1	0	1	0	53.1304691149412	0
1.05	52.7001558912781	0	1	0	1	0	52.7001558912781	0
1.06	52.2792780477958	0	1	0	1	0	52.2792780477958	0
1.07	51.8675834598029	0	1	0	1	0	51.8675834598029	0
1.08	51.4648293405598	0	1	0	1	0	51.4648293405598	0
1.09	51.0707818129321	0	1	0	1	0	51.0707818129321	0
1.1	50.6852155044084	0	1	0	1	0	50.6852155044084	0
1.11	50.307913164009	0	1	0	1	0	50.307913164009	0
1.12	49.9386652997182	0	1	0	1	0	49.9386652997182	0
1.13	49.5772698351665	0	1	0	1	0	49.5772698351665	0
1.14	49.2235317843836	0	1	0	1	0	49.2235317843836	0
1.15	48.8772629435196	0	1	0	1	0	48.8772629435196	0
1.16	48.5382815985129	0	1	0	1	0	48.5382815985129	0
1.17	48.2064122477481	0	1	0	1	0	48.2064122477481	0
1.18	47.8814853388174	0	1	0	1	0	47.8814853388174	0
1.19	47.5633370185534	0	1	0	1	0	47.5633370185534	0
1.2	47.2518088955609	0	1	0	1	0	47.2518088955609	0
1.21	46.9467478145242	0	1	0	1	0	46.9467478145242	0
1.22	46.6480056416129	0	1	0	1	0	46.6480056416129	0
1.23	46.3554390603574	0	1	0	1	0	46.3554390603574	0
1.24	46.0689093773997	0	1	0	1	0	46.0689093773997	0
1.25	45.7882823375694	0	1	0	1	0	45.7882823375694	0
1.26	45.5134279477649	0	1	0	1	0	45.5134279477649	0
1.27	45.2442203091557	0	1	0	1	0	45.2442203091557	0
1.28	44.9805374572495	0	1	0	1	0	44.9805374572495	0
1.29	44.722261209399	0	1	0	1	0	44.722261209399	0
1.3	44.4692770193458	0	1	0	1	0	44.4692770193458	0
1.31	44.2214738384273	0	1	0	1	0	44.2214738384273	0
1.32	43.9787439830918	0	1	0	1	0	43.9787439830918	0
1.33	43.7409830083909	0	1	0	1	0	43.7409830083909	0
1.34	43.5080895871355	0	1	0	1	0	43.5080895871355	0
1.35	43.2799653944239	0	1	0	1	0	43.2799653944239	0
1.36	43.0565149972631	0	1	0	1	0	43.0565149972631	0
1.37	42.8376457490249	0	1	0	1	0	42.8376457490249	0
1.38	42.6232676884906	0	1	0	1	0	42.6232676884906	0
1.39	42.4132934432535	0	1	0	1	0	42.4132934432535	0
1.4	42.2076381372615	0	1	0	1	0	42.2076381372615	0
1.41	42.0062193022937	0	1	0	1	0	42.0062193022937	0
1.42	41.8089567931778	0	1	0	1	0	41.8089567931778	0
1.43	41.6157727065641	0	1	0	1	0	41.6157727065641	0
1.44	41.4265913030853	0	1	0	1	0	41.4265913030853	0
1.45	41.2413389327358	0	1	0	1	0	41.2413389327358	0
1.46	41.0599439633183	0	1	0	1	0	41.0599439633183	0
1.47	40.8823367118109	0	1	0	1	0	40.8823367118109	0
1.48	40.7084493785169	0	1	0	1	0	40.7084493785169	0
1.49	40.5382159838652	0	1	0	1	0	40.5382159838652	0
1.5	40.3715723077405	0	1	0	1	0	40.3715723077405	0
1.51	40.2084558312221	0	1	0	1	0	40.2084558312221	0
1.52	40.0488056806244	0	1	0	1	0	40.0488056806244	0
1.53	39.8925625737305	0	1	0	1	0	39.8925625737305	0
1.54	39.7396687681216	0	1	0	1	0	39.7396687681216	0
1.55	39.5900680115054	0	1	0	1	0	39.5900680115054	0
1.56	39.4437054939565	0	1	0	1	0	39.4437054939565	0
1.57	39.3005278019805	0	1	0	1	0	39.3005278019805	0
1.58	39.1604828743234	0	1	0	1	0	39.1604828743234	0
1.59	39.0235199594484	0	1	0	1	0	39.0235199594484	0
1.6	38.8895895746068	0	1	0	1	0	38.8895895746068	0
1.61	38.7586434664354	0	1	0	1	0	38.7586434664354	0
1.62	38.6306345730117	0	1	0	1	0	38.6306345730117	0
1.63	38.5055169873072	0	1	0	1	0	38.5055169873072	0
1.64	38.383245921977	0	1	0	1	0	38.383245921977	0
1.65	38.2637776754299	0	1	0	1	0	38.2637776754299	0
1.66	38.1470695991252	0	1	0	1	0	38.1470695991252	0
1.67	38.0330800660441	0	1	0	1	0	38.0330800660441	0
1.68	37.9217684402874	0	1	0	1	0	37.9217684402874	0
1.69	37.8130950477522	0	1	0	1	0	37.8130950477522	0
1.7	37.7070211478438	0	1	0	1	0	37.7070211478438	0
1.71	37.6035089061805	0	1	0	1	0	37.6035089061805	0
1.72	37.5025213682498	0	1	0	1	0	37.5025213682498	0
1.73	37.4040224339788	0	1	0	1	0	37.4040224339788	0
1.74	37.3079768331814	0	1	0	1	0	37.3079768331814	0
1.75	37.2143501018471	0	1	0	1	0	37.2143501018471	0
1.76	37.1231085592383	0	1	0	1	0	37.1231085592383	0
1.77	37.0342192857643	0	1	0	1	0	37.0342192857643	0
1.78	36.9476501016001	0	1	0	1	0	36.9476501016001	0
1.79	36.8633695460233	0	1	0	1	0	36.8633695460233	0
1.8	36.7813468574384	0	1	0	1	0	36.7813468574384	0
1.81	36.7015519540642	0	1	0	1	0	36.7015519540642	0
1.82	36.6239554152577	0	1	0	1	0	36.6239554152577	0
1.83	36.54852846345	0	1	0	1	0	36.54852846345	0
1.84	36.4752429466713	0	1	0	1	0	36.4752429466713	0
1.85	36.4040713216435	0	1	0	1	0	36.4040713216435	0
1.86	36.3349866374166	0	1	0	1	0	36.3349866374166	0
1.87	36.2679625195317	0	1	0	1	0	36.2679625195317	0
1.88	36.2029731546888	0	1	0	1	0	36.2029731546888	0
1.89	36.1399932759007	0	1	0	1	0	36.1399932759007	0
1.9	36.0789981481171	0	1	0	1	0	36.0789981481171	0
1.91	36.0199635542991	0	1	0	1	0	36.0199635542991	0
1.92	35.9628657819295	0	1	0	1	0	35.9628657819295	0
1.93	35.9076816099423	0	1	0	1	0	35.9076816099423	0
1.94	35.8543882960561	0	1	0	1	0	35.8543882960561	0
1.95	35.802963564498	0	1	0	1	0	35.802963564498	0
1.96	35.7533855941029	0	1	0	1	0	35.7533855941029	0
1.97	35.7056330067747	0	1	0	1	0	35.7056330067747	0
1.98	35.6596848562982	0	1	0	1	0	35.6596848562982	0
1.99	35.6155206174877	0	1	0	1	0	35.6155206174877	0
2	35.5731201756612	0	1	0	1	0	35.5731201756612	0
2.01	35.5324638164287	0	1	0	1	0	35.5324638164287	0
2.02	35.4935322157844	0	1	0	1	0	35.4935322157844	0
2.03	35.4563064304909	0	1	0	1	0	35.4563064304909	0
2.04	35.4207678887469	0	1	0	1	0	35.4207678887469	0
2.05	35.3868983811279	0	1	0	1	0	35.3868983811279	0
2.06	35.35468005179	0	1	0	1	0	35.35468005179	0
2.07	35.3240953899303	0	1	0	1	0	35.3240953899303	0
2.08	35.2951272214917	0	1	0	1	0	35.2951272214917	0
2.09	35.2677587011073	0	1	0	1	0	35.2677587011073	0
2.1	35.2419733042745	0	1	0	1	0	35.2419733042745	0
2.11	35.2177548197512	0	1	0	1	0	35.2177548197512	0
2.12	35.1950873421679	0	1	0	1	0	35.1950873421679	0
2.13	35.1739552648474	0	1	0	1	0	35.1739552648474	0
2.14	35.1543432728262	0	1	0	1	0	35.1543432728262	0
2.15	35.1362363360703	0	1	0	1	0	35.1362363360703	0
2.16	35.1196197028797	0	1	0	1	0	35.1196197028797	0
2.17	35.1044788934751	0	1	0	1	0	35.1044788934751	0
2.18	35.0907996937611	0	1	0	1	0	35.0907996937611	0
2.19	35.0785681492608	0	1	0	1	0	35.0785681492608	0
2.2	35.0677705592147	0	1	0	1	0	35.0677705592147	0
2.21	35.0583934708412	0	1	0	1	0	35.0583934708412	0
2.22	35.0504236737508	0	1	0	1	0	35.0504236737508	0
2.23	35.0438481945119	0	1	0	1	0	35.0438481945119	0
2.24	35.0386542913613	0	1	0	1	0	35.0386542913613	0
2.25	35.034829449056	0	1	0	1	0	35.034829449056	0
2.26	35.0323613738617	0	1	0	1	0	35.0323613738617	0
2.27	35.0312379886737	0	1	0	1	0	35.0312379886737	0
2.28	35.0314474282666	0	1	0	1	0	35.0314474282666	0
2.29	35.0329780346676	0	1	0	1	0	35.0329780346676	0
2.3	35.0358183526513	0	1	0	1	0	35.0358183526513	0
2.31	35.0399571253512	0	1	0	1	0	35.0399571253512	0
2.32	35.0453832899848	0	1	0	1	0	35.0453832899848	0
2.33	35.0520859736885	0	1	0	1	0	35.0520859736885	0
2.34	35.0600544894595	0	1	0	1	0	35.0600544894595	0
2.35	35.0692783322018	0	1	0	1	0	35.0692783322018	0
2.36	35.0797471748715	0	1	0	1	0	35.0797471748715	0
2.37	35.091450864721	0	1	0	1	0	35.091450864721	0
2.38	35.1043794196371	0	1	0	1	0	35.1043794196371	0
2.39	35.1185230245711	0	1	0	1	0	35.1185230245711	0
2.4	35.1338720280587	0	1	0	1	0	35.1338720280587	0
2.41	35.1504169388256	0	1	0	1	0	35.1504169388256	0
2.42	35.1681484224784	0	1	0	1	0	35.1681484224784	0
2.43	35.1870572982758	0	1	0	1	0	35.1870572982758	0
2.44	35.207134535981	0	1	0	1	0	35.207134535981	0
2.45	35.2283712527893	0	1	0	1	0	35.2283712527893	0
2.46	35.2507587103318	0	1	0	1	0	35.2507587103318	0
2.47	35.2742883117518	0	1	0	1	0	35.2742883117518	0
2.48	35.2989515988517	0	1	0	1	0	35.2989515988517	0
2.49	35.3247402493082	0	1	0	1	0	35.3247402493082	0
2.5	35.3516460739555	0	1	0	1	0	35.3516460739555	0
2.51	35.3796610141323	0	1	0	1	0	35.3796610141323	0
2.52	35.4087771390925	0	1	0	1	0	35.4087771390925	0
2.53	35.4389866434774	0	1	0	1	0	35.4389866434774	0
2.54	35.4702818448473	0	1	0	1	0	35.4702818448473	0
2.55	35.5026551812714	0	1	0	1	0	35.5026551812714	0
2.56	35.5360992089739	0	1	0	1	0	35.5360992089739	0
2.57	35.5706066000357	0	1	0	1	0	35.5706066000357	0
2.58	35.6061701401486	0	1	0	1	0	35.6061701401486	0
2.59	35.6427827264223	0	1	0	1	0	35.6427827264223	0
2.6	35.6804373652421	0	1	0	1	0	35.6804373652421	0
2.61	35.7191271701746	0	1	0	1	0	35.7191271701746	0
2.62	35.7588453599232	0	1	0	1	0	35.7588453599232	0
2.63	35.7995852563287	0	1	0	1	0	35.7995852563287	0
2.64	35.8413402824161	0	1	0	1	0	35.8413402824161	0
2.65	35.8841039604856	0	1	0	1	0	35.8841039604856	0
2.66	35.9278699102465	0	1	0	1	0	35.9278699102465	0
2.67	35.9726318469927	0	1	0	1	0	35.9726318469927	0
2.68	36.0183835798199	0	1	0	1	0	36.0183835798199	0
2.69	36.0651190098818	0	1	0	1	0	36.0651190098818	0
2.7	36.1128321286854	0	1	0	1	0	36.1128321286854	0
2.71	36.1615170164239	0	1	0	1	0	36.1615170164239	0
2.72	36.2111678403465	0	1	0	1	0	36.2111678403465	0
2.73	36.261778853164	0	1	0	1	0	36.261778853164	0
2.74	36.3133443914892	0	1	0	1	0	36.3133443914892	0
2.75	36.3658588743113	0	1	0	1	0	36.3658588743113	0
2.76	36.419316801504	0	1	0	1	0	36.419316801504	0
2.77	36.473712752365	0	1	0	1	0	36.473712752365	0
2.78	36.5290413841877	0	1	0	1	0	36.5290413841877	0
2.79	36.5852974308636	0	1	0	1	0	36.5852974308636	0
2.8	36.6424757015142	0	1	0	1	0	36.6424757015142	0
2.81	36.7005710791525	0	1	0	1	0	36.7005710791525	0
2.82	36.759578519373	0	1	0	1	0	36.759578519373	0
2.83	36.8194930490691	0	1	0	1	0	36.8194930490691	0
2.84	36.880309765178	0	1	0	1	0	36.880309765178	0
2.85	36.9420238334517	0	1	0	1	0	36.9420238334517	0
2.86	37.0046304872543	0	1	0	1	0	37.0046304872543	0
2.87	37.0681250263837	0	1	0	1	0	37.0681250263837	0
2.88	37.1325028159183	0	1	0	1	0	37.1325028159183	0
2.89	37.1977592850879	0	1	0	1	0	37.1977592850879	0
2.9	37.2638899261672	0	1	0	1	0	37.2638899261672	0
2.91	37.3308902933929	0	1	0	1	0	37.3308902933929	0
2.92	37.3987560019023	0	1	0	1	0	37.3987560019023	0
2.93	37.4674827266947	0	1	0	1	0	37.4674827266947	0
2.94	37.5370662016127	0	1	0	1	0	37.5370662016127	0
2.95	37.6075022183452	0	1	0	1	0	37.6075022183452	0
2.96	37.67878662545	0	1	0	1	0	37.67878662545	0
2.97	37.7509153273968	0	1	0	1	0	37.7509153273968	0
2.98	37.8238842836288	0	1	0	1	0	37.8238842836288	0
2.99	37.8976895076433	0	1	0	1	0	37.8976895076433	0
3	37.9723270660912	0	1	0	1	0	37.9723270660912	0
3.01	38.0477930778937	0	1	0	1	0	38.0477930778937	0
3.02	38.1240837133771	0	1	0	1	0	38.1240837133771	0
3.03	38.2011951934243	0	1	0	1	0	38.2011951934243	0
3.04	38.2791237886435	0	1	0	1	0	38.2791237886435	0
3.05	38.357865818553	0	1	0	1	0	38.357865818553	0
3.06	38.4374176507821	0	1	0	1	0	38.4374176507821	0
3.07	38.517775700287	0	1	0	1	0	38.517775700287	0
3.08	38.5989364285833	0	1	0	1	0	38.5989364285833	0
3.09	38.6808963429921	0	1	0	1	0	38.6808963429921	0
3.1	38.7636519959012	0	1	0	1	0	38.7636519959012	0
3.11	38.8471999840408	0	1	0	1	0	38.8471999840408	0
3.12	38.9315369477729	0	1	0	1	0	38.9315369477729	0
3.13	39.0166595703939	0	1	0	1	0	39.0166595703939	0
3.14	39.1025645774514	0	1	0	1	0	39.1025645774514	0
3.15	39.1892487360731	0	1	0	1	0	39.1892487360731	0
3.16	39.2767088543095	0	1	0	1	0	39.2767088543095	0
3.17	39.3649417804877	0	1	0	1	0	39.3649417804877	0
3.18	39.4539444025788	0	1	0	1	0	39.4539444025788	0
3.19	39.543713647576	0	1	0	1	0	39.543713647576	0
3.2	39.6342464808852	0	1	0	1	0	39.6342464808852	0
3.21	39.7255399057264	0	1	0	1	0	39.7255399057264	0
3.22	39.8175909625468	0	1	0	1	0	39.8175909625468	0
3.23	39.9103967284445	0	1	0	1	0	39.9103967284445	0
3.24	40.0039543166026	0	1	0	1	0	40.0039543166026	0
3.25	40.0982608757344	0	1	0	1	0	40.0982608757344	0
3.26	40.1933135895382	0	1	0	1	0	40.1933135895382	0
3.27	40.2891096761626	0	1	0	1	0	40.2891096761626	0
3.28	40.3856463876811	0	1	0	1	0	40.3856463876811	0
3.29	40.4829210095768	0	1	0	1	0	40.4829210095768	0
3.3	40.5809308602359	0	1	0	1	0	40.5809308602359	0
3.31	40.6796732904507	0	1	0	1	0	40.6796732904507	0
3.32	40.7791456829321	0	1	0	1	0	40.7791456829321	0
3.33	40.8793454518293	0	1	0	1	0	40.8793454518293	0
3.34	40.9802700422603	0	1	0	1	0	40.9802700422603	0
3.35	41.0819169298488	0	1	0	1	0	41.0819169298488	0
3.36	41.1842836202709	0	1	0	1	0	41.1842836202709	0
3.37	41.2873676488087	0	1	0	1	0	41.2873676488087	0
3.38	41.3911665799125	0	1	0	1	0	41.3911665799125	0
3.39	41.4956780067709	0	1	0	1	0	41.4956780067709	0
3.4	41.6008995508878	0	1	0	1	0	41.6008995508878	0
3.41	41.7068288616673	0	1	0	1	0	41.7068288616673	0
3.42	41.8134636160058	0	1	0	1	0	41.8134636160058	0
3.43	41.9208015178916	0	1	0	1	0	41.9208015178916	0
3.44	42.0288402980104	0	1	0	1	0	42.0288402980104	0
3.45	42.1375777133591	0	1	0	1	0	42.1375777133591	0
3.46	42.2470115468651	0	1	0	1	0	42.2470115468651	0
3.47	42.3571396070128	0	1	0	1	0	42.3571396070128	0
3.48	42.4679597274767	0	1	0	1	0	42.4679597274767	0
3.49	42.57946976676	0	1	0	1	0	42.57946976676	0
3.5	42.6916676078402	0	1	0	1	0	42.6916676078402	0
3.51	42.8045511578204	0	1	0	1	0	42.8045511578204	0
3.52	42.9181183475867	0	1	0	1	0	42.9181183475867	0
3.53	43.0323671314711	0	1	0	1	0	43.0323671314711	0
3.54	43.1472954869207	0	1	0	1	0	43.1472954869207	0
3.55	43.2629014141718	0	1	0	1	0	43.2629014141718	0
3.56	43.37918293593	0	1	0	1	0	43.37918293593	0
3.57	43.4961380970553	0	1	0	1	0	43.4961380970553	0
3.58	43.6137649642531	0	1	0	1	0	43.6137649642531	0
3.59	43.7320616257695	0	1	0	1	0	43.7320616257695	0
3.6	43.8510261910924	0	1	0	1	0	43.8510261910924	0
3.61	43.9706567906572	0	1	0	1	0	43.9706567906572	0
3.62	44.0909515755574	0	1	0	1	0	44.0909515755574	0
3.63	44.2119087172601	0	1	0	1	0	44.2119087172601	0
3.64	44.3335264073264	0	1	0	1	0	44.3335264073264	0
3.65	44.4558028571356	0	1	0	1	0	44.4558028571356	0
3.66	44.578736297615	0	1	0	1	0	44.578736297615	0
3.67	44.7023249789732	0	1	0	1	0	44.7023249789732	0
3.68	44.8265671704384	0	1	0	1	0	44.8265671704384	0
3.69	44.9514611600004	0	1	0	1	0	44.9514611600004	0
3.7	45.0770052541574	0	1	0	1	0	45.0770052541574	0
3.71	45.2031977776662	0	1	0	1	0	45.2031977776662	0
3.72	45.3300370732971	0	1	0	1	0	45.3300370732971	0
3.73	45.4575215015923	0	1	0	1	0	45.4575215015923	0
3.74	45.5856494406281	0	1	0	1	0	45.5856494406281	0
3.75	45.7144192857816	0	1	0	1	0	45.7144192857816	0
3.76	45.8438294495003	0	1	0	1	0	45.8438294495003	0
3.77	45.9738783610755	0	1	0	1	0	45.9738783610755	0
3.78	46.1045644664201	0	1	0	1	0	46.1045644664201	0
3.79	46.2358862278488	0	1	0	1	0	46.2358862278488	0
3.8	46.3678421238624	0	1	0	1	0	46.3678421238624	0
3.81	46.5004306489357	0	1	0	1	0	46.5004306489357	0
3.82	46.6336503133078	0	1	0	1	0	46.6336503133078	0
3.83	46.767499642777	0	1	0	1	0	46.767499642777	0
3.84	46.9019771784976	0	1	0	1	0	46.9019771784976	0
3.85	47.0370814767809	0	1	0	1	0	47.0370814767809	0
3.86	47.1728111088988	0	1	0	1	0	47.1728111088988	0
3.87	47.30916466089	0	1	0	1	0	47.30916466089	0
3.88	47.4461407333707	0	1	0	1	0	47.4461407333707	0
3.89	47.5837379413462	0	1	0	1	0	47.5837379413462	0
3.9	47.7219549140269	0	1	0	1	0	47.7219549140269	0
3.91	47.860790294647	0	1	0	1	0	47.860790294647	0
3.92	48.0002427402849	0	1	0	1	0	48.0002427402849	0
3.93	48.1403109216874	0	1	0	1	0	48.1403109216874	0
3.94	48.2809935230965	0	1	0	1	0	48.2809935230965	0
3.95	48.4222892420782	0	1	0	1	0	48.4222892420782	0
3.96	48.5641967893543	0	1	0	1	0	48.5641967893543	0
3.97	48.7067148886369	0	1	0	1	0	48.7067148886369	0
3.98	48.8498422764652	0	1	0	1	0	48.8498422764652	0
3.99	48.9935777020446	0	1	0	1	0	48.9935777020446	0
4	49.1379199270884	0	1	0	1	0	49.1379199270884	0
4.01	49.2828677256619	0	1	0	1	0	49.2828677256619	0
4.02	49.4284198840288	0	1	0	1	0	49.4284198840288	0
4.03	49.5745752004999	0	1	0	1	0	49.5745752004999	0
4.04	49.7213324852836	0	1	0	1	0	49.7213324852836	0
4.05	49.8686905603396	0	1	0	1	0	49.8686905603396	0
4.06	50.016648259234	0	1	0	1	0	50.016648259234	0
4.07	50.1652044269962	0	1	0	1	0	50.1652044269962	0
4.08	50.3143579199794	0	1	0	1	0	50.3143579199794	0
4.09	50.4641076057211	0	1	0	1	0	50.4641076057211	0
4.1	50.6144523628074	0	1	0	1	0	50.6144523628074	0
4.11	50.7653910807386	0	1	0	1	0	50.7653910807386	0
4.12	50.9169226597964	0	1	0	1	0	50.9169226597964	0
4.13	51.0690460109133	0	1	0	1	0	51.0690460109133	0
4.14	51.2217600555446	0	1	0	1	0	51.2217600555446	0
4.15	51.3750637255408	0	1	0	1	0	51.3750637255408	0
4.16	51.5289559630235	0	1	0	1	0	51.5289559630235	0
4.17	51.6834357202615	0	1	0	1	0	51.6834357202615	0
4.18	51.8385019595499	0	1	0	1	0	51.8385019595499	0
4.19	51.9941536530901	0	1	0	1	0	51.9941536530901	0
4.2	52.1503897828723	0	1	0	1	0	52.1503897828723	0
4.21	52.3072093405587	0	1	0	1	0	52.3072093405587	0
4.22	52.4646113273696	0	1	0	1	0	52.4646113273696	0
4.23	52.6225947539697	0	1	0	1	0	52.6225947539697	0
4.24	52.7811586403572	0	1	0	1	0	52.7811586403572	0
4.25	52.9403020157537	0	1	0	1	0	52.9403020157537	0
4.26	53.1000239184964	0	1	0	1	0	53.1000239184964	0
4.27	53.2603233959307	0	1	0	1	0	53.2603233959307	0
4.28	53.4211995043055	0	1	0	1	0	53.4211995043055	0
4.29	53.5826513086692	0	1	0	1	0	53.5826513086692	0
4.3	53.7446778827675	0	1	0	1	0	53.7446778827675	0
4.31	53.9072783089423	0	1	0	1	0	53.9072783089423	0
4.32	54.0704516780324	0	1	0	1	0	54.0704516780324	0
4.33	54.2341970892752	0	1	0	1	0	54.2341970892752	0
4.34	54.3985136502104	0	1	0	1	0	54.3985136502104	0
4.35	54.5634004765839	0	1	0	1	0	54.5634004765839	0
4.36	54.7288566922541	0	1	0	1	0	54.7288566922541	0
4.37	54.894881429099	0	1	0	1	0	54.894881429099	0
4.38	55.0614738269248	0	1	0	1	0	55.0614738269248	0
4.39	55.2286330333752	0	1	0	1	0	55.2286330333752	0
4.4	55.3963582038429	0	1	0	1	0	55.3963582038429	0
4.41	55.5646485013811	0	1	0	1	0	55.5646485013811	0
4.42	55.7335030966174	0	1	0	1	0	55.7335030966174	0
4.43	55.9029211676681	0	1	0	1	0	55.9029211676681	0
4.44	56.0729019000538	0	1	0	1	0	56.0729019000538	0
4.45	56.2434444866162	0	1	0	1	0	56.2434444866162	0
4.46	56.4145481274361	0	1	0	1	0	56.4145481274361	0
4.47	56.5862120297526	0	1	0	1	0	56.5862120297526	0
4.48	56.7584354078829	0	1	0	1	0	56.7584354078829	0
4.49	56.9312174831434	0	1	0	1	0	56.9312174831434	0
4.5	57.1045574837725	0	1	0	1	0	57.1045574837725	0
4.51	57.2784546448532	0	1	0	1	0	57.2784546448532	0
4.52	57.4529082082378	0	1	0	1	0	57.4529082082378	0
4.53	57.6279174224731	0	1	0	1	0	57.6279174224731	0
4.54	57.8034815427265	0	1	0	1	0	57.8034815427265	0
4.55	57.9795998307136	0	1	0	1	0	57.9795998307136	0
4.56	58.1562715546259	0	1	0	1	0	58.1562715546259	0
4.57	58.3334959890605	0	1	0	1	0	58.3334959890605	0
4.58	58.5112724149496	0	1	0	1	0	58.5112724149496	0
4.59	58.6896001194921	0	1	0	1	0	58.6896001194921	0
4.6	58.8684783960849	0	1	0	1	0	58.8684783960849	0
4.61	59.0479065442561	0	1	0	1	0	59.0479065442561	0
4.62	59.2278838695985	0	1	0	1	0	59.2278838695985	0
4.63	59.408409683704	0	1	0	1	0	59.408409683704	0
4.64	59.5894833040992	0	1	0	1	0	59.5894833040992	0
4.65	59.7711040541812	0	1	0	1	0	59.7711040541812	0
4.66	59.9532712631551	0	1	0	1	0	59.9532712631551	0
4.67	60.1359842659715	0	1	0	1	0	60.1359842659715	0
4.68	60.319242403265	0	1	0	1	0	60.319242403265	0
4.69	60.5030450212941	0	1	0	1	0	60.5030450212941	0
4.7	60.6873914718808	0	1	0	1	0	60.6873914718808	0
4.71	60.8722811123518	0	1	0	1	0	60.8722811123518	0
4.72	61.0577133054804	0	1	0	1	0	61.0577133054804	0
4.73	61.2436874194286	0	1	0	1	0	61.2436874194286	0
4.74	61.4302028276902	0	1	0	1	0	61.4302028276902	0
4.75	61.6172589090352	0	1	0	1	0	61.6172589090352	0
4.76	61.8048550474536	0	1	0	1	0	61.8048550474536	0
4.77	61.9929906321013	0	1	0	1	0	61.9929906321013	0
4.78	62.1816650572461	0	1	0	1	0	62.1816650572461	0
4.79	62.3708777222137	0	1	0	1	0	62.3708777222137	0
4.8	62.5606280313356	0	1	0	1	0	62.5606280313356	0
4.81	62.750915393897	0	1	0	1	0	62.750915393897	0
4.82	62.9417392240851	0	1	0	1	0	62.9417392240851	0
4.83	63.1330989409386	0	1	0	1	0	63.1330989409386	0
4.84	63.3249939682976	0	1	0	1	0	63.3249939682976	0
4.85	63.5174237347541	0	1	0	1	0	63.5174237347541	0
4.86	63.7103876736028	0	1	0	1	0	63.7103876736028	0
4.87	63.9038852227934	0	1	0	1	0	63.9038852227934	0
4.88	64.0979158248821	0	1	0	1	0	64.0979158248821	0
4.89	64.2924789269855	0	1	0	1	0	64.2924789269855	0
4.9	64.4875739807332	0	1	0	1	0	64.4875739807332	0
4.91	64.6832004422222	0	1	0	1	0	64.6832004422222	0
4.92	64.8793577719716	0	1	0	1	0	64.8793577719716	0
4.93	65.0760454348775	0	1	0	1	0	65.0760454348775	0
