# GHZ S RI R 50
1	56.0020524762739	0	1	0	1	0	56.0020524762739	0
1.01	55.5406447518477	0	1	0	1	0	55.5406447518477	0
1.02	55.0895054099783	0	1	0	1	0	55.0895054099783	0
1.03	54.6483473449901	0	1	0	1	0	54.6483473449901	0
1.04	54.2168944937336	0	1	0	1	0	54.2168944937336	0
1.05	53.7948813097506	0	1	0	1	0	53.7948813097506	0
1.06	53.382052267204	0	1	0	1	0	53.382052267204	0
1.07	52.9781613926245	0	1	0	1	0	52.9781613926245	0
1.08	52.5829718226712	0	1	0	1	0	52.5829718226712	0
1.09	52.1962553862359	0	1	0	1	0	52.1962553862359	0
1.1	51.8177922093417	0	1	0	1	0	51.8177922093417	0
1.11	51.4473703413981	0	1	0	1	0	51.4473703413981	0
1.12	51.0847854014788	0	1	0	1	0	51.0847854014788	0
1.13	50.7298402433803	0	1	0	1	0	50.7298402433803	0
1.14	50.3823446383098	0	1	0	1	0	50.3823446383098	0
1.15	50.0421149741284	0	1	0	1	0	50.0421149741284	0
1.16	49.7089739701498	0	1	0	1	0	49.7089739701498	0
1.17	49.3827504065663	0	1	0	1	0	49.3827504065663	0
1.18	49.0632788676314	0	1	0	1	0	49.0632788676314	0
1.19	48.7503994977915	0	1	0	1	0	48.7503994977915	0
1.2	48.4439577700117	0	1	0	1	0	48.4439577700117	0
1.21	48.1438042655888	0	1	0	1	0	48.1438042655888	0
1.22	47.8497944647934	0	1	0	1	0	47.8497944647934	0
1.23	47.5617885477247	0	1	0	1	0	47.5617885477247	0
1.24	47.2796512048014	0	1	0	1	0	47.2796512048014	0
1.25	47.0032514563486	0	1	0	1	0	47.0032514563486	0
1.26	46.7324624807766	0	1	0	1	0	46.7324624807766	0
1.27	46.4671614508762	0	1	0	1	0	46.4671614508762	0
1.28	46.2072293777886	0	1	0	1	0	46.2072293777886	0
1.29	45.9525509622321	0	1	0	1	0	45.9525509622321	0
1.3	45.703014452595	0	1	0	1	0	45.703014452595	0
1.31	45.4585115095288	0	1	0	1	0	45.4585115095288	0
1.32	45.2189370766954	0	1	0	1	0	45.2189370766954	0
1.33	44.9841892573458	0	1	0	1	0	44.9841892573458	0
1.34	44.754169196425	0	1	0	1	0	44.754169196425	0
1.35	44.5287809679169	0	1	0	1	0	44.5287809679169	0
1.36	44.3079314671586	0	1	0	1	0	44.3079314671586	0
1.37	44.0915303078714	0	1	0	1	0	44.0915303078714	0
1.38	43.879489723669	0	1	0	1	0	43.879489723669	0
1.39	43.6717244738164	0	1	0	1	0	43.6717244738164	0
1.4	43.4681517530282	0	1	0	1	0	43.4681517530282	0
1.41	43.2686911051049	0	1	0	1	0	43.2686911051049	0
1.42	43.0732643402192	0	1	0	1	0	43.0732643402192	0
1.43	42.8817954556715	0	1	0	1	0	42.8817954556715	0
1.44	42.6942105599485	0	1	0	1	0	42.6942105599485	0
1.45	42.5104377999234	0	1	0	1	0	42.5104377999234	0
1.46	42.3304072910481	0	1	0	1	0	42.3304072910481	0
1.47	42.1540510503952	0	1	0	1	0	42.1540510503952	0
1.48	41.9813029324133	0	1	0	1	0	41.9813029324133	0
1.49	41.8120985672707	0	1	0	1	0	41.8120985672707	0
1.5	41.6463753016646	0	1	0	1	0	41.6463753016646	0
1.51	41.4840721419823	0	1	0	1	0	41.4840721419823	0
1.52	41.3251296997061	0	1	0	1	0	41.3251296997061	0
1.53	41.1694901389594	0	1	0	1	0	41.1694901389594	0
1.54	41.017097126096	0	1	0	1	0	41.017097126096	0
1.55	40.8678957812413	0	1	0	1	0	40.8678957812413	0
1.56	40.7218326316971	0	1	0	1	0	40.7218326316971	0
1.57	40.5788555671268	0	1	0	1	0	40.5788555671268	0
1.58	40.4389137964428	0	1	0	1	0	40.4389137964428	0
1.59	40.3019578063207	0	1	0	1	0	40.3019578063207	0
1.6	40.1679393212694	0	1	0	1	0	40.1679393212694	0
1.61	40.0368112651886	0	1	0	1	0	40.0368112651886	0
1.62	39.9085277243512	0	1	0	1	0	39.9085277243512	0
1.63	39.7830439117469	0	1	0	1	0	39.7830439117469	0
1.64	39.6603161327319	0	1	0	1	0	39.6603161327319	0
1.65	39.5403017519263	0	1	0	1	0	39.5403017519263	0
1.66	39.4229591613087	0	1	0	1	0	39.4229591613087	0
1.67	39.3082477494572	0	1	0	1	0	39.3082477494572	0
1.68	39.1961278718883	0	1	0	1	0	39.1961278718883	0
1.69	39.0865608224496	0	1	0	1	0	39.0865608224496	0
1.7	38.9795088057217	0	1	0	1	0	38.9795088057217	0
1.71	38.8749349103886	0	1	0	1	0	38.8749349103886	0
1.72	38.7728030835368	0	1	0	1	0	38.7728030835368	0
1.73	38.6730781058465	0	1	0	1	0	38.6730781058465	0
1.74	38.5757255676372	0	1	0	1	0	38.5757255676372	0
1.75	38.4807118457355	0	1	0	1	0	38.4807118457355	0
1.76	38.3880040811308	0	1	0	1	0	38.3880040811308	0
1.77	38.2975701573894	0	1	0	1	0	38.2975701573894	0
1.78	38.2093786797948	0	1	0	1	0	38.2093786797948	0
1.79	38.1233989551888	0	1	0	1	0	38.1233989551888	0
1.8	38.0396009724831	0	1	0	1	0	38.0396009724831	0
1.81	37.957955383818	0	1	0	1	0	37.957955383818	0
1.82	37.8784334863416	0	1	0	1	0	37.8784334863416	0
1.83	37.8010072045868	0	1	0	1	0	37.8010072045868	0
1.84	37.7256490734229	0	1	0	1	0	37.7256490734229	0
1.85	37.6523322215595	0	1	0	1	0	37.6523322215595	0
1.86	37.5810303555838	0	1	0	1	0	37.5810303555838	0
1.87	37.5117177445088	0	1	0	1	0	37.5117177445088	0
1.88	37.4443692048151	0	1	0	1	0	37.4443692048151	0
1.89	37.3789600859681	0	1	0	1	0	37.3789600859681	0
1.9	37.3154662563917	0	1	0	1	0	37.3154662563917	0
1.91	37.2538640898833	0	1	0	1	0	37.2538640898833	0
1.92	37.1941304524526	0	1	0	1	0	37.1941304524526	0
1.93	37.1362426895704	0	1	0	1	0	37.1362426895704	0
1.94	37.080178613811	0	1	0	1	0	37.080178613811	0
1.95	37.0259164928758	0	1	0	1	0	37.0259164928758	0
1.96	36.973435037982	0	1	0	1	0	36.973435037982	0
1.97	36.9227133926067	0	1	0	1	0	36.9227133926067	0
1.98	36.8737311215706	0	1	0	1	0	36.8737311215706	0
1.99	36.8264682004522	0	1	0	1	0	36.8264682004522	0
2	36.780905005318	0	1	0	1	0	36.780905005318	0
2.01	36.7370223027608	0	1	0	1	0	36.7370223027608	0
2.02	36.6948012402329	0	1	0	1	0	36.6948012402329	0
2.03	36.6542233366652	0	1	0	1	0	36.6542233366652	0
2.04	36.6152704733627	0	1	0	1	0	36.6152704733627	0
2.05	36.5779248851658	0	1	0	1	0	36.5779248851658	0
2.06	36.5421691518697	0	1	0	1	0	36.5421691518697	0
2.07	36.5079861898915	0	1	0	1	0	36.5079861898915	0
2.08	36.4753592441791	0	1	0	1	0	36.4753592441791	0
2.09	36.4442718803511	0	1	0	1	0	36.4442718803511	0
2.1	36.4147079770619	0	1	0	1	0	36.4147079770619	0
2.11	36.386651718584	0	1	0	1	0	36.386651718584	0
2.12	36.3600875875995	0	1	0	1	0	36.3600875875995	0
2.13	36.335000358196	0	1	0	1	0	36.335000358196	0
2.14	36.3113750890573	0	1	0	1	0	36.3113750890573	0
2.15	36.2891971168451	0	1	0	1	0	36.2891971168451	0
2.16	36.2684520497647	0	1	0	1	0	36.2684520497647	0
2.17	36.2491257613077	0	1	0	1	0	36.2491257613077	0
2.18	36.2312043841677	0	1	0	1	0	36.2312043841677	0
2.19	36.2146743043226	0	1	0	1	0	36.2146743043226	0
2.2	36.1995221552779	0	1	0	1	0	36.1995221552779	0
2.21	36.1857348124665	0	1	0	1	0	36.1857348124665	0
2.22	36.1732993878	0	1	0	1	0	36.1732993878	0
2.23	36.1622032243666	0	1	0	1	0	36.1622032243666	0
2.24	36.1524338912708	0	1	0	1	0	36.1524338912708	0
2.25	36.1439791786106	0	1	0	1	0	36.1439791786106	0
2.26	36.1368270925886	0	1	0	1	0	36.1368270925886	0
2.27	36.1309658507518	0	1	0	1	0	36.1309658507518	0
2.28	36.126383877357	0	1	0	1	0	36.126383877357	0
2.29	36.1230697988573	0	1	0	1	0	36.1230697988573	0
2.3	36.1210124395066	0	1	0	1	0	36.1210124395066	0
2.31	36.1202008170781	0	1	0	1	0	36.1202008170781	0
2.32	36.1206241386941	0	1	0	1	0	36.1206241386941	0
2.33	36.1222717967621	0	1	0	1	0	36.1222717967621	0
2.34	36.1251333650159	0	1	0	1	0	36.1251333650159	0
2.35	36.1291985946577	0	1	0	1	0	36.1291985946577	0
2.36	36.1344574105984	0	1	0	1	0	36.1344574105984	0
2.37	36.1408999077923	0	1	0	1	0	36.1408999077923	0
2.38	36.1485163476651	0	1	0	1	0	36.1485163476651	0
2.39	36.1572971546313	0	1	0	1	0	36.1572971546313	0
2.4	36.1672329126985	0	1	0	1	0	36.1672329126985	0
2.41	36.1783143621561	0	1	0	1	0	36.1783143621561	0
2.42	36.1905323963468	0	1	0	1	0	36.1905323963468	0
2.43	36.2038780585172	0	1	0	1	0	36.2038780585172	0
2.44	36.2183425387456	0	1	0	1	0	36.2183425387456	0
2.45	36.233917170946	0	1	0	1	0	36.233917170946	0
2.46	36.2505934299442	0	1	0	1	0	36.2505934299442	0
2.47	36.2683629286259	0	1	0	1	0	36.2683629286259	0
2.48	36.2872174151522	0	1	0	1	0	36.2872174151522	0
2.49	36.3071487702444	0	1	0	1	0	36.3071487702444	0
2.5	36.3281490045321	0	1	0	1	0	36.3281490045321	0
2.51	36.3502102559653	0	1	0	1	0	36.3502102559653	0
2.52	36.3733247872889	0	1	0	1	0	36.3733247872889	0
2.53	36.3974849835755	0	1	0	1	0	36.3974849835755	0
2.54	36.4226833498181	0	1	0	1	0	36.4226833498181	0
2.55	36.4489125085783	0	1	0	1	0	36.4489125085783	0
2.56	36.4761651976903	0	1	0	1	0	36.4761651976903	0
2.57	36.504434268018	0	1	0	1	0	36.504434268018	0
2.58	36.5337126812646	0	1	0	1	0	36.5337126812646	0
2.59	36.5639935078331	0	1	0	1	0	36.5639935078331	0
2.6	36.5952699247353	0	1	0	1	0	36.5952699247353	0
2.61	36.6275352135502	0	1	0	1	0	36.6275352135502	0
2.62	36.660782758428	0	1	0	1	0	36.660782758428	0
2.63	36.6950060441401	0	1	0	1	0	36.6950060441401	0
2.64	36.7301986541737	0	1	0	1	0	36.7301986541737	0
2.65	36.7663542688687	0	1	0	1	0	36.7663542688687	0
2.66	36.8034666635978	0	1	0	1	0	36.8034666635978	0
2.67	36.8415297069865	0	1	0	1	0	36.8415297069865	0
2.68	36.8805373591731	0	1	0	1	0	36.8805373591731	0
2.69	36.9204836701082	0	1	0	1	0	36.9204836701082	0
2.7	36.9613627778912	0	1	0	1	0	36.9613627778912	0
2.71	37.0031689071441	0	1	0	1	0	37.0031689071441	0
2.72	37.0458963674208	0	1	0	1	0	37.0458963674208	0
2.73	37.0895395516518	0	1	0	1	0	37.0895395516518	0
2.74	37.1340929346226	0	1	0	1	0	37.1340929346226	0
2.75	37.1795510714854	0	1	0	1	0	37.1795510714854	0
2.76	37.2259085963034	0	1	0	1	0	37.2259085963034	0
2.77	37.273160220626	0	1	0	1	0	37.273160220626	0
2.78	37.3213007320956	0	1	0	1	0	37.3213007320956	0
2.79	37.3703249930838	0	1	0	1	0	37.3703249930838	0
2.8	37.4202279393567	0	1	0	1	0	37.4202279393567	0
2.81	37.4710045787692	0	1	0	1	0	37.4710045787692	0
2.82	37.5226499899868	0	1	0	1	0	37.5226499899868	0
2.83	37.5751593212346	0	1	0	1	0	37.5751593212346	0
2.84	37.6285277890723	0	1	0	1	0	37.6285277890723	0
2.85	37.6827506771959	0	1	0	1	0	37.6827506771959	0
2.86	37.7378233352634	0	1	0	1	0	37.7378233352634	0
2.87	37.7937411777462	0	1	0	1	0	37.7937411777462	0
2.88	37.8504996828034	0	1	0	1	0	37.8504996828034	0
2.89	37.9080943911803	0	1	0	1	0	37.9080943911803	0
2.9	37.966520905129	0	1	0	1	0	37.966520905129	0
2.91	38.0257748873518	0	1	0	1	0	38.0257748873518	0
2.92	38.0858520599661	0	1	0	1	0	38.0858520599661	0
2.93	38.1467482034904	0	1	0	1	0	38.1467482034904	0
2.94	38.208459155851	0	1	0	1	0	38.208459155851	0
2.95	38.2709808114092	0	1	0	1	0	38.2709808114092	0
2.96	38.334309120008	0	1	0	1	0	38.334309120008	0
2.97	38.3984400860377	0	1	0	1	0	38.3984400860377	0
2.98	38.4633697675212	0	1	0	1	0	38.4633697675212	0
2.99	38.5290942752168	0	1	0	1	0	38.5290942752168	0
3	38.5956097717393	0	1	0	1	0	38.5956097717393	0
3.01	38.6629124706987	0	1	0	1	0	38.6629124706987	0
3.02	38.7309986358558	0	1	0	1	0	38.7309986358558	0
3.03	38.7998645802949	0	1	0	1	0	38.7998645802949	0
3.04	38.8695066656121	0	1	0	1	0	38.8695066656121	0
3.05	38.9399213011203	0	1	0	1	0	38.9399213011203	0
3.06	39.0111049430696	0	1	0	1	0	39.0111049430696	0
3.07	39.0830540938827	0	1	0	1	0	39.0830540938827	0
3.08	39.1557653014054	0	1	0	1	0	39.1557653014054	0
3.09	39.2292351581715	0	1	0	1	0	39.2292351581715	0
3.1	39.3034603006822	0	1	0	1	0	39.3034603006822	0
3.11	39.378437408699	0	1	0	1	0	39.378437408699	0
3.12	39.4541632045508	0	1	0	1	0	39.4541632045508	0
3.13	39.5306344524534	0	1	0	1	0	39.5306344524534	0
3.14	39.6078479578429	0	1	0	1	0	39.6078479578429	0
3.15	39.6858005667214	0	1	0	1	0	39.6858005667214	0
3.16	39.7644891650148	0	1	0	1	0	39.7644891650148	0
3.17	39.8439106779435	0	1	0	1	0	39.8439106779435	0
3.18	39.9240620694043	0	1	0	1	0	39.9240620694043	0
3.19	40.0049403413642	0	1	0	1	0	40.0049403413642	0
3.2	40.0865425332657	0	1	0	1	0	40.0865425332657	0
3.21	40.168865721443	0	1	0	1	0	40.168865721443	0
3.22	40.251907018549	0	1	0	1	0	40.251907018549	0
3.23	40.3356635729934	0	1	0	1	0	40.3356635729934	0
3.24	40.4201325683905	0	1	0	1	0	40.4201325683905	0
3.25	40.5053112230181	0	1	0	1	0	40.5053112230181	0
3.26	40.5911967892853	0	1	0	1	0	40.5911967892853	0
3.27	40.6777865532109	0	1	0	1	0	40.6777865532109	0
3.28	40.7650778339113	0	1	0	1	0	40.7650778339113	0
3.29	40.8530679830968	0	1	0	1	0	40.8530679830968	0
3.3	40.9417543845785	0	1	0	1	0	40.9417543845785	0
3.31	41.031134453783	0	1	0	1	0	41.031134453783	0
3.32	41.1212056372764	0	1	0	1	0	41.1212056372764	0
3.33	41.2119654122964	0	1	0	1	0	41.2119654122964	0
3.34	41.3034112862939	0	1	0	1	0	41.3034112862939	0
3.35	41.395540796481	0	1	0	1	0	41.395540796481	0
3.36	41.4883515093893	0	1	0	1	0	41.4883515093893	0
3.37	41.5818410204338	0	1	0	1	0	41.5818410204338	0
3.38	41.6760069534864	0	1	0	1	0	41.6760069534864	0
3.39	41.7708469604558	0	1	0	1	0	41.7708469604558	0
3.4	41.8663587208755	0	1	0	1	0	41.8663587208755	0
3.41	41.9625399414982	0	1	0	1	0	41.9625399414982	0
3.42	42.0593883558985	0	1	0	1	0	42.0593883558985	0
3.43	42.1569017240816	0	1	0	1	0	42.1569017240816	0
3.44	42.2550778320989	0	1	0	1	0	42.2550778320989	0
3.45	42.3539144916711	0	1	0	1	0	42.3539144916711	0
3.46	42.4534095398166	0	1	0	1	0	42.4534095398166	0
3.47	42.5535608384876	0	1	0	1	0	42.5535608384876	0
3.48	42.6543662742114	0	1	0	1	0	42.6543662742114	0
3.49	42.7558237577385	0	1	0	1	0	42.7558237577385	0
3.5	42.8579312236965	0	1	0	1	0	42.8579312236965	0
3.51	42.9606866302502	0	1	0	1	0	42.9606866302502	0
3.52	43.0640879587668	0	1	0	1	0	43.0640879587668	0
3.53	43.1681332134878	0	1	0	1	0	43.1681332134878	0
3.54	43.2728204212053	0	1	0	1	0	43.2728204212053	0
3.55	43.3781476309451	0	1	0	1	0	43.3781476309451	0
3.56	43.4841129136539	0	1	0	1	0	43.4841129136539	0
3.57	43.5907143618923	0	1	0	1	0	43.5907143618923	0
3.58	43.6979500895333	0	1	0	1	0	43.6979500895333	0
3.59	43.8058182314651	0	1	0	1	0	43.8058182314651	0
3.6	43.9143169432994	0	1	0	1	0	43.9143169432994	0
3.61	44.0234444010844	0	1	0	1	0	44.0234444010844	0
3.62	44.1331988010225	0	1	0	1	0	44.1331988010225	0
3.63	44.2435783591923	0	1	0	1	0	44.2435783591923	0
3.64	44.3545813112765	0	1	0	1	0	44.3545813112765	0
3.65	44.4662059122922	0	1	0	1	0	44.4662059122922	0
3.66	44.5784504363279	0	1	0	1	0	44.5784504363279	0
3.67	44.6913131762827	0	1	0	1	0	44.6913131762827	0
3.68	44.8047924436113	0	1	0	1	0	44.8047924436113	0
3.69	44.9188865680725	0	1	0	1	0	44.9188865680725	0
3.7	45.0335938974816	0	1	0	1	0	45.0335938974816	0
3.71	45.1489127974674	0	1	0	1	0	45.1489127974674	0
3.72	45.2648416512324	0	1	0	1	0	45.2648416512324	0
3.73	45.3813788593174	0	1	0	1	0	45.3813788593174	0
3.74	45.49852283937	0	1	0	1	0	45.49852283937	0
3.75	45.6162720259159	0	1	0	1	0	45.6162720259159	0
3.76	45.7346248701349	0	1	0	1	0	45.7346248701349	0
3.77	45.85357983964	0	1	0	1	0	45.85357983964	0
3.78	45.9731354182598	0	1	0	1	0	45.9731354182598	0
3.79	46.0932901058248	0	1	0	1	0	46.0932901058248	0
3.8	46.2140424179566	0	1	0	1	0	46.2140424179566	0
3.81	46.3353908858611	0	1	0	1	0	46.3353908858611	0
3.82	46.4573340561239	0	1	0	1	0	46.4573340561239	0
3.83	46.5798704905103	0	1	0	1	0	46.5798704905103	0
3.84	46.7029987657668	0	1	0	1	0	46.7029987657668	0
3.85	46.826717473427	0	1	0	1	0	46.826717473427	0
3.86	46.9510252196204	0	1	0	1	0	46.9510252196204	0
3.87	47.0759206248829	0	1	0	1	0	47.0759206248829	0
3.88	47.2014023239721	0	1	0	1	0	47.2014023239721	0
3.89	47.3274689656838	0	1	0	1	0	47.3274689656838	0
3.9	47.4541192126724	0	1	0	1	0	47.4541192126724	0
3.91	47.5813517412737	0	1	0	1	0	47.5813517412737	0
3.92	47.70916524133	0	1	0	1	0	47.70916524133	0
3.93	47.837558416019	0	1	0	1	0	47.837558416019	0
3.94	47.9665299816835	0	1	0	1	0	47.9665299816835	0
3.95	48.0960786676659	0	1	0	1	0	48.0960786676659	0
3.96	48.2262032161433	0	1	0	1	0	48.2262032161433	0
3.97	48.3569023819659	0	1	0	1	0	48.3569023819659	0
3.98	48.4881749324984	0	1	0	1	0	48.4881749324984	0
3.99	48.6200196474623	0	1	0	1	0	48.6200196474623	0
4	48.7524353187822	0	1	0	1	0	48.7524353187822	0
4.01	48.8854207504332	0	1	0	1	0	48.8854207504332	0
4.02	49.0189747582911	0	1	0	1	0	49.0189747582911	0
4.03	49.153096169985	0	1	0	1	0	49.153096169985	0
4.04	49.2877838247513	0	1	0	1	0	49.2877838247513	0
4.05	49.423036573291	0	1	0	1	0	49.423036573291	0
4.06	49.5588532776282	0	1	0	1	0	49.5588532776282	0
4.07	49.6952328109709	0	1	0	1	0	49.6952328109709	0
4.08	49.8321740575742	0	1	0	1	0	49.8321740575742	0
4.09	49.9696759126052	0	1	0	1	0	49.9696759126052	0
4.1	50.1077372820097	0	1	0	1	0	50.1077372820097	0
4.11	50.2463570823813	0	1	0	1	0	50.2463570823813	0
4.12	50.3855342408321	0	1	0	1	0	50.3855342408321	0
4.13	50.5252676948654	0	1	0	1	0	50.5252676948654	0
4.14	50.6655563922502	0	1	0	1	0	50.6655563922502	0
4.15	50.8063992908972	0	1	0	1	0	50.8063992908972	0
4.16	50.9477953587377	0	1	0	1	0	50.9477953587377	0
4.17	51.0897435736024	0	1	0	1	0	51.0897435736024	0
4.18	51.232242923104	0	1	0	1	0	51.232242923104	0
4.19	51.3752924045196	0	1	0	1	0	51.3752924045196	0
4.2	51.5188910246763	0	1	0	1	0	51.5188910246763	0
4.21	51.6630377998374	0	1	0	1	0	51.6630377998374	0
4.22	51.8077317555908	0	1	0	1	0	51.8077317555908	0
4.23	51.9529719267386	0	1	0	1	0	51.9529719267386	0
4.24	52.0987573571886	0	1	0	1	0	52.0987573571886	0
4.25	52.2450870998472	0	1	0	1	0	52.2450870998472	0
4.26	52.3919602165135	0	1	0	1	0	52.3919602165135	0
4.27	52.5393757777756	0	1	0	1	0	52.5393757777756	0
4.28	52.6873328629074	0	1	0	1	0	52.6873328629074	0
4.29	52.835830559768	0	1	0	1	0	52.835830559768	0
4.3	52.9848679647013	0	1	0	1	0	52.9848679647013	0
4.31	53.1344441824377	0	1	0	1	0	53.1344441824377	0
4.32	53.2845583259975	0	1	0	1	0	53.2845583259975	0
4.33	53.4352095165945	0	1	0	1	0	53.4352095165945	0
4.34	53.5863968835421	0	1	0	1	0	53.5863968835421	0
4.35	53.7381195641597	0	1	0	1	0	53.7381195641597	0
4.36	53.8903767036817	0	1	0	1	0	53.8903767036817	0
4.37	54.0431674551661	0	1	0	1	0	54.0431674551661	0
4.38	54.1964909794055	0	1	0	1	0	54.1964909794055	0
4.39	54.3503464448391	0	1	0	1	0	54.3503464448391	0
4.4	54.5047330274659	0	1	0	1	0	54.5047330274659	0
4.41	54.6596499107587	0	1	0	1	0	54.6596499107587	0
4.42	54.8150962855797	0	1	0	1	0	54.8150962855797	0
4.43	54.9710713500969	0	1	0	1	0	54.9710713500969	0
4.44	55.1275743097025	0	1	0	1	0	55.1275743097025	0
4.45	55.2846043769307	0	1	0	1	0	55.2846043769307	0
4.46	55.4421607713784	0	1	0	1	0	55.4421607713784	0
4.47	55.6002427196262	0	1	0	1	0	55.6002427196262	0
4.48	55.7588494551598	0	1	0	1	0	55.7588494551598	0
4.49	55.9179802182938	0	1	0	1	0	55.9179802182938	0
4.5	56.0776342560955	0	1	0	1	0	56.0776342560955	0
4.51	56.2378108223101	0	1	0	1	0	56.2378108223101	0
4.52	56.3985091772869	0	1	0	1	0	56.3985091772869	0
4.53	56.5597285879062	0	1	0	1	0	56.5597285879062	0
4.54	56.7214683275076	0	1	0	1	0	56.7214683275076	0
4.55	56.8837276758188	0	1	0	1	0	56.8837276758188	0
4.56	57.0465059188858	0	1	0	1	0	57.0465059188858	0
4.57	57.2098023490036	0	1	0	1	0	57.2098023490036	0
4.58	57.3736162646481	0	1	0	1	0	57.3736162646481	0
4.59	57.5379469704087	0	1	0	1	0	57.5379469704087	0
4.6	57.7027937769216	0	1	0	1	0	57.7027937769216	0
4.61	57.8681560008048	0	1	0	1	0	57.8681560008048	0
4.62	58.0340329645928	0	1	0	1	0	58.0340329645928	0
4.63	58.2004239966731	0	1	0	1	0	58.2004239966731	0
4.64	58.3673284312228	0	1	0	1	0	58.3673284312228	0
4.65	58.5347456081466	0	1	0	1	0	58.5347456081466	0
4.66	58.7026748730154	0	1	0	1	0	58.7026748730154	0
4.67	58.8711155770051	0	1	0	1	0	58.8711155770051	0
4.68	59.0400670768374	0	1	0	1	0	59.0400670768374	0
4.69	59.2095287347205	0	1	0	1	0	59.2095287347205	0
4.7	59.3794999182902	0	1	0	1	0	59.3794999182902	0
4.71	59.549980000553	0	1	0	1	0	59.549980000553	0
4.72	59.7209683598289	0	1	0	1	0	59.7209683598289	0
4.73	59.8924643796951	0	1	0	1	0	59.8924643796951	0
4.74	60.0644674489308	0	1	0	1	0	60.0644674489308	0
4.75	60.2369769614623	0	1	0	1	0	60.2369769614623	0
4.76	60.4099923163088	0	1	0	1	0	60.4099923163088	0
4.77	60.5835129175294	0	1	0	1	0	60.5835129175294	0
4.78	60.7575381741701	0	1	0	1	0	60.7575381741701	0
4.79	60.9320675002117	0	1	0	1	0	60.9320675002117	0
4.8	61.1071003145185	0	1	0	1	0	61.1071003145185	0
4.81	61.2826360407876	0	1	0	1	0	61.2826360407876	0
4.82	61.4586741074986	0	1	0	1	0	61.4586741074986	0
4.83	61.6352139478645	0	1	0	1	0	61.6352139478645	0
4.84	61.812254999782	0	1	0	1	0	61.812254999782	0
4.85	61.989796705784	0	1	0	1	0	61.989796705784	0
4.86	62.1678385129917	0	1	0	1	0	62.1678385129917	0
4.87	62.3463798730672	0	1	0	1	0	62.3463798730672	0
4.88	62.5254202421671	0	1	0	1	0	62.5254202421671	0
4.89	62.7049590808969	0	1	0	1	0	62.7049590808969	0
4.9	62.884995854265	0	1	0	1	0	62.884995854265	0
4.91	63.0655300316386	0	1	0	1	0	63.0655300316386	0
4.92	63.2465610866985	0	1	0	1	0	63.2465610866985	0
4.93	63.4280884973963	0	1	0	1	0	63.4280884973963	0
