# GHZ S RI R 50
1	47.8998621161041	0	1	0	1	0	47.8998621161041	0
1.01	47.5021217251511	0	1	0	1	0	47.5021217251511	0
1.02	47.113271082337	0	1	0	1	0	47.113271082337	0
1.03	46.7330619592511	0	1	0	1	0	46.7330619592511	0
1.04	46.3612556747291	0	1	0	1	0	46.3612556747291	0
1.05	45.9976226402225	0	1	0	1	0	45.9976226402225	0
1.06	45.6419419309017	0	1	0	1	0	45.6419419309017	0
1.07	45.2940008808092	0	1	0	1	0	45.2940008808092	0
1.08	44.9535947005043	0	1	0	1	0	44.9535947005043	0
1.09	44.6205261157553	0	1	0	1	0	44.6205261157553	0
1.1	44.2946050259389	0	1	0	1	0	44.2946050259389	0
1.11	43.9756481809046	0	1	0	1	0	43.9756481809046	0
1.12	43.6634788751503	0	1	0	1	0	43.6634788751503	0
1.13	43.3579266582359	0	1	0	1	0	43.3579266582359	0
1.14	43.0588270604382	0	1	0	1	0	43.0588270604382	0
1.15	42.7660213327205	0	1	0	1	0	42.7660213327205	0
1.16	42.4793562001505	0	1	0	1	0	42.4793562001505	0
1.17	42.1986836279646	0	1	0	1	0	42.1986836279646	0
1.18	41.9238605995267	0	1	0	1	0	41.9238605995267	0
1.19	41.6547489054827	0	1	0	1	0	41.6547489054827	0
1.2	41.391214943457	0	1	0	1	0	41.391214943457	0
1.21	41.1331295276813	0	1	0	1	0	41.1331295276813	0
1.22	40.8803677079864	0	1	0	1	0	40.8803677079864	0
1.23	40.6328085976232	0	1	0	1	0	40.6328085976232	0
1.24	40.3903352094151	0	1	0	1	0	40.3903352094151	0
1.25	40.1528342997753	0	1	0	1	0	40.1528342997753	0
1.26	39.9201962201512	0	1	0	1	0	39.9201962201512	0
1.27	39.6923147754883	0	1	0	1	0	39.6923147754883	0
1.28	39.4690870893273	0	1	0	1	0	39.4690870893273	0
1.29	39.2504134751766	0	1	0	1	0	39.2504134751766	0
1.3	39.0361973138215	0	1	0	1	0	39.0361973138215	0
1.31	38.8263449362521	0	1	0	1	0	38.8263449362521	0
1.32	38.6207655119135	0	1	0	1	0	38.6207655119135	0
1.33	38.4193709419967	0	1	0	1	0	38.4193709419967	0
1.34	38.222075757508	0	1	0	1	0	38.222075757508	0
1.35	38.0287970218682	0	1	0	1	0	38.0287970218682	0
1.36	37.8394542378093	0	1	0	1	0	37.8394542378093	0
1.37	37.6539692583486	0	1	0	1	0	37.6539692583486	0
1.38	37.4722662016333	0	1	0	1	0	37.4722662016333	0
1.39	37.2942713694608	0	1	0	1	0	37.2942713694608	0
1.4	37.1199131692918	0	1	0	1	0	37.1199131692918	0
1.41	36.9491220395807	0	1	0	1	0	36.9491220395807	0
1.42	36.7818303782624	0	1	0	1	0	36.7818303782624	0
1.43	36.6179724742383	0	1	0	1	0	36.6179724742383	0
1.44	36.4574844417183	0	1	0	1	0	36.4574844417183	0
1.45	36.3003041572789	0	1	0	1	0	36.3003041572789	0
1.46	36.1463711995082	0	1	0	1	0	36.1463711995082	0
1.47	35.9956267911143	0	1	0	1	0	35.9956267911143	0
1.48	35.8480137433807	0	1	0	1	0	35.8480137433807	0
1.49	35.7034764028587	0	1	0	1	0	35.7034764028587	0
1.5	35.5619606001914	0	1	0	1	0	35.5619606001914	0
1.51	35.4234136009716	0	1	0	1	0	35.4234136009716	0
1.52	35.28778405854	0	1	0	1	0	35.28778405854	0
1.53	35.1550219686334	0	1	0	1	0	35.1550219686334	0
1.54	35.0250786258006	0	1	0	1	0	35.0250786258006	0
1.55	34.8979065815054	0	1	0	1	0	34.8979065815054	0
1.56	34.7734596038407	0	1	0	1	0	34.7734596038407	0
1.57	34.6516926387823	0	1	0	1	0	34.6516926387823	0
1.58	34.5325617729143	0	1	0	1	0	34.5325617729143	0
1.59	34.4160241975608	0	1	0	1	0	34.4160241975608	0
1.6	34.3020381742628	0	1	0	1	0	34.3020381742628	0
1.61	34.1905630015417	0	1	0	1	0	34.1905630015417	0
1.62	34.0815589828934	0	1	0	1	0	34.0815589828934	0
1.63	33.9749873959616	0	1	0	1	0	33.9749873959616	0
1.64	33.8708104628373	0	1	0	1	0	33.8708104628373	0
1.65	33.7689913214398	0	1	0	1	0	33.7689913214398	0
1.66	33.6694939979314	0	1	0	1	0	33.6694939979314	0
1.67	33.572283380123	0	1	0	1	0	33.572283380123	0
1.68	33.47732519183	0	1	0	1	0	33.47732519183	0
1.69	33.3845859681386	0	1	0	1	0	33.3845859681386	0
1.7	33.2940330315447	0	1	0	1	0	33.2940330315447	0
1.71	33.2056344689302	0	1	0	1	0	33.2056344689302	0
1.72	33.1193591093426	0	1	0	1	0	33.1193591093426	0
1.73	33.035176502545	0	1	0	1	0	33.035176502545	0
1.74	32.9530568983059	0	1	0	1	0	32.9530568983059	0
1.75	32.8729712263992	0	1	0	1	0	32.8729712263992	0
1.76	32.7948910772858	0	1	0	1	0	32.7948910772858	0
1.77	32.7187886834499	0	1	0	1	0	32.7187886834499	0
1.78	32.644636901365	0	1	0	1	0	32.644636901365	0
1.79	32.5724091940637	0	1	0	1	0	32.5724091940637	0
1.8	32.5020796142892	0	1	0	1	0	32.5020796142892	0
1.81	32.4336227882044	0	1	0	1	0	32.4336227882044	0
1.82	32.3670138996393	0	1	0	1	0	32.3670138996393	0
1.83	32.3022286748537	0	1	0	1	0	32.3022286748537	0
1.84	32.2392433677973	0	1	0	1	0	32.2392433677973	0
1.85	32.1780347458481	0	1	0	1	0	32.1780347458481	0
1.86	32.1185800760102	0	1	0	1	0	32.1185800760102	0
1.87	32.0608571115552	0	1	0	1	0	32.0608571115552	0
1.88	32.0048440790891	0	1	0	1	0	32.0048440790891	0
1.89	31.9505196660308	0	1	0	1	0	31.9505196660308	0
1.9	31.8978630084847	0	1	0	1	0	31.8978630084847	0
1.91	31.8468536794958	0	1	0	1	0	31.8468536794958	0
1.92	31.7974716776705	0	1	0	1	0	31.7974716776705	0
1.93	31.7496974161517	0	1	0	1	0	31.7496974161517	0
1.94	31.7035117119354	0	1	0	1	0	31.7035117119354	0
1.95	31.6588957755147	0	1	0	1	0	31.6588957755147	0
1.96	31.6158312008424	0	1	0	1	0	31.6158312008424	0
1.97	31.5742999555979	0	1	0	1	0	31.5742999555979	0
1.98	31.53428437175	0	1	0	1	0	31.53428437175	0
1.99	31.4957671364038	0	1	0	1	0	31.4957671364038	0
2	31.4587312829222	0	1	0	1	0	31.4587312829222	0
2.01	31.4231601823128	0	1	0	1	0	31.4231601823128	0
2.02	31.38903753487	0	1	0	1	0	31.38903753487	0
2.03	31.3563473620647	0	1	0	1	0	31.3563473620647	0
2.04	31.3250739986725	0	1	0	1	0	31.3250739986725	0
2.05	31.2952020851317	0	1	0	1	0	31.2952020851317	0
2.06	31.2667165601245	0	1	0	1	0	31.2667165601245	0
2.07	31.2396026533732	0	1	0	1	0	31.2396026533732	0
2.08	31.2138458786438	0	1	0	1	0	31.2138458786438	0
2.09	31.1894320269508	0	1	0	1	0	31.1894320269508	0
2.1	31.1663471599561	0	1	0	1	0	31.1663471599561	0
2.11	31.1445776035554	0	1	0	1	0	31.1445776035554	0
2.12	31.1241099416466	0	1	0	1	0	31.1241099416466	0
2.13	31.1049310100728	0	1	0	1	0	31.1049310100728	0
2.14	31.0870278907365	0	1	0	1	0	31.0870278907365	0
2.15	31.0703879058766	0	1	0	1	0	31.0703879058766	0
2.16	31.0549986125056	0	1	0	1	0	31.0549986125056	0
2.17	31.0408477969996	0	1	0	1	0	31.0408477969996	0
2.18	31.0279234698379	0	1	0	1	0	31.0279234698379	0
2.19	31.0162138604868	0	1	0	1	0	31.0162138604868	0
2.2	31.0057074124219	0	1	0	1	0	31.0057074124219	0
2.21	30.9963927782869	0	1	0	1	0	30.9963927782869	0
2.22	30.9882588151822	0	1	0	1	0	30.9882588151822	0
2.23	30.9812945800811	0	1	0	1	0	30.9812945800811	0
2.24	30.9754893253679	0	1	0	1	0	30.9754893253679	0
2.25	30.9708324944955	0	1	0	1	0	30.9708324944955	0
2.26	30.9673137177587	0	1	0	1	0	30.9673137177587	0
2.27	30.9649228081781	0	1	0	1	0	30.9649228081781	0
2.28	30.9636497574934	0	1	0	1	0	30.9636497574934	0
2.29	30.9634847322608	0	1	0	1	0	30.9634847322608	0
2.3	30.9644180700532	0	1	0	1	0	30.9644180700532	0
2.31	30.9664402757583	0	1	0	1	0	30.9664402757583	0
2.32	30.9695420179723	0	1	0	1	0	30.9695420179723	0
2.33	30.9737141254874	0	1	0	1	0	30.9737141254874	0
2.34	30.9789475838687	0	1	0	1	0	30.9789475838687	0
2.35	30.9852335321182	0	1	0	1	0	30.9852335321182	0
2.36	30.9925632594244	0	1	0	1	0	30.9925632594244	0
2.37	31.0009282019939	0	1	0	1	0	31.0009282019939	0
2.38	31.0103199399624	0	1	0	1	0	31.0103199399624	0
2.39	31.0207301943839	0	1	0	1	0	31.0207301943839	0
2.4	31.0321508242949	0	1	0	1	0	31.0321508242949	0
2.41	31.0445738238514	0	1	0	1	0	31.0445738238514	0
2.42	31.0579913195377	0	1	0	1	0	31.0579913195377	0
2.43	31.072395567443	0	1	0	1	0	31.072395567443	0
2.44	31.0877789506062	0	1	0	1	0	31.0877789506062	0
2.45	31.1041339764244	0	1	0	1	0	31.1041339764244	0
2.46	31.1214532741259	0	1	0	1	0	31.1214532741259	0
2.47	31.1397295923035	0	1	0	1	0	31.1397295923035	0
2.48	31.1589557965084	0	1	0	1	0	31.1589557965084	0
2.49	31.1791248669013	0	1	0	1	0	31.1791248669013	0
2.5	31.2002298959604	0	1	0	1	0	31.2002298959604	0
2.51	31.2222640862438	0	1	0	1	0	31.2222640862438	0
2.52	31.2452207482056	0	1	0	1	0	31.2452207482056	0
2.53	31.2690932980635	0	1	0	1	0	31.2690932980635	0
2.54	31.2938752557167	0	1	0	1	0	31.2938752557167	0
2.55	31.3195602427131	0	1	0	1	0	31.3195602427131	0
2.56	31.346141980264	0	1	0	1	0	31.346141980264	0
2.57	31.3736142873049	0	1	0	1	0	31.3736142873049	0
2.58	31.4019710786018	0	1	0	1	0	31.4019710786018	0
2.59	31.4312063629013	0	1	0	1	0	31.4312063629013	0
2.6	31.4613142411228	0	1	0	1	0	31.4613142411228	0
2.61	31.4922889045933	0	1	0	1	0	31.4922889045933	0
2.62	31.5241246333219	0	1	0	1	0	31.5241246333219	0
2.63	31.5568157943135	0	1	0	1	0	31.5568157943135	0
2.64	31.5903568399217	0	1	0	1	0	31.5903568399217	0
2.65	31.6247423062379	0	1	0	1	0	31.6247423062379	0
2.66	31.6599668115177	0	1	0	1	0	31.6599668115177	0
2.67	31.6960250546421	0	1	0	1	0	31.6960250546421	0
2.68	31.7329118136131	0	1	0	1	0	31.7329118136131	0
2.69	31.7706219440835	0	1	0	1	0	31.7706219440835	0
2.7	31.8091503779183	0	1	0	1	0	31.8091503779183	0
2.71	31.8484921217893	0	1	0	1	0	31.8484921217893	0
2.72	31.8886422557993	0	1	0	1	0	31.8886422557993	0
2.73	31.9295959321376	0	1	0	1	0	31.9295959321376	0
2.74	31.9713483737646	0	1	0	1	0	31.9713483737646	0
2.75	32.0138948731247	0	1	0	1	0	32.0138948731247	0
2.76	32.0572307908879	0	1	0	1	0	32.0572307908879	0
2.77	32.1013515547181	0	1	0	1	0	32.1013515547181	0
2.78	32.1462526580681	0	1	0	1	0	32.1462526580681	0
2.79	32.1919296590007	0	1	0	1	0	32.1919296590007	0
2.8	32.2383781790352	0	1	0	1	0	32.2383781790352	0
2.81	32.2855939020177	0	1	0	1	0	32.2855939020177	0
2.82	32.3335725730166	0	1	0	1	0	32.3335725730166	0
2.83	32.3823099972406	0	1	0	1	0	32.3823099972406	0
2.84	32.4318020389798	0	1	0	1	0	32.4318020389798	0
2.85	32.4820446205695	0	1	0	1	0	32.4820446205695	0
2.86	32.5330337213753	0	1	0	1	0	32.5330337213753	0
2.87	32.5847653767995	0	1	0	1	0	32.5847653767995	0
2.88	32.6372356773082	0	1	0	1	0	32.6372356773082	0
2.89	32.6904407674788	0	1	0	1	0	32.6904407674788	0
2.9	32.7443768450668	0	1	0	1	0	32.7443768450668	0
2.91	32.7990401600923	0	1	0	1	0	32.7990401600923	0
2.92	32.8544270139449	0	1	0	1	0	32.8544270139449	0
2.93	32.9105337585075	0	1	0	1	0	32.9105337585075	0
2.94	32.9673567952969	0	1	0	1	0	32.9673567952969	0
2.95	33.0248925746229	0	1	0	1	0	33.0248925746229	0
2.96	33.0831375947643	0	1	0	1	0	33.0831375947643	0
2.97	33.1420884011609	0	1	0	1	0	33.1420884011609	0
2.98	33.2017415856228	0	1	0	1	0	33.2017415856228	0
2.99	33.2620937855541	0	1	0	1	0	33.2620937855541	0
3	33.3231416831939	0	1	0	1	0	33.3231416831939	0
3.01	33.384882004871	0	1	0	1	0	33.384882004871	0
3.02	33.4473115202742	0	1	0	1	0	33.4473115202742	0
3.03	33.5104270417364	0	1	0	1	0	33.5104270417364	0
3.04	33.5742254235338	0	1	0	1	0	33.5742254235338	0
3.05	33.6387035611978	0	1	0	1	0	33.6387035611978	0
3.06	33.7038583908412	0	1	0	1	0	33.7038583908412	0
3.07	33.7696868884971	0	1	0	1	0	33.7696868884971	0
3.08	33.8361860694709	0	1	0	1	0	33.8361860694709	0
3.09	33.9033529877048	0	1	0	1	0	33.9033529877048	0
3.1	33.9711847351547	0	1	0	1	0	33.9711847351547	0
3.11	34.039678441179	0	1	0	1	0	34.039678441179	0
3.12	34.1088312719391	0	1	0	1	0	34.1088312719391	0
3.13	34.1786404298117	0	1	0	1	0	34.1786404298117	0
3.14	34.2491031528119	0	1	0	1	0	34.2491031528119	0
3.15	34.3202167140279	0	1	0	1	0	34.3202167140279	0
3.16	34.3919784210653	0	1	0	1	0	34.3919784210653	0
3.17	34.4643856155036	0	1	0	1	0	34.4643856155036	0
3.18	34.5374356723612	0	1	0	1	0	34.5374356723612	0
3.19	34.6111259995719	0	1	0	1	0	34.6111259995719	0
3.2	34.6854540374702	0	1	0	1	0	34.6854540374702	0
3.21	34.7604172582867	0	1	0	1	0	34.7604172582867	0
3.22	34.8360131656529	0	1	0	1	0	34.8360131656529	0
3.23	34.9122392941152	0	1	0	1	0	34.9122392941152	0
3.24	34.9890932086574	0	1	0	1	0	34.9890932086574	0
3.25	35.0665725042331	0	1	0	1	0	35.0665725042331	0
3.26	35.1446748053054	0	1	0	1	0	35.1446748053054	0
3.27	35.2233977653961	0	1	0	1	0	35.2233977653961	0
3.28	35.3027390666425	0	1	0	1	0	35.3027390666425	0
3.29	35.3826964193627	0	1	0	1	0	35.3826964193627	0
3.3	35.4632675616284	0	1	0	1	0	35.4632675616284	0
3.31	35.5444502588458	0	1	0	1	0	35.5444502588458	0
3.32	35.626242303344	0	1	0	1	0	35.626242303344	0
3.33	35.7086415139707	0	1	0	1	0	35.7086415139707	0
3.34	35.791645735695	0	1	0	1	0	35.791645735695	0
3.35	35.8752528392179	0	1	0	1	0	35.8752528392179	0
3.36	35.959460720589	0	1	0	1	0	35.959460720589	0
3.37	36.0442673008309	0	1	0	1	0	36.0442673008309	0
3.38	36.1296705255692	0	1	0	1	0	36.1296705255692	0
3.39	36.21566836467	0	1	0	1	0	36.21566836467	0
3.4	36.3022588118834	0	1	0	1	0	36.3022588118834	0
3.41	36.3894398844931	0	1	0	1	0	36.3894398844931	0
3.42	36.4772096229726	0	1	0	1	0	36.4772096229726	0
3.43	36.5655660906469	0	1	0	1	0	36.5655660906469	0
3.44	36.6545073733605	0	1	0	1	0	36.6545073733605	0
3.45	36.7440315791512	0	1	0	1	0	36.7440315791512	0
3.46	36.8341368379288	0	1	0	1	0	36.8341368379288	0
3.47	36.9248213011607	0	1	0	1	0	36.9248213011607	0
3.48	37.0160831415617	0	1	0	1	0	37.0160831415617	0
3.49	37.1079205527895	0	1	0	1	0	37.1079205527895	0
3.5	37.2003317491461	0	1	0	1	0	37.2003317491461	0
3.51	37.2933149652829	0	1	0	1	0	37.2933149652829	0
3.52	37.3868684559124	0	1	0	1	0	37.3868684559124	0
3.53	37.4809904955236	0	1	0	1	0	37.4809904955236	0
3.54	37.5756793781028	0	1	0	1	0	37.5756793781028	0
3.55	37.6709334168591	0	1	0	1	0	37.6709334168591	0
3.56	37.7667509439541	0	1	0	1	0	37.7667509439541	0
3.57	37.8631303102368	0	1	0	1	0	37.8631303102368	0
3.58	37.9600698849824	0	1	0	1	0	37.9600698849824	0
3.59	38.0575680556359	0	1	0	1	0	38.0575680556359	0
3.6	38.1556232275595	0	1	0	1	0	38.1556232275595	0
3.61	38.2542338237843	0	1	0	1	0	38.2542338237843	0
3.62	38.3533982847667	0	1	0	1	0	38.3533982847667	0
3.63	38.4531150681482	0	1	0	1	0	38.4531150681482	0
3.64	38.5533826485191	0	1	0	1	0	38.5533826485191	0
3.65	38.6541995171867	0	1	0	1	0	38.6541995171867	0
3.66	38.7555641819465	0	1	0	1	0	38.7555641819465	0
3.67	38.8574751668582	0	1	0	1	0	38.8574751668582	0
3.68	38.9599310120239	0	1	0	1	0	38.9599310120239	0
3.69	39.0629302733715	0	1	0	1	0	39.0629302733715	0
3.7	39.1664715224402	0	1	0	1	0	39.1664715224402	0
3.71	39.2705533461706	0	1	0	1	0	39.2705533461706	0
3.72	39.3751743466975	0	1	0	1	0	39.3751743466975	0
3.73	39.480333141146	0	1	0	1	0	39.480333141146	0
3.74	39.5860283614315	0	1	0	1	0	39.5860283614315	0
3.75	39.6922586540623	0	1	0	1	0	39.6922586540623	0
3.76	39.7990226799453	0	1	0	1	0	39.7990226799453	0
3.77	39.9063191141957	0	1	0	1	0	39.9063191141957	0
3.78	40.0141466459483	0	1	0	1	0	40.0141466459483	0
3.79	40.122503978173	0	1	0	1	0	40.122503978173	0
3.8	40.2313898274927	0	1	0	1	0	40.2313898274927	0
3.81	40.3408029240041	0	1	0	1	0	40.3408029240041	0
3.82	40.4507420111011	0	1	0	1	0	40.4507420111011	0
3.83	40.5612058453016	0	1	0	1	0	40.5612058453016	0
3.84	40.6721931960765	0	1	0	1	0	40.6721931960765	0
3.85	40.7837028456813	0	1	0	1	0	40.7837028456813	0
3.86	40.8957335889906	0	1	0	1	0	40.8957335889906	0
3.87	41.0082842333351	0	1	0	1	0	41.0082842333351	0
3.88	41.1213535983411	0	1	0	1	0	41.1213535983411	0
3.89	41.2349405157725	0	1	0	1	0	41.2349405157725	0
3.9	41.3490438293749	0	1	0	1	0	41.3490438293749	0
3.91	41.4636623947227	0	1	0	1	0	41.4636623947227	0
3.92	41.5787950790681	0	1	0	1	0	41.5787950790681	0
3.93	41.6944407611926	0	1	0	1	0	41.6944407611926	0
3.94	41.8105983312606	0	1	0	1	0	41.8105983312606	0
3.95	41.9272666906752	0	1	0	1	0	41.9272666906752	0
3.96	42.0444447519366	0	1	0	1	0	42.0444447519366	0
3.97	42.1621314385022	0	1	0	1	0	42.1621314385022	0
3.98	42.2803256846488	0	1	0	1	0	42.2803256846488	0
3.99	42.3990264353372	0	1	0	1	0	42.3990264353372	0
4	42.5182326460787	0	1	0	1	0	42.5182326460787	0
4.01	42.6379432828031	0	1	0	1	0	42.6379432828031	0
4.02	42.7581573217299	0	1	0	1	0	42.7581573217299	0
4.03	42.8788737492399	0	1	0	1	0	42.8788737492399	0
4.04	43.0000915617498	0	1	0	1	0	43.0000915617498	0
4.05	43.1218097655882	0	1	0	1	0	43.1218097655882	0
4.06	43.2440273768738	0	1	0	1	0	43.2440273768738	0
4.07	43.3667434213945	0	1	0	1	0	43.3667434213945	0
4.08	43.4899569344896	0	1	0	1	0	43.4899569344896	0
4.09	43.6136669609326	0	1	0	1	0	43.6136669609326	0
4.1	43.7378725548164	0	1	0	1	0	43.7378725548164	0
4.11	43.8625727794396	0	1	0	1	0	43.8625727794396	0
4.12	43.9877667071953	0	1	0	1	0	43.9877667071953	0
4.13	44.1134534194604	0	1	0	1	0	44.1134534194604	0
4.14	44.2396320064875	0	1	0	1	0	44.2396320064875	0
4.15	44.3663015672979	0	1	0	1	0	44.3663015672979	0
4.16	44.493461209576	0	1	0	1	0	44.493461209576	0
4.17	44.6211100495657	0	1	0	1	0	44.6211100495657	0
4.18	44.749247211968	0	1	0	1	0	44.749247211968	0
4.19	44.8778718298397	0	1	0	1	0	44.8778718298397	0
4.2	45.0069830444944	0	1	0	1	0	45.0069830444944	0
4.21	45.1365800054043	0	1	0	1	0	45.1365800054043	0
4.22	45.2666618701032	0	1	0	1	0	45.2666618701032	0
4.23	45.3972278040918	0	1	0	1	0	45.3972278040918	0
4.24	45.5282769807432	0	1	0	1	0	45.5282769807432	0
4.25	45.6598085812107	0	1	0	1	0	45.6598085812107	0
4.26	45.7918217943361	0	1	0	1	0	45.7918217943361	0
4.27	45.92431581656	0	1	0	1	0	45.92431581656	0
4.28	46.057289851833	0	1	0	1	0	46.057289851833	0
4.29	46.1907431115278	0	1	0	1	0	46.1907431115278	0
4.3	46.3246748143535	0	1	0	1	0	46.3246748143535	0
4.31	46.4590841862698	0	1	0	1	0	46.4590841862698	0
4.32	46.5939704604036	0	1	0	1	0	46.5939704604036	0
4.33	46.7293328769663	0	1	0	1	0	46.7293328769663	0
4.34	46.8651706831716	0	1	0	1	0	46.8651706831716	0
4.35	47.0014831331557	0	1	0	1	0	47.0014831331557	0
4.36	47.1382694878972	0	1	0	1	0	47.1382694878972	0
4.37	47.2755290151395	0	1	0	1	0	47.2755290151395	0
4.38	47.4132609893133	0	1	0	1	0	47.4132609893133	0
4.39	47.5514646914601	0	1	0	1	0	47.5514646914601	0
4.4	47.6901394091578	0	1	0	1	0	47.6901394091578	0
4.41	47.8292844364458	0	1	0	1	0	47.8292844364458	0
4.42	47.9688990737526	0	1	0	1	0	47.9688990737526	0
4.43	48.108982627823	0	1	0	1	0	48.108982627823	0
4.44	48.2495344116478	0	1	0	1	0	48.2495344116478	0
4.45	48.3905537443929	0	1	0	1	0	48.3905537443929	0
4.46	48.5320399513302	0	1	0	1	0	48.5320399513302	0
4.47	48.6739923637697	0	1	0	1	0	48.6739923637697	0
4.48	48.8164103189918	0	1	0	1	0	48.8164103189918	0
4.49	48.9592931601808	0	1	0	1	0	48.9592931601808	0
4.5	49.1026402363592	0	1	0	1	0	49.1026402363592	0
4.51	49.2464509023235	0	1	0	1	0	49.2464509023235	0
4.52	49.3907245185797	0	1	0	1	0	49.3907245185797	0
4.53	49.5354604512806	0	1	0	1	0	49.5354604512806	0
4.54	49.6806580721636	0	1	0	1	0	49.6806580721636	0
4.55	49.8263167584892	0	1	0	1	0	49.8263167584892	0
4.56	49.9724358929807	0	1	0	1	0	49.9724358929807	0
4.57	50.119014863764	0	1	0	1	0	50.119014863764	0
4.58	50.2660530643092	0	1	0	1	0	50.2660530643092	0
4.59	50.4135498933718	0	1	0	1	0	50.4135498933718	0
4.6	50.5615047549356	0	1	0	1	0	50.5615047549356	0
4.61	50.7099170581559	0	1	0	1	0	50.7099170581559	0
4.62	50.8587862173035	0	1	0	1	0	50.8587862173035	0
4.63	51.0081116517097	0	1	0	1	0	51.0081116517097	0
4.64	51.1578927857113	0	1	0	1	0	51.1578927857113	0
4.65	51.3081290485972	0	1	0	1	0	51.3081290485972	0
4.66	51.458819874555	0	1	0	1	0	51.458819874555	0
4.67	51.6099647026187	0	1	0	1	0	51.6099647026187	0
4.68	51.761562976617	0	1	0	1	0	51.761562976617	0
4.69	51.9136141451219	0	1	0	1	0	51.9136141451219	0
4.7	52.0661176613985	0	1	0	1	0	52.0661176613985	0
4.71	52.219072983355	0	1	0	1	0	52.219072983355	0
4.72	52.3724795734936	0	1	0	1	0	52.3724795734936	0
4.73	52.5263368988622	0	1	0	1	0	52.5263368988622	0
4.74	52.6806444310057	0	1	0	1	0	52.6806444310057	0
4.75	52.8354016459197	0	1	0	1	0	52.8354016459197	0
4.76	52.9906080240026	0	1	0	1	0	52.9906080240026	0
4.77	53.1462630500107	0	1	0	1	0	53.1462630500107	0
4.78	53.3023662130114	0	1	0	1	0	53.3023662130114	0
4.79	53.4589170063391	0	1	0	1	0	53.4589170063391	0
4.8	53.6159149275502	0	1	0	1	0	53.6159149275502	0
4.81	53.7733594783796	0	1	0	1	0	53.7733594783796	0
4.82	53.9312501646971	0	1	0	1	0	53.9312501646971	0
4.83	54.0895864964646	0	1	0	1	0	54.0895864964646	0
4.84	54.2483679876941	0	1	0	1	0	54.2483679876941	0
4.85	54.4075941564056	0	1	0	1	0	54.4075941564056	0
4.86	54.567264524586	0	1	0	1	0	54.567264524586	0
4.87	54.7273786181485	0	1	0	1	0	54.7273786181485	0
4.88	54.8879359668922	0	1	0	1	0	54.8879359668922	0
4.89	55.0489361044623	0	1	0	1	0	55.0489361044623	0
4.9	55.2103785683112	0	1	0	1	0	55.2103785683112	0
4.91	55.3722628996593	0	1	0	1	0	55.3722628996593	0
4.92	55.5345886434571	0	1	0	1	0	55.5345886434571	0
4.93	55.6973553483471	0	1	0	1	0	55.6973553483471	0
