# GHZ S RI R 50
1	47.2117739851856	0	1	0	1	0	47.2117739851856	0
1.01	46.8313481337508	0	1	0	1	0	46.8313481337508	0
1.02	46.4593882222627	0	1	0	1	0	46.4593882222627	0
1.03	46.0956575396159	0	1	0	1	0	46.0956575396159	0
1.04	45.7399284789779	0	1	0	1	0	45.7399284789779	0
1.05	45.3919821042528	0	1	0	1	0	45.3919821042528	0
1.06	45.0516077410841	0	1	0	1	0	45.0516077410841	0
1.07	44.7186025907924	0	1	0	1	0	44.7186025907924	0
1.08	44.3927713657603	0	1	0	1	0	44.3927713657603	0
1.09	44.0739259448885	0	1	0	1	0	44.0739259448885	0
1.1	43.761885047845	0	1	0	1	0	43.761885047845	0
1.11	43.4564739269223	0	1	0	1	0	43.4564739269223	0
1.12	43.1575240754026	0	1	0	1	0	43.1575240754026	0
1.13	42.8648729514074	0	1	0	1	0	42.8648729514074	0
1.14	42.5783637162823	0	1	0	1	0	42.5783637162823	0
1.15	42.2978449866303	0	1	0	1	0	42.2978449866303	0
1.16	42.0231705991715	0	1	0	1	0	42.0231705991715	0
1.17	41.7541993876613	0	1	0	1	0	41.7541993876613	0
1.18	41.4907949711516	0	1	0	1	0	41.4907949711516	0
1.19	41.2328255529276	0	1	0	1	0	41.2328255529276	0
1.2	40.9801637294985	0	1	0	1	0	40.9801637294985	0
1.21	40.7326863090591	0	1	0	1	0	40.7326863090591	0
1.22	40.4902741388799	0	1	0	1	0	40.4902741388799	0
1.23	40.2528119411167	0	1	0	1	0	40.2528119411167	0
1.24	40.0201881565656	0	1	0	1	0	40.0201881565656	0
1.25	39.7922947959171	0	1	0	1	0	39.7922947959171	0
1.26	39.5690272980939	0	1	0	1	0	39.5690272980939	0
1.27	39.3502843952809	0	1	0	1	0	39.3502843952809	0
1.28	39.1359679842822	0	1	0	1	0	39.1359679842822	0
1.29	38.9259830038614	0	1	0	1	0	38.9259830038614	0
1.3	38.7202373177434	0	1	0	1	0	38.7202373177434	0
1.31	38.5186416029743	0	1	0	1	0	38.5186416029743	0
1.32	38.3211092433565	0	1	0	1	0	38.3211092433565	0
1.33	38.1275562276908	0	1	0	1	0	38.1275562276908	0
1.34	37.9379010525749	0	1	0	1	0	37.9379010525749	0
1.35	37.7520646295223	0	1	0	1	0	37.7520646295223	0
1.36	37.5699701961782	0	1	0	1	0	37.5699701961782	0
1.37	37.3915432314247	0	1	0	1	0	37.3915432314247	0
1.38	37.2167113741762	0	1	0	1	0	37.2167113741762	0
1.39	37.0454043456804	0	1	0	1	0	37.0454043456804	0
1.4	36.8775538751495	0	1	0	1	0	36.8775538751495	0
1.41	36.7130936285555	0	1	0	1	0	36.7130936285555	0
1.42	36.5519591404348	0	1	0	1	0	36.5519591404348	0
1.43	36.3940877485533	0	1	0	1	0	36.3940877485533	0
1.44	36.2394185312945	0	1	0	1	0	36.2394185312945	0
1.45	36.0878922476386	0	1	0	1	0	36.0878922476386	0
1.46	35.9394512796069	0	1	0	1	0	35.9394512796069	0
1.47	35.7940395770572	0	1	0	1	0	35.7940395770572	0
1.48	35.651602604716	0	1	0	1	0	35.651602604716	0
1.49	35.5120872913439	0	1	0	1	0	35.5120872913439	0
1.5	35.3754419809345	0	1	0	1	0	35.3754419809345	0
1.51	35.2416163858526	0	1	0	1	0	35.2416163858526	0
1.52	35.1105615418216	0	1	0	1	0	35.1105615418216	0
1.53	34.9822297646769	0	1	0	1	0	34.9822297646769	0
1.54	34.8565746088035	0	1	0	1	0	34.8565746088035	0
1.55	34.7335508271831	0	1	0	1	0	34.7335508271831	0
1.56	34.6131143329771	0	1	0	1	0	34.6131143329771	0
1.57	34.4952221625786	0	1	0	1	0	34.4952221625786	0
1.58	34.379832440067	0	1	0	1	0	34.379832440067	0
1.59	34.2669043430039	0	1	0	1	0	34.2669043430039	0
1.6	34.1563980695118	0	1	0	1	0	34.1563980695118	0
1.61	34.0482748065798	0	1	0	1	0	34.0482748065798	0
1.62	33.9424966995431	0	1	0	1	0	33.9424966995431	0
1.63	33.8390268226854	0	1	0	1	0	33.8390268226854	0
1.64	33.7378291509179	0	1	0	1	0	33.7378291509179	0
1.65	33.6388685324871	0	1	0	1	0	33.6388685324871	0
1.66	33.5421106626699	0	1	0	1	0	33.5421106626699	0
1.67	33.4475220584131	0	1	0	1	0	33.4475220584131	0
1.68	33.3550700338789	0	1	0	1	0	33.3550700338789	0
1.69	33.2647226768591	0	1	0	1	0	33.2647226768591	0
1.7	33.1764488260208	0	1	0	1	0	33.1764488260208	0
1.71	33.0902180489513	0	1	0	1	0	33.0902180489513	0
1.72	33.0060006209682	0	1	0	1	0	33.0060006209682	0
1.73	32.9237675046652	0	1	0	1	0	32.9237675046652	0
1.74	32.8434903301625	0	1	0	1	0	32.8434903301625	0
1.75	32.7651413760347	0	1	0	1	0	32.7651413760347	0
1.76	32.6886935508888	0	1	0	1	0	32.6886935508888	0
1.77	32.6141203755668	0	1	0	1	0	32.6141203755668	0
1.78	32.5413959659476	0	1	0	1	0	32.5413959659476	0
1.79	32.4704950163266	0	1	0	1	0	32.4704950163266	0
1.8	32.4013927833481	0	1	0	1	0	32.4013927833481	0
1.81	32.3340650704707	0	1	0	1	0	32.3340650704707	0
1.82	32.2684882129452	0	1	0	1	0	32.2684882129452	0
1.83	32.2046390632849	0	1	0	1	0	32.2046390632849	0
1.84	32.142494977209	0	1	0	1	0	32.142494977209	0
1.85	32.0820338000431	0	1	0	1	0	32.0820338000431	0
1.86	32.0232338535571	0	1	0	1	0	32.0232338535571	0
1.87	31.9660739232265	0	1	0	1	0	31.9660739232265	0
1.88	31.9105332458997	0	1	0	1	0	31.9105332458997	0
1.89	31.8565914978568	0	1	0	1	0	31.8565914978568	0
1.9	31.8042287832458	0	1	0	1	0	31.8042287832458	0
1.91	31.7534256228817	0	1	0	1	0	31.7534256228817	0
1.92	31.7041629433957	0	1	0	1	0	31.7041629433957	0
1.93	31.6564220667222	0	1	0	1	0	31.6564220667222	0
1.94	31.6101846999103	0	1	0	1	0	31.6101846999103	0
1.95	31.565432925249	0	1	0	1	0	31.565432925249	0
1.96	31.5221491906951	0	1	0	1	0	31.5221491906951	0
1.97	31.4803163005918	0	1	0	1	0	31.4803163005918	0
1.98	31.4399174066695	0	1	0	1	0	31.4399174066695	0
1.99	31.4009359993172	0	1	0	1	0	31.4009359993172	0
2	31.3633558991161	0	1	0	1	0	31.3633558991161	0
2.01	31.3271612486259	0	1	0	1	0	31.3271612486259	0
2.02	31.2923365044152	0	1	0	1	0	31.2923365044152	0
2.03	31.2588664293268	0	1	0	1	0	31.2588664293268	0
2.04	31.2267360849715	0	1	0	1	0	31.2267360849715	0
2.05	31.1959308244407	0	1	0	1	0	31.1959308244407	0
2.06	31.1664362852321	0	1	0	1	0	31.1664362852321	0
2.07	31.1382383823793	0	1	0	1	0	31.1382383823793	0
2.08	31.1113233017808	0	1	0	1	0	31.1113233017808	0
2.09	31.08567749372	0	1	0	1	0	31.08567749372	0
2.1	31.0612876665698	0	1	0	1	0	31.0612876665698	0
2.11	31.0381407806773	0	1	0	1	0	31.0381407806773	0
2.12	31.0162240424208	0	1	0	1	0	31.0162240424208	0
2.13	30.9955248984342	0	1	0	1	0	30.9955248984342	0
2.14	30.9760310299939	0	1	0	1	0	30.9760310299939	0
2.15	30.957730347562	0	1	0	1	0	30.957730347562	0
2.16	30.9406109854806	0	1	0	1	0	30.9406109854806	0
2.17	30.9246612968139	0	1	0	1	0	30.9246612968139	0
2.18	30.9098698483313	0	1	0	1	0	30.9098698483313	0
2.19	30.896225415628	0	1	0	1	0	30.896225415628	0
2.2	30.8837169783797	0	1	0	1	0	30.8837169783797	0
2.21	30.8723337157249	0	1	0	1	0	30.8723337157249	0
2.22	30.8620650017724	0	1	0	1	0	30.8620650017724	0
2.23	30.8529004012301	0	1	0	1	0	30.8529004012301	0
2.24	30.8448296651503	0	1	0	1	0	30.8448296651503	0
2.25	30.8378427267889	0	1	0	1	0	30.8378427267889	0
2.26	30.8319296975742	0	1	0	1	0	30.8319296975742	0
2.27	30.8270808631825	0	1	0	1	0	30.8270808631825	0
2.28	30.8232866797169	0	1	0	1	0	30.8232866797169	0
2.29	30.8205377699859	0	1	0	1	0	30.8205377699859	0
2.3	30.8188249198799	0	1	0	1	0	30.8188249198799	0
2.31	30.8181390748406	0	1	0	1	0	30.8181390748406	0
2.32	30.8184713364232	0	1	0	1	0	30.8184713364232	0
2.33	30.8198129589456	0	1	0	1	0	30.8198129589456	0
2.34	30.8221553462246	0	1	0	1	0	30.8221553462246	0
2.35	30.8254900483951	0	1	0	1	0	30.8254900483951	0
2.36	30.8298087588099	0	1	0	1	0	30.8298087588099	0
2.37	30.8351033110186	0	1	0	1	0	30.8351033110186	0
2.38	30.8413656758219	0	1	0	1	0	30.8413656758219	0
2.39	30.8485879584004	0	1	0	1	0	30.8485879584004	0
2.4	30.8567623955151	0	1	0	1	0	30.8567623955151	0
2.41	30.8658813527774	0	1	0	1	0	30.8658813527774	0
2.42	30.8759373219869	0	1	0	1	0	30.8759373219869	0
2.43	30.886922918535	0	1	0	1	0	30.886922918535	0
2.44	30.8988308788725	0	1	0	1	0	30.8988308788725	0
2.45	30.9116540580383	0	1	0	1	0	30.9116540580383	0
2.46	30.9253854272498	0	1	0	1	0	30.9253854272498	0
2.47	30.940018071551	0	1	0	1	0	30.940018071551	0
2.48	30.955545187517	0	1	0	1	0	30.955545187517	0
2.49	30.9719600810153	0	1	0	1	0	30.9719600810153	0
2.5	30.9892561650192	0	1	0	1	0	30.9892561650192	0
2.51	31.0074269574748	0	1	0	1	0	31.0074269574748	0
2.52	31.0264660792178	0	1	0	1	0	31.0264660792178	0
2.53	31.0463672519403	0	1	0	1	0	31.0463672519403	0
2.54	31.0671242962053	0	1	0	1	0	31.0671242962053	0
2.55	31.0887311295082	0	1	0	1	0	31.0887311295082	0
2.56	31.1111817643836	0	1	0	1	0	31.1111817643836	0
2.57	31.1344703065562	0	1	0	1	0	31.1344703065562	0
2.58	31.1585909531347	0	1	0	1	0	31.1585909531347	0
2.59	31.1835379908478	0	1	0	1	0	31.1835379908478	0
2.6	31.2093057943208	0	1	0	1	0	31.2093057943208	0
2.61	31.2358888243916	0	1	0	1	0	31.2358888243916	0
2.62	31.2632816264652	0	1	0	1	0	31.2632816264652	0
2.63	31.2914788289066	0	1	0	1	0	31.2914788289066	0
2.64	31.320475141469	0	1	0	1	0	31.320475141469	0
2.65	31.3502653537584	0	1	0	1	0	31.3502653537584	0
2.66	31.3808443337326	0	1	0	1	0	31.3808443337326	0
2.67	31.4122070262339	0	1	0	1	0	31.4122070262339	0
2.68	31.4443484515548	0	1	0	1	0	31.4443484515548	0
2.69	31.4772637040355	0	1	0	1	0	31.4772637040355	0
2.7	31.5109479506924	0	1	0	1	0	31.5109479506924	0
2.71	31.5453964298778	0	1	0	1	0	31.5453964298778	0
2.72	31.5806044499681	0	1	0	1	0	31.5806044499681	0
2.73	31.6165673880812	0	1	0	1	0	31.6165673880812	0
2.74	31.6532806888227	0	1	0	1	0	31.6532806888227	0
2.75	31.6907398630583	0	1	0	1	0	31.6907398630583	0
2.76	31.7289404867136	0	1	0	1	0	31.7289404867136	0
2.77	31.7678781995998	0	1	0	1	0	31.7678781995998	0
2.78	31.8075487042646	0	1	0	1	0	31.8075487042646	0
2.79	31.847947764868	0	1	0	1	0	31.847947764868	0
2.8	31.8890712060818	0	1	0	1	0	31.8890712060818	0
2.81	31.9309149120134	0	1	0	1	0	31.9309149120134	0
2.82	31.9734748251513	0	1	0	1	0	31.9734748251513	0
2.83	32.0167469453342	0	1	0	1	0	32.0167469453342	0
2.84	32.0607273287411	0	1	0	1	0	32.0607273287411	0
2.85	32.1054120869027	0	1	0	1	0	32.1054120869027	0
2.86	32.1507973857342	0	1	0	1	0	32.1507973857342	0
2.87	32.1968794445872	0	1	0	1	0	32.1968794445872	0
2.88	32.2436545353225	0	1	0	1	0	32.2436545353225	0
2.89	32.2911189814013	0	1	0	1	0	32.2911189814013	0
2.9	32.3392691569959	0	1	0	1	0	32.3392691569959	0
2.91	32.3881014861179	0	1	0	1	0	32.3881014861179	0
2.92	32.4376124417651	0	1	0	1	0	32.4376124417651	0
2.93	32.4877985450858	0	1	0	1	0	32.4877985450858	0
2.94	32.5386563645592	0	1	0	1	0	32.5386563645592	0
2.95	32.5901825151938	0	1	0	1	0	32.5901825151938	0
2.96	32.6423736577412	0	1	0	1	0	32.6423736577412	0
2.97	32.6952264979261	0	1	0	1	0	32.6952264979261	0
2.98	32.7487377856915	0	1	0	1	0	32.7487377856915	0
2.99	32.8029043144597	0	1	0	1	0	32.8029043144597	0
3	32.857722920407	0	1	0	1	0	32.857722920407	0
3.01	32.9131904817541	0	1	0	1	0	32.9131904817541	0
3.02	32.9693039180699	0	1	0	1	0	32.9693039180699	0
3.03	33.0260601895887	0	1	0	1	0	33.0260601895887	0
3.04	33.083456296542	0	1	0	1	0	33.083456296542	0
3.05	33.1414892785024	0	1	0	1	0	33.1414892785024	0
3.06	33.200156213741	0	1	0	1	0	33.200156213741	0
3.07	33.2594542185969	0	1	0	1	0	33.2594542185969	0
3.08	33.3193804468594	0	1	0	1	0	33.3193804468594	0
3.09	33.379932089162	0	1	0	1	0	33.379932089162	0
3.1	33.4411063723881	0	1	0	1	0	33.4411063723881	0
3.11	33.502900559088	0	1	0	1	0	33.502900559088	0
3.12	33.5653119469077	0	1	0	1	0	33.5653119469077	0
3.13	33.628337868028	0	1	0	1	0	33.628337868028	0
3.14	33.6919756886148	0	1	0	1	0	33.6919756886148	0
3.15	33.7562228082793	0	1	0	1	0	33.7562228082793	0
3.16	33.8210766595491	0	1	0	1	0	33.8210766595491	0
3.17	33.8865347073489	0	1	0	1	0	33.8865347073489	0
3.18	33.9525944484913	0	1	0	1	0	33.9525944484913	0
3.19	34.0192534111767	0	1	0	1	0	34.0192534111767	0
3.2	34.0865091545029	0	1	0	1	0	34.0865091545029	0
3.21	34.154359267984	0	1	0	1	0	34.154359267984	0
3.22	34.2228013710782	0	1	0	1	0	34.2228013710782	0
3.23	34.2918331127239	0	1	0	1	0	34.2918331127239	0
3.24	34.3614521708849	0	1	0	1	0	34.3614521708849	0
3.25	34.4316562521042	0	1	0	1	0	34.4316562521042	0
3.26	34.5024430910649	0	1	0	1	0	34.5024430910649	0
3.27	34.5738104501609	0	1	0	1	0	34.5738104501609	0
3.28	34.6457561190738	0	1	0	1	0	34.6457561190738	0
3.29	34.7182779143581	0	1	0	1	0	34.7182779143581	0
3.3	34.7913736790347	0	1	0	1	0	34.7913736790347	0
3.31	34.8650412821905	0	1	0	1	0	34.8650412821905	0
3.32	34.9392786185862	0	1	0	1	0	34.9392786185862	0
3.33	35.0140836082704	0	1	0	1	0	35.0140836082704	0
3.34	35.0894541962015	0	1	0	1	0	35.0894541962015	0
3.35	35.1653883518758	0	1	0	1	0	35.1653883518758	0
3.36	35.241884068962	0	1	0	1	0	35.241884068962	0
3.37	35.318939364943	0	1	0	1	0	35.318939364943	0
3.38	35.3965522807634	0	1	0	1	0	35.3965522807634	0
3.39	35.4747208804835	0	1	0	1	0	35.4747208804835	0
3.4	35.5534432509393	0	1	0	1	0	35.5534432509393	0
3.41	35.6327175014088	0	1	0	1	0	35.6327175014088	0
3.42	35.7125417632834	0	1	0	1	0	35.7125417632834	0
3.43	35.7929141897461	0	1	0	1	0	35.7929141897461	0
3.44	35.8738329554544	0	1	0	1	0	35.8738329554544	0
3.45	35.9552962562292	0	1	0	1	0	35.9552962562292	0
3.46	36.0373023087492	0	1	0	1	0	36.0373023087492	0
3.47	36.1198493502496	0	1	0	1	0	36.1198493502496	0
3.48	36.2029356382279	0	1	0	1	0	36.2029356382279	0
3.49	36.2865594501524	0	1	0	1	0	36.2865594501524	0
3.5	36.3707190831777	0	1	0	1	0	36.3707190831777	0
3.51	36.4554128538643	0	1	0	1	0	36.4554128538643	0
3.52	36.5406390979024	0	1	0	1	0	36.5406390979024	0
3.53	36.6263961698411	0	1	0	1	0	36.6263961698411	0
3.54	36.7126824428226	0	1	0	1	0	36.7126824428226	0
3.55	36.7994963083195	0	1	0	1	0	36.7994963083195	0
3.56	36.886836175878	0	1	0	1	0	36.886836175878	0
3.57	36.9747004728644	0	1	0	1	0	36.9747004728644	0
3.58	37.0630876442163	0	1	0	1	0	37.0630876442163	0
3.59	37.151996152198	0	1	0	1	0	37.151996152198	0
3.6	37.2414244761596	0	1	0	1	0	37.2414244761596	0
3.61	37.3313711123006	0	1	0	1	0	37.3313711123006	0
3.62	37.4218345734371	0	1	0	1	0	37.4218345734371	0
3.63	37.5128133887729	0	1	0	1	0	37.5128133887729	0
3.64	37.6043061036744	0	1	0	1	0	37.6043061036744	0
3.65	37.6963112794491	0	1	0	1	0	37.6963112794491	0
3.66	37.788827493128	0	1	0	1	0	37.788827493128	0
3.67	37.8818533372513	0	1	0	1	0	37.8818533372513	0
3.68	37.9753874196576	0	1	0	1	0	37.9753874196576	0
3.69	38.0694283632768	0	1	0	1	0	38.0694283632768	0
3.7	38.1639748059259	0	1	0	1	0	38.1639748059259	0
3.71	38.2590254001086	0	1	0	1	0	38.2590254001086	0
3.72	38.3545788128179	0	1	0	1	0	38.3545788128179	0
3.73	38.4506337253415	0	1	0	1	0	38.4506337253415	0
3.74	38.5471888330713	0	1	0	1	0	38.5471888330713	0
3.75	38.6442428453148	0	1	0	1	0	38.6442428453148	0
3.76	38.7417944851104	0	1	0	1	0	38.7417944851104	0
3.77	38.8398424890451	0	1	0	1	0	38.8398424890451	0
3.78	38.9383856070752	0	1	0	1	0	38.9383856070752	0
3.79	39.0374226023505	0	1	0	1	0	39.0374226023505	0
3.8	39.1369522510397	0	1	0	1	0	39.1369522510397	0
3.81	39.2369733421607	0	1	0	1	0	39.2369733421607	0
3.82	39.3374846774114	0	1	0	1	0	39.3374846774114	0
3.83	39.4384850710048	0	1	0	1	0	39.4384850710048	0
3.84	39.5399733495059	0	1	0	1	0	39.5399733495059	0
3.85	39.641948351671	0	1	0	1	0	39.641948351671	0
3.86	39.7444089282903	0	1	0	1	0	39.7444089282903	0
3.87	39.847353942032	0	1	0	1	0	39.847353942032	0
3.88	39.9507822672894	0	1	0	1	0	39.9507822672894	0
3.89	40.05469279003	0	1	0	1	0	40.05469279003	0
3.9	40.1590844076474	0	1	0	1	0	40.1590844076474	0
3.91	40.2639560288153	0	1	0	1	0	40.2639560288153	0
3.92	40.3693065733429	0	1	0	1	0	40.3693065733429	0
3.93	40.4751349720342	0	1	0	1	0	40.4751349720342	0
3.94	40.5814401665475	0	1	0	1	0	40.5814401665475	0
3.95	40.6882211092589	0	1	0	1	0	40.6882211092589	0
3.96	40.7954767631263	0	1	0	1	0	40.7954767631263	0
3.97	40.9032061015565	0	1	0	1	0	40.9032061015565	0
3.98	41.0114081082739	0	1	0	1	0	41.0114081082739	0
3.99	41.1200817771908	0	1	0	1	0	41.1200817771908	0
4	41.2292261122808	0	1	0	1	0	41.2292261122808	0
4.01	41.3388401274526	0	1	0	1	0	41.3388401274526	0
4.02	41.4489228464269	0	1	0	1	0	41.4489228464269	0
4.03	41.5594733026145	0	1	0	1	0	41.5594733026145	0
4.04	41.6704905389965	0	1	0	1	0	41.6704905389965	0
4.05	41.7819736080057	0	1	0	1	0	41.7819736080057	0
4.06	41.893921571411	0	1	0	1	0	41.893921571411	0
4.07	42.0063335002018	0	1	0	1	0	42.0063335002018	0
4.08	42.1192084744757	0	1	0	1	0	42.1192084744757	0
4.09	42.232545583327	0	1	0	1	0	42.232545583327	0
4.1	42.3463439247366	0	1	0	1	0	42.3463439247366	0
4.11	42.4606026054643	0	1	0	1	0	42.4606026054643	0
4.12	42.5753207409422	0	1	0	1	0	42.5753207409422	0
4.13	42.6904974551695	0	1	0	1	0	42.6904974551695	0
4.14	42.8061318806094	0	1	0	1	0	42.8061318806094	0
4.15	42.9222231580868	0	1	0	1	0	42.9222231580868	0
4.16	43.0387704366876	0	1	0	1	0	43.0387704366876	0
4.17	43.1557728736605	0	1	0	1	0	43.1557728736605	0
4.18	43.2732296343184	0	1	0	1	0	43.2732296343184	0
4.19	43.3911398919427	0	1	0	1	0	43.3911398919427	0
4.2	43.5095028276882	0	1	0	1	0	43.5095028276882	0
4.21	43.62831763049	0	1	0	1	0	43.62831763049	0
4.22	43.7475834969706	0	1	0	1	0	43.7475834969706	0
4.23	43.8672996313499	0	1	0	1	0	43.8672996313499	0
4.24	43.9874652453548	0	1	0	1	0	43.9874652453548	0
4.25	44.1080795581314	0	1	0	1	0	44.1080795581314	0
4.26	44.2291417961576	0	1	0	1	0	44.2291417961576	0
4.27	44.3506511931578	0	1	0	1	0	44.3506511931578	0
4.28	44.4726069900174	0	1	0	1	0	44.4726069900174	0
4.29	44.5950084347001	0	1	0	1	0	44.5950084347001	0
4.3	44.7178547821651	0	1	0	1	0	44.7178547821651	0
4.31	44.8411452942863	0	1	0	1	0	44.8411452942863	0
4.32	44.9648792397718	0	1	0	1	0	44.9648792397718	0
4.33	45.0890558940857	0	1	0	1	0	45.0890558940857	0
4.34	45.2136745393696	0	1	0	1	0	45.2136745393696	0
4.35	45.3387344643661	0	1	0	1	0	45.3387344643661	0
4.36	45.4642349643432	0	1	0	1	0	45.4642349643432	0
4.37	45.5901753410193	0	1	0	1	0	45.5901753410193	0
4.38	45.7165549024902	0	1	0	1	0	45.7165549024902	0
4.39	45.8433729631557	0	1	0	1	0	45.8433729631557	0
4.4	45.9706288436484	0	1	0	1	0	45.9706288436484	0
4.41	46.0983218707633	0	1	0	1	0	46.0983218707633	0
4.42	46.2264513773872	0	1	0	1	0	46.2264513773872	0
4.43	46.3550167024309	0	1	0	1	0	46.3550167024309	0
4.44	46.4840171907608	0	1	0	1	0	46.4840171907608	0
4.45	46.6134521931322	0	1	0	1	0	46.6134521931322	0
4.46	46.7433210661232	0	1	0	1	0	46.7433210661232	0
4.47	46.8736231720697	0	1	0	1	0	46.8736231720697	0
4.48	47.0043578790007	0	1	0	1	0	47.0043578790007	0
4.49	47.1355245605756	0	1	0	1	0	47.1355245605756	0
4.5	47.2671225960211	0	1	0	1	0	47.2671225960211	0
4.51	47.3991513700697	0	1	0	1	0	47.3991513700697	0
4.52	47.5316102728987	0	1	0	1	0	47.5316102728987	0
4.53	47.6644987000701	0	1	0	1	0	47.6644987000701	0
4.54	47.7978160524714	0	1	0	1	0	47.7978160524714	0
4.55	47.9315617362572	0	1	0	1	0	47.9315617362572	0
4.56	48.065735162791	0	1	0	1	0	48.065735162791	0
4.57	48.2003357485885	0	1	0	1	0	48.2003357485885	0
4.58	48.3353629152616	0	1	0	1	0	48.3353629152616	0
4.59	48.4708160894623	0	1	0	1	0	48.4708160894623	0
4.6	48.6066947028284	0	1	0	1	0	48.6066947028284	0
4.61	48.7429981919293	0	1	0	1	0	48.7429981919293	0
4.62	48.8797259982124	0	1	0	1	0	48.8797259982124	0
4.63	49.0168775679508	0	1	0	1	0	49.0168775679508	0
4.64	49.154452352191	0	1	0	1	0	49.154452352191	0
4.65	49.2924498067018	0	1	0	1	0	49.2924498067018	0
4.66	49.4308693919233	0	1	0	1	0	49.4308693919233	0
4.67	49.5697105729173	0	1	0	1	0	49.5697105729173	0
4.68	49.7089728193177	0	1	0	1	0	49.7089728193177	0
4.69	49.8486556052816	0	1	0	1	0	49.8486556052816	0
4.7	49.9887584094415	0	1	0	1	0	49.9887584094415	0
4.71	50.1292807148577	0	1	0	1	0	50.1292807148577	0
4.72	50.2702220089713	0	1	0	1	0	50.2702220089713	0
4.73	50.4115817835578	0	1	0	1	0	50.4115817835578	0
4.74	50.5533595346817	0	1	0	1	0	50.5533595346817	0
4.75	50.6955547626511	0	1	0	1	0	50.6955547626511	0
4.76	50.8381669719731	0	1	0	1	0	50.8381669719731	0
4.77	50.9811956713101	0	1	0	1	0	50.9811956713101	0
4.78	51.124640373436	0	1	0	1	0	51.124640373436	0
4.79	51.2685005951931	0	1	0	1	0	51.2685005951931	0
4.8	51.4127758574506	0	1	0	1	0	51.4127758574506	0
4.81	51.5574656850617	0	1	0	1	0	51.5574656850617	0
4.82	51.7025696068228	0	1	0	1	0	51.7025696068228	0
4.83	51.8480871554328	0	1	0	1	0	51.8480871554328	0
4.84	51.9940178674524	0	1	0	1	0	51.9940178674524	0
4.85	52.1403612832645	0	1	0	1	0	52.1403612832645	0
4.86	52.287116947035	0	1	0	1	0	52.287116947035	0
4.87	52.4342844066737	0	1	0	1	0	52.4342844066737	0
4.88	52.581863213796	0	1	0	1	0	52.581863213796	0
4.89	52.7298529236853	0	1	0	1	0	52.7298529236853	0
4.9	52.878253095255	0	1	0	1	0	52.878253095255	0
4.91	53.0270632910122	0	1	0	1	0	53.0270632910122	0
4.92	53.1762830770206	0	1	0	1	0	53.1762830770206	0
4.93	53.3259120228648	0	1	0	1	0	53.3259120228648	0
