# GHZ S RI R 50
1	63.656901959976	0	1	0	1	0	63.656901959976	0
1.01	63.1147697000927	0	1	0	1	0	63.1147697000927	0
1.02	62.5845206001366	0	1	0	1	0	62.5845206001366	0
1.03	62.0658208352818	0	1	0	1	0	62.0658208352818	0
1.04	61.5583494201186	0	1	0	1	0	61.5583494201186	0
1.05	61.0617975972529	0	1	0	1	0	61.0617975972529	0
1.06	60.5758682605132	0	1	0	1	0	60.5758682605132	0
1.07	60.1002754105006	0	1	0	1	0	60.1002754105006	0
1.08	59.6347436403865	0	1	0	1	0	59.6347436403865	0
1.09	59.1790076500151	0	1	0	1	0	59.1790076500151	0
1.1	58.7328117865089	0	1	0	1	0	58.7328117865089	0
1.11	58.2959096097066	0	1	0	1	0	58.2959096097066	0
1.12	57.8680634808814	0	1	0	1	0	57.8680634808814	0
1.13	57.4490441732966	0	1	0	1	0	57.4490441732966	0
1.14	57.0386305032592	0	1	0	1	0	57.0386305032592	0
1.15	56.6366089804219	0	1	0	1	0	56.6366089804219	0
1.16	56.2427734761733	0	1	0	1	0	56.2427734761733	0
1.17	55.8569249090344	0	1	0	1	0	55.8569249090344	0
1.18	55.4788709460507	0	1	0	1	0	55.4788709460507	0
1.19	55.1084257192409	0	1	0	1	0	55.1084257192409	0
1.2	54.7454095562233	0	1	0	1	0	54.7454095562233	0
1.21	54.3896487241988	0	1	0	1	0	54.3896487241988	0
1.22	54.0409751865258	0	1	0	1	0	54.0409751865258	0
1.23	53.6992263711689	0	1	0	1	0	53.6992263711689	0
1.24	53.364244950352	0	1	0	1	0	53.364244950352	0
1.25	53.0358786307877	0	1	0	1	0	53.0358786307877	0
1.26	52.7139799538962	0	1	0	1	0	52.7139799538962	0
1.27	52.3984061054623	0	1	0	1	0	52.3984061054623	0
1.28	52.0890187342152	0	1	0	1	0	52.0890187342152	0
1.29	51.785683778846	0	1	0	1	0	51.785683778846	0
1.3	51.488271303009	0	1	0	1	0	51.488271303009	0
1.31	51.1966553378805	0	1	0	1	0	51.1966553378805	0
1.32	50.910713731874	0	1	0	1	0	50.910713731874	0
1.33	50.6303280071349	0	1	0	1	0	50.6303280071349	0
1.34	50.3553832224609	0	1	0	1	0	50.3553832224609	0
1.35	50.0857678423151	0	1	0	1	0	50.0857678423151	0
1.36	49.8213736116174	0	1	0	1	0	49.8213736116174	0
1.37	49.56209543602	0	1	0	1	0	49.56209543602	0
1.38	49.3078312673883	0	1	0	1	0	49.3078312673883	0
1.39	49.0584819942243	0	1	0	1	0	49.0584819942243	0
1.4	48.8139513367873	0	1	0	1	0	48.8139513367873	0
1.41	48.5741457466768	0	1	0	1	0	48.5741457466768	0
1.42	48.3389743106584	0	1	0	1	0	48.3389743106584	0
1.43	48.1083486585254	0	1	0	1	0	48.1083486585254	0
1.44	47.8821828747987	0	1	0	1	0	47.8821828747987	0
1.45	47.6603934140818	0	1	0	1	0	47.6603934140818	0
1.46	47.442899019893	0	1	0	1	0	47.442899019893	0
1.47	47.2296206468113	0	1	0	1	0	47.2296206468113	0
1.48	47.0204813857784	0	1	0	1	0	47.0204813857784	0
1.49	46.8154063924089	0	1	0	1	0	46.8154063924089	0
1.5	46.6143228181674	0	1	0	1	0	46.6143228181674	0
1.51	46.4171597442812	0	1	0	1	0	46.4171597442812	0
1.52	46.223848118261	0	1	0	1	0	46.223848118261	0
1.53	46.0343206929116	0	1	0	1	0	46.0343206929116	0
1.54	45.8485119677178	0	1	0	1	0	45.8485119677178	0
1.55	45.6663581325005	0	1	0	1	0	45.6663581325005	0
1.56	45.4877970132391	0	1	0	1	0	45.4877970132391	0
1.57	45.3127680199643	0	1	0	1	0	45.3127680199643	0
1.58	45.1412120966301	0	1	0	1	0	45.1412120966301	0
1.59	44.9730716728774	0	1	0	1	0	44.9730716728774	0
1.6	44.8082906176058	0	1	0	1	0	44.8082906176058	0
1.61	44.6468141942767	0	1	0	1	0	44.6468141942767	0
1.62	44.4885890178706	0	1	0	1	0	44.4885890178706	0
1.63	44.3335630134301	0	1	0	1	0	44.3335630134301	0
1.64	44.1816853761187	0	1	0	1	0	44.1816853761187	0
1.65	44.0329065327322	0	1	0	1	0	44.0329065327322	0
1.66	43.8871781046014	0	1	0	1	0	43.8871781046014	0
1.67	43.7444528718279	0	1	0	1	0	43.7444528718279	0
1.68	43.6046847387962	0	1	0	1	0	43.6046847387962	0
1.69	43.4678287009116	0	1	0	1	0	43.4678287009116	0
1.7	43.3338408125108	0	1	0	1	0	43.3338408125108	0
1.71	43.2026781558995	0	1	0	1	0	43.2026781558995	0
1.72	43.0742988114691	0	1	0	1	0	43.0742988114691	0
1.73	42.9486618288506	0	1	0	1	0	42.9486618288506	0
1.74	42.8257271990628	0	1	0	1	0	42.8257271990628	0
1.75	42.7054558276153	0	1	0	1	0	42.7054558276153	0
1.76	42.5878095085292	0	1	0	1	0	42.5878095085292	0
1.77	42.4727508992372	0	1	0	1	0	42.4727508992372	0
1.78	42.3602434963311	0	1	0	1	0	42.3602434963311	0
1.79	42.2502516121212	0	1	0	1	0	42.2502516121212	0
1.8	42.1427403519775	0	1	0	1	0	42.1427403519775	0
1.81	42.0376755924222	0	1	0	1	0	42.0376755924222	0
1.82	41.9350239599439	0	1	0	1	0	41.9350239599439	0
1.83	41.8347528105069	0	1	0	1	0	41.8347528105069	0
1.84	41.7368302097285	0	1	0	1	0	41.7368302097285	0
1.85	41.641224913699	0	1	0	1	0	41.641224913699	0
1.86	41.5479063504211	0	1	0	1	0	41.5479063504211	0
1.87	41.4568446018434	0	1	0	1	0	41.4568446018434	0
1.88	41.3680103864694	0	1	0	1	0	41.3680103864694	0
1.89	41.2813750425162	0	1	0	1	0	41.2813750425162	0
1.9	41.1969105116074	0	1	0	1	0	41.1969105116074	0
1.91	41.1145893229763	0	1	0	1	0	41.1145893229763	0
1.92	41.0343845781638	0	1	0	1	0	41.0343845781638	0
1.93	40.9562699361919	0	1	0	1	0	40.9562699361919	0
1.94	40.8802195991956	0	1	0	1	0	40.8802195991956	0
1.95	40.8062082984968	0	1	0	1	0	40.8062082984968	0
1.96	40.7342112811047	0	1	0	1	0	40.7342112811047	0
1.97	40.6642042966274	0	1	0	1	0	40.6642042966274	0
1.98	40.5961635845797	0	1	0	1	0	40.5961635845797	0
1.99	40.5300658620744	0	1	0	1	0	40.5300658620744	0
2	40.4658883118817	0	1	0	1	0	40.4658883118817	0
2.01	40.4036085708463	0	1	0	1	0	40.4036085708463	0
2.02	40.3432047186475	0	1	0	1	0	40.3432047186475	0
2.03	40.2846552668922	0	1	0	1	0	40.2846552668922	0
2.04	40.2279391485283	0	1	0	1	0	40.2279391485283	0
2.05	40.1730357075681	0	1	0	1	0	40.1730357075681	0
2.06	40.119924689111	0	1	0	1	0	40.119924689111	0
2.07	40.0685862296556	0	1	0	1	0	40.0685862296556	0
2.08	40.0190008476908	0	1	0	1	0	40.0190008476908	0
2.09	39.9711494345575	0	1	0	1	0	39.9711494345575	0
2.1	39.9250132455708	0	1	0	1	0	39.9250132455708	0
2.11	39.8805738913955	0	1	0	1	0	39.8805738913955	0
2.12	39.837813329665	0	1	0	1	0	39.837813329665	0
2.13	39.7967138568364	0	1	0	1	0	39.7967138568364	0
2.14	39.7572581002741	0	1	0	1	0	39.7572581002741	0
2.15	39.7194290105544	0	1	0	1	0	39.7194290105544	0
2.16	39.6832098539838	0	1	0	1	0	39.6832098539838	0
2.17	39.6485842053236	0	1	0	1	0	39.6485842053236	0
2.18	39.6155359407161	0	1	0	1	0	39.6155359407161	0
2.19	39.5840492308029	0	1	0	1	0	39.5840492308029	0
2.2	39.5541085340323	0	1	0	1	0	39.5541085340323	0
2.21	39.5256985901477	0	1	0	1	0	39.5256985901477	0
2.22	39.4988044138519	0	1	0	1	0	39.4988044138519	0
2.23	39.4734112886423	0	1	0	1	0	39.4734112886423	0
2.24	39.4495047608112	0	1	0	1	0	39.4495047608112	0
2.25	39.4270706336055	0	1	0	1	0	39.4270706336055	0
2.26	39.4060949615421	0	1	0	1	0	39.4060949615421	0
2.27	39.3865640448734	0	1	0	1	0	39.3865640448734	0
2.28	39.3684644241981	0	1	0	1	0	39.3684644241981	0
2.29	39.3517828752136	0	1	0	1	0	39.3517828752136	0
2.3	39.3365064036053	0	1	0	1	0	39.3365064036053	0
2.31	39.3226222400684	0	1	0	1	0	39.3226222400684	0
2.32	39.3101178354583	0	1	0	1	0	39.3101178354583	0
2.33	39.2989808560666	0	1	0	1	0	39.2989808560666	0
2.34	39.2891991790174	0	1	0	1	0	39.2891991790174	0
2.35	39.2807608877817	0	1	0	1	0	39.2807608877817	0
2.36	39.2736542678055	0	1	0	1	0	39.2736542678055	0
2.37	39.2678678022487	0	1	0	1	0	39.2678678022487	0
2.38	39.2633901678318	0	1	0	1	0	39.2633901678318	0
2.39	39.260210230786	0	1	0	1	0	39.260210230786	0
2.4	39.2583170429055	0	1	0	1	0	39.2583170429055	0
2.41	39.2576998376973	0	1	0	1	0	39.2576998376973	0
2.42	39.2583480266271	0	1	0	1	0	39.2583480266271	0
2.43	39.2602511954574	0	1	0	1	0	39.2602511954574	0
2.44	39.2633991006758	0	1	0	1	0	39.2633991006758	0
2.45	39.2677816660111	0	1	0	1	0	39.2677816660111	0
2.46	39.2733889790338	0	1	0	1	0	39.2733889790338	0
2.47	39.2802112878397	0	1	0	1	0	39.2802112878397	0
2.48	39.2882389978132	0	1	0	1	0	39.2882389978132	0
2.49	39.2974626684691	0	1	0	1	0	39.2974626684691	0
2.5	39.3078730103702	0	1	0	1	0	39.3078730103702	0
2.51	39.3194608821177	0	1	0	1	0	39.3194608821177	0
2.52	39.3322172874148	0	1	0	1	0	39.3322172874148	0
2.53	39.3461333721985	0	1	0	1	0	39.3461333721985	0
2.54	39.3612004218397	0	1	0	1	0	39.3612004218397	0
2.55	39.3774098584095	0	1	0	1	0	39.3774098584095	0
2.56	39.3947532380092	0	1	0	1	0	39.3947532380092	0
2.57	39.4132222481626	0	1	0	1	0	39.4132222481626	0
2.58	39.432808705269	0	1	0	1	0	39.432808705269	0
2.59	39.4535045521155	0	1	0	1	0	39.4535045521155	0
2.6	39.4753018554462	0	1	0	1	0	39.4753018554462	0
2.61	39.4981928035877	0	1	0	1	0	39.4981928035877	0
2.62	39.522169704129	0	1	0	1	0	39.522169704129	0
2.63	39.5472249816535	0	1	0	1	0	39.5472249816535	0
2.64	39.5733511755241	0	1	0	1	0	39.5733511755241	0
2.65	39.6005409377167	0	1	0	1	0	39.6005409377167	0
2.66	39.6287870307042	0	1	0	1	0	39.6287870307042	0
2.67	39.6580823253865	0	1	0	1	0	39.6580823253865	0
2.68	39.6884197990682	0	1	0	1	0	39.6884197990682	0
2.69	39.7197925334805	0	1	0	1	0	39.7197925334805	0
2.7	39.7521937128476	0	1	0	1	0	39.7521937128476	0
2.71	39.7856166219954	0	1	0	1	0	39.7856166219954	0
2.72	39.8200546445024	0	1	0	1	0	39.8200546445024	0
2.73	39.855501260891	0	1	0	1	0	39.855501260891	0
2.74	39.8919500468586	0	1	0	1	0	39.8919500468586	0
2.75	39.9293946715469	0	1	0	1	0	39.9293946715469	0
2.76	39.967828895849	0	1	0	1	0	39.967828895849	0
2.77	40.0072465707537	0	1	0	1	0	40.0072465707537	0
2.78	40.0476416357246	0	1	0	1	0	40.0476416357246	0
2.79	40.0890081171147	0	1	0	1	0	40.0890081171147	0
2.8	40.131340126615	0	1	0	1	0	40.131340126615	0
2.81	40.1746318597356	0	1	0	1	0	40.1746318597356	0
2.82	40.21887759432	0	1	0	1	0	40.21887759432	0
2.83	40.26407168909	0	1	0	1	0	40.26407168909	0
2.84	40.3102085822223	0	1	0	1	0	40.3102085822223	0
2.85	40.3572827899541	0	1	0	1	0	40.3572827899541	0
2.86	40.4052889052186	0	1	0	1	0	40.4052889052186	0
2.87	40.4542215963089	0	1	0	1	0	40.4542215963089	0
2.88	40.5040756055695	0	1	0	1	0	40.5040756055695	0
2.89	40.5548457481152	0	1	0	1	0	40.5548457481152	0
2.9	40.6065269105765	0	1	0	1	0	40.6065269105765	0
2.91	40.6591140498709	0	1	0	1	0	40.6591140498709	0
2.92	40.7126021919989	0	1	0	1	0	40.7126021919989	0
2.93	40.7669864308658	0	1	0	1	0	40.7669864308658	0
2.94	40.8222619271262	0	1	0	1	0	40.8222619271262	0
2.95	40.8784239070531	0	1	0	1	0	40.8784239070531	0
2.96	40.9354676614292	0	1	0	1	0	40.9354676614292	0
2.97	40.9933885444612	0	1	0	1	0	40.9933885444612	0
2.98	41.0521819727152	0	1	0	1	0	41.0521819727152	0
2.99	41.1118434240743	0	1	0	1	0	41.1118434240743	0
3	41.1723684367165	0	1	0	1	0	41.1723684367165	0
3.01	41.233752608113	0	1	0	1	0	41.233752608113	0
3.02	41.2959915940468	0	1	0	1	0	41.2959915940468	0
3.03	41.3590811076501	0	1	0	1	0	41.3590811076501	0
3.04	41.4230169184615	0	1	0	1	0	41.4230169184615	0
3.05	41.4877948515007	0	1	0	1	0	41.4877948515007	0
3.06	41.5534107863628	0	1	0	1	0	41.5534107863628	0
3.07	41.6198606563284	0	1	0	1	0	41.6198606563284	0
3.08	41.6871404474932	0	1	0	1	0	41.6871404474932	0
3.09	41.7552461979124	0	1	0	1	0	41.7552461979124	0
3.1	41.8241739967633	0	1	0	1	0	41.8241739967633	0
3.11	41.8939199835229	0	1	0	1	0	41.8939199835229	0
3.12	41.9644803471625	0	1	0	1	0	41.9644803471625	0
3.13	42.0358513253563	0	1	0	1	0	42.0358513253563	0
3.14	42.1080292037064	0	1	0	1	0	42.1080292037064	0
3.15	42.1810103149818	0	1	0	1	0	42.1810103149818	0
3.16	42.254791038372	0	1	0	1	0	42.254791038372	0
3.17	42.3293677987552	0	1	0	1	0	42.3293677987552	0
3.18	42.4047370659796	0	1	0	1	0	42.4047370659796	0
3.19	42.4808953541585	0	1	0	1	0	42.4808953541585	0
3.2	42.557839220979	0	1	0	1	0	42.557839220979	0
3.21	42.635565267023	0	1	0	1	0	42.635565267023	0
3.22	42.714070135101	0	1	0	1	0	42.714070135101	0
3.23	42.7933505095989	0	1	0	1	0	42.7933505095989	0
3.24	42.8734031158359	0	1	0	1	0	42.8734031158359	0
3.25	42.954224719435	0	1	0	1	0	42.954224719435	0
3.26	43.0358121257049	0	1	0	1	0	43.0358121257049	0
3.27	43.1181621790329	0	1	0	1	0	43.1181621790329	0
3.28	43.2012717622897	0	1	0	1	0	43.2012717622897	0
3.29	43.2851377962439	0	1	0	1	0	43.2851377962439	0
3.3	43.3697572389883	0	1	0	1	0	43.3697572389883	0
3.31	43.4551270853758	0	1	0	1	0	43.4551270853758	0
3.32	43.5412443664661	0	1	0	1	0	43.5412443664661	0
3.33	43.6281061489816	0	1	0	1	0	43.6281061489816	0
3.34	43.7157095347738	0	1	0	1	0	43.7157095347738	0
3.35	43.8040516602992	0	1	0	1	0	43.8040516602992	0
3.36	43.8931296961038	0	1	0	1	0	43.8931296961038	0
3.37	43.9829408463178	0	1	0	1	0	43.9829408463178	0
3.38	44.0734823481586	0	1	0	1	0	44.0734823481586	0
3.39	44.1647514714428	0	1	0	1	0	44.1647514714428	0
3.4	44.2567455181067	0	1	0	1	0	44.2567455181067	0
3.41	44.3494618217356	0	1	0	1	0	44.3494618217356	0
3.42	44.4428977471008	0	1	0	1	0	44.4428977471008	0
3.43	44.5370506897052	0	1	0	1	0	44.5370506897052	0
3.44	44.6319180753367	0	1	0	1	0	44.6319180753367	0
3.45	44.7274973596288	0	1	0	1	0	44.7274973596288	0
3.46	44.8237860276298	0	1	0	1	0	44.8237860276298	0
3.47	44.920781593379	0	1	0	1	0	44.920781593379	0
3.48	45.0184815994896	0	1	0	1	0	45.0184815994896	0
3.49	45.11688361674	0	1	0	1	0	45.11688361674	0
3.5	45.2159852436709	0	1	0	1	0	45.2159852436709	0
3.51	45.3157841061903	0	1	0	1	0	45.3157841061903	0
3.52	45.4162778571842	0	1	0	1	0	45.4162778571842	0
3.53	45.5174641761351	0	1	0	1	0	45.5174641761351	0
3.54	45.6193407687459	0	1	0	1	0	45.6193407687459	0
3.55	45.7219053665707	0	1	0	1	0	45.7219053665707	0
3.56	45.8251557266519	0	1	0	1	0	45.8251557266519	0
3.57	45.9290896311628	0	1	0	1	0	45.9290896311628	0
3.58	46.0337048870572	0	1	0	1	0	46.0337048870572	0
3.59	46.1389993257238	0	1	0	1	0	46.1389993257238	0
3.6	46.244970802647	0	1	0	1	0	46.244970802647	0
3.61	46.3516171970731	0	1	0	1	0	46.3516171970731	0
3.62	46.4589364116823	0	1	0	1	0	46.4589364116823	0
3.63	46.5669263722655	0	1	0	1	0	46.5669263722655	0
3.64	46.6755850274074	0	1	0	1	0	46.6755850274074	0
3.65	46.7849103481737	0	1	0	1	0	46.7849103481737	0
3.66	46.8949003278044	0	1	0	1	0	46.8949003278044	0
3.67	47.0055529814116	0	1	0	1	0	47.0055529814116	0
3.68	47.1168663456821	0	1	0	1	0	47.1168663456821	0
3.69	47.2288384785854	0	1	0	1	0	47.2288384785854	0
3.7	47.3414674590856	0	1	0	1	0	47.3414674590856	0
3.71	47.4547513868593	0	1	0	1	0	47.4547513868593	0
3.72	47.5686883820162	0	1	0	1	0	47.5686883820162	0
3.73	47.6832765848259	0	1	0	1	0	47.6832765848259	0
3.74	47.7985141554482	0	1	0	1	0	47.7985141554482	0
3.75	47.9143992736678	0	1	0	1	0	47.9143992736678	0
3.76	48.0309301386334	0	1	0	1	0	48.0309301386334	0
3.77	48.1481049686008	0	1	0	1	0	48.1481049686008	0
3.78	48.2659220006803	0	1	0	1	0	48.2659220006803	0
3.79	48.384379490588	0	1	0	1	0	48.384379490588	0
3.8	48.5034757124007	0	1	0	1	0	48.5034757124007	0
3.81	48.6232089583153	0	1	0	1	0	48.6232089583153	0
3.82	48.7435775384113	0	1	0	1	0	48.7435775384113	0
3.83	48.8645797804175	0	1	0	1	0	48.8645797804175	0
3.84	48.9862140294825	0	1	0	1	0	48.9862140294825	0
3.85	49.1084786479476	0	1	0	1	0	49.1084786479476	0
3.86	49.2313720151253	0	1	0	1	0	49.2313720151253	0
3.87	49.3548925270788	0	1	0	1	0	49.3548925270788	0
3.88	49.4790385964072	0	1	0	1	0	49.4790385964072	0
3.89	49.6038086520322	0	1	0	1	0	49.6038086520322	0
3.9	49.7292011389892	0	1	0	1	0	49.7292011389892	0
3.91	49.8552145182212	0	1	0	1	0	49.8552145182212	0
3.92	49.9818472663759	0	1	0	1	0	49.9818472663759	0
3.93	50.1090978756057	0	1	0	1	0	50.1090978756057	0
3.94	50.2369648533712	0	1	0	1	0	50.2369648533712	0
3.95	50.3654467222475	0	1	0	1	0	50.3654467222475	0
3.96	50.4945420197328	0	1	0	1	0	50.4945420197328	0
3.97	50.6242492980611	0	1	0	1	0	50.6242492980611	0
3.98	50.7545671240168	0	1	0	1	0	50.7545671240168	0
3.99	50.8854940787523	0	1	0	1	0	50.8854940787523	0
4	51.0170287576084	0	1	0	1	0	51.0170287576084	0
4.01	51.1491697699378	0	1	0	1	0	51.1491697699378	0
4.02	51.28191573893	0	1	0	1	0	51.28191573893	0
4.03	51.4152653014406	0	1	0	1	0	51.4152653014406	0
4.04	51.5492171078213	0	1	0	1	0	51.5492171078213	0
4.05	51.6837698217538	0	1	0	1	0	51.6837698217538	0
4.06	51.8189221200856	0	1	0	1	0	51.8189221200856	0
4.07	51.954672692668	0	1	0	1	0	51.954672692668	0
4.08	52.0910202421969	0	1	0	1	0	52.0910202421969	0
4.09	52.2279634840559	0	1	0	1	0	52.2279634840559	0
4.1	52.3655011461614	0	1	0	1	0	52.3655011461614	0
4.11	52.50363196881	0	1	0	1	0	52.50363196881	0
4.12	52.6423547045287	0	1	0	1	0	52.6423547045287	0
4.13	52.7816681179265	0	1	0	1	0	52.7816681179265	0
4.14	52.9215709855483	0	1	0	1	0	52.9215709855483	0
4.15	53.0620620957316	0	1	0	1	0	53.0620620957316	0
4.16	53.2031402484644	0	1	0	1	0	53.2031402484644	0
4.17	53.3448042552457	0	1	0	1	0	53.3448042552457	0
4.18	53.4870529389476	0	1	0	1	0	53.4870529389476	0
4.19	53.6298851336797	0	1	0	1	0	53.6298851336797	0
4.2	53.7732996846554	0	1	0	1	0	53.7732996846554	0
4.21	53.9172954480599	0	1	0	1	0	53.9172954480599	0
4.22	54.0618712909203	0	1	0	1	0	54.0618712909203	0
4.23	54.2070260909772	0	1	0	1	0	54.2070260909772	0
4.24	54.3527587365588	0	1	0	1	0	54.3527587365588	0
4.25	54.499068126456	0	1	0	1	0	54.499068126456	0
4.26	54.6459531697996	0	1	0	1	0	54.6459531697996	0
4.27	54.7934127859395	0	1	0	1	0	54.7934127859395	0
4.28	54.9414459043249	0	1	0	1	0	54.9414459043249	0
4.29	55.0900514643871	0	1	0	1	0	55.0900514643871	0
4.3	55.2392284154229	0	1	0	1	0	55.2392284154229	0
4.31	55.3889757164805	0	1	0	1	0	55.3889757164805	0
4.32	55.5392923362466	0	1	0	1	0	55.5392923362466	0
4.33	55.6901772529351	0	1	0	1	0	55.6901772529351	0
4.34	55.841629454177	0	1	0	1	0	55.841629454177	0
4.35	55.9936479369127	0	1	0	1	0	55.9936479369127	0
4.36	56.1462317072849	0	1	0	1	0	56.1462317072849	0
4.37	56.2993797805335	0	1	0	1	0	56.2993797805335	0
4.38	56.4530911808914	0	1	0	1	0	56.4530911808914	0
4.39	56.6073649414825	0	1	0	1	0	56.6073649414825	0
4.4	56.7622001042205	0	1	0	1	0	56.7622001042205	0
4.41	56.917595719709	0	1	0	1	0	56.917595719709	0
4.42	57.0735508471438	0	1	0	1	0	57.0735508471438	0
4.43	57.2300645542152	0	1	0	1	0	57.2300645542152	0
4.44	57.3871359170129	0	1	0	1	0	57.3871359170129	0
4.45	57.5447640199312	0	1	0	1	0	57.5447640199312	0
4.46	57.7029479555764	0	1	0	1	0	57.7029479555764	0
4.47	57.8616868246744	0	1	0	1	0	57.8616868246744	0
4.48	58.0209797359805	0	1	0	1	0	58.0209797359805	0
4.49	58.1808258061897	0	1	0	1	0	58.1808258061897	0
4.5	58.3412241598486	0	1	0	1	0	58.3412241598486	0
4.51	58.5021739292685	0	1	0	1	0	58.5021739292685	0
4.52	58.6636742544392	0	1	0	1	0	58.6636742544392	0
4.53	58.8257242829445	0	1	0	1	0	58.8257242829445	0
4.54	58.9883231698784	0	1	0	1	0	58.9883231698784	0
4.55	59.1514700777628	0	1	0	1	0	59.1514700777628	0
4.56	59.3151641764656	0	1	0	1	0	59.3151641764656	0
4.57	59.4794046431211	0	1	0	1	0	59.4794046431211	0
4.58	59.6441906620496	0	1	0	1	0	59.6441906620496	0
4.59	59.8095214246803	0	1	0	1	0	59.8095214246803	0
4.6	59.975396129473	0	1	0	1	0	59.975396129473	0
4.61	60.1418139818426	0	1	0	1	0	60.1418139818426	0
4.62	60.3087741940834	0	1	0	1	0	60.3087741940834	0
4.63	60.4762759852949	0	1	0	1	0	60.4762759852949	0
4.64	60.6443185813086	0	1	0	1	0	60.6443185813086	0
4.65	60.8129012146153	0	1	0	1	0	60.8129012146153	0
4.66	60.9820231242942	0	1	0	1	0	60.9820231242942	0
4.67	61.1516835559418	0	1	0	1	0	61.1516835559418	0
4.68	61.3218817616024	0	1	0	1	0	61.3218817616024	0
4.69	61.4926169996998	0	1	0	1	0	61.4926169996998	0
4.7	61.6638885349687	0	1	0	1	0	61.6638885349687	0
4.71	61.8356956383884	0	1	0	1	0	61.8356956383884	0
4.72	62.008037587116	0	1	0	1	0	62.008037587116	0
4.73	62.1809136644219	0	1	0	1	0	62.1809136644219	0
4.74	62.3543231596244	0	1	0	1	0	62.3543231596244	0
4.75	62.5282653680268	0	1	0	1	0	62.5282653680268	0
4.76	62.702739590854	0	1	0	1	0	62.702739590854	0
4.77	62.8777451351909	0	1	0	1	0	62.8777451351909	0
4.78	63.0532813139206	0	1	0	1	0	63.0532813139206	0
4.79	63.2293474456642	0	1	0	1	0	63.2293474456642	0
4.8	63.405942854721	0	1	0	1	0	63.405942854721	0
4.81	63.5830668710096	0	1	0	1	0	63.5830668710096	0
4.82	63.760718830009	0	1	0	1	0	63.760718830009	0
4.83	63.9388980727019	0	1	0	1	0	63.9388980727019	0
4.84	64.1176039455172	0	1	0	1	0	64.1176039455172	0
4.85	64.2968358002743	0	1	0	1	0	64.2968358002743	0
4.86	64.476592994127	0	1	0	1	0	64.476592994127	0
4.87	64.6568748895097	0	1	0	1	0	64.6568748895097	0
4.88	64.8376808540823	0	1	0	1	0	64.8376808540823	0
4.89	65.0190102606773	0	1	0	1	0	65.0190102606773	0
4.9	65.2008624872472	0	1	0	1	0	65.2008624872472	0
4.91	65.3832369168119	0	1	0	1	0	65.3832369168119	0
4.92	65.5661329374072	0	1	0	1	0	65.5661329374072	0
4.93	65.7495499420346	0	1	0	1	0	65.7495499420346	0
