# GHZ S RI R 50
1	50.7824567619398	0	1	0	1	0	50.7824567619398	0
1.01	50.3621520662629	0	1	0	1	0	50.3621520662629	0
1.02	49.9512361076876	0	1	0	1	0	49.9512361076876	0
1.03	49.5494466786248	0	1	0	1	0	49.5494466786248	0
1.04	49.1565316563929	0	1	0	1	0	49.1565316563929	0
1.05	48.7722485229836	0	1	0	1	0	48.7722485229836	0
1.06	48.3963639120117	0	1	0	1	0	48.3963639120117	0
1.07	48.028653181069	0	1	0	1	0	48.028653181069	0
1.08	47.6689000078365	0	1	0	1	0	47.6689000078365	0
1.09	47.3168960084289	0	1	0	1	0	47.3168960084289	0
1.1	46.9724403765566	0	1	0	1	0	46.9724403765566	0
1.11	46.6353395421931	0	1	0	1	0	46.6353395421931	0
1.12	46.3054068485266	0	1	0	1	0	46.3054068485266	0
1.13	45.9824622460665	0	1	0	1	0	45.9824622460665	0
1.14	45.666332002848	0	1	0	1	0	45.666332002848	0
1.15	45.3568484297571	0	1	0	1	0	45.3568484297571	0
1.16	45.0538496200634	0	1	0	1	0	45.0538496200634	0
1.17	44.757179202309	0	1	0	1	0	44.757179202309	0
1.18	44.4666861057637	0	1	0	1	0	44.4666861057637	0
1.19	44.1822243377046	0	1	0	1	0	44.1822243377046	0
1.2	43.9036527718334	0	1	0	1	0	43.9036527718334	0
1.21	43.6308349471837	0	1	0	1	0	43.6308349471837	0
1.22	43.363638876919	0	1	0	1	0	43.363638876919	0
1.23	43.1019368664581	0	1	0	1	0	43.1019368664581	0
1.24	42.8456053403993	0	1	0	1	0	42.8456053403993	0
1.25	42.5945246777542	0	1	0	1	0	42.5945246777542	0
1.26	42.3485790550259	0	1	0	1	0	42.3485790550259	0
1.27	42.1076562967016	0	1	0	1	0	42.1076562967016	0
1.28	41.8716477327534	0	1	0	1	0	41.8716477327534	0
1.29	41.6404480627665	0	1	0	1	0	41.6404480627665	0
1.3	41.4139552263392	0	1	0	1	0	41.4139552263392	0
1.31	41.1920702794175	0	1	0	1	0	41.1920702794175	0
1.32	40.9746972762524	0	1	0	1	0	40.9746972762524	0
1.33	40.7617431566812	0	1	0	1	0	40.7617431566812	0
1.34	40.5531176384566	0	1	0	1	0	40.5531176384566	0
1.35	40.3487331143606	0	1	0	1	0	40.3487331143606	0
1.36	40.1485045538584	0	1	0	1	0	40.1485045538584	0
1.37	39.9523494090584	0	1	0	1	0	39.9523494090584	0
1.38	39.7601875247614	0	1	0	1	0	39.7601875247614	0
1.39	39.571941052393	0	1	0	1	0	39.571941052393	0
1.4	39.3875343676233	0	1	0	1	0	39.3875343676233	0
1.41	39.2068939914938	0	1	0	1	0	39.2068939914938	0
1.42	39.0299485148757	0	1	0	1	0	39.0299485148757	0
1.43	38.8566285260985	0	1	0	1	0	38.8566285260985	0
1.44	38.6868665415933	0	1	0	1	0	38.6868665415933	0
1.45	38.5205969394073	0	1	0	1	0	38.5205969394073	0
1.46	38.3577558954491	0	1	0	1	0	38.3577558954491	0
1.47	38.1982813223375	0	1	0	1	0	38.1982813223375	0
1.48	38.0421128107286	0	1	0	1	0	38.0421128107286	0
1.49	37.8891915730056	0	1	0	1	0	37.8891915730056	0
1.5	37.7394603892219	0	1	0	1	0	37.7394603892219	0
1.51	37.5928635551907	0	1	0	1	0	37.5928635551907	0
1.52	37.449346832625	0	1	0	1	0	37.449346832625	0
1.53	37.3088574012323	0	1	0	1	0	37.3088574012323	0
1.54	37.1713438126757	0	1	0	1	0	37.1713438126757	0
1.55	37.0367559463172	0	1	0	1	0	37.0367559463172	0
1.56	36.9050449666636	0	1	0	1	0	36.9050449666636	0
1.57	36.7761632824378	0	1	0	1	0	36.7761632824378	0
1.58	36.6500645072054	0	1	0	1	0	36.6500645072054	0
1.59	36.5267034214862	0	1	0	1	0	36.5267034214862	0
1.6	36.4060359362871	0	1	0	1	0	36.4060359362871	0
1.61	36.2880190579936	0	1	0	1	0	36.2880190579936	0
1.62	36.1726108545619	0	1	0	1	0	36.1726108545619	0
1.63	36.0597704229557	0	1	0	1	0	36.0597704229557	0
1.64	35.9494578577733	0	1	0	1	0	35.9494578577733	0
1.65	35.841634221017	0	1	0	1	0	35.841634221017	0
1.66	35.736261512954	0	1	0	1	0	35.736261512954	0
1.67	35.6333026440247	0	1	0	1	0	35.6333026440247	0
1.68	35.5327214077544	0	1	0	1	0	35.5327214077544	0
1.69	35.4344824546261	0	1	0	1	0	35.4344824546261	0
1.7	35.3385512668765	0	1	0	1	0	35.3385512668765	0
1.71	35.244894134175	0	1	0	1	0	35.244894134175	0
1.72	35.1534781301525	0	1	0	1	0	35.1534781301525	0
1.73	35.064271089743	0	1	0	1	0	35.064271089743	0
1.74	34.9772415873075	0	1	0	1	0	34.9772415873075	0
1.75	34.8923589155071	0	1	0	1	0	34.8923589155071	0
1.76	34.8095930648971	0	1	0	1	0	34.8095930648971	0
1.77	34.7289147042123	0	1	0	1	0	34.7289147042123	0
1.78	34.6502951613171	0	1	0	1	0	34.6502951613171	0
1.79	34.573706404794	0	1	0	1	0	34.573706404794	0
1.8	34.4991210261458	0	1	0	1	0	34.4991210261458	0
1.81	34.4265122225881	0	1	0	1	0	34.4265122225881	0
1.82	34.3558537804086	0	1	0	1	0	34.3558537804086	0
1.83	34.2871200588723	0	1	0	1	0	34.2871200588723	0
1.84	34.2202859746515	0	1	0	1	0	34.2202859746515	0
1.85	34.1553269867608	0	1	0	1	0	34.1553269867608	0
1.86	34.0922190819777	0	1	0	1	0	34.0922190819777	0
1.87	34.0309387607318	0	1	0	1	0	34.0309387607318	0
1.88	33.9714630234434	0	1	0	1	0	33.9714630234434	0
1.89	33.9137693572963	0	1	0	1	0	33.9137693572963	0
1.9	33.8578357234287	0	1	0	1	0	33.8578357234287	0
1.91	33.8036405445252	0	1	0	1	0	33.8036405445252	0
1.92	33.751162692798	0	1	0	1	0	33.751162692798	0
1.93	33.700381478341	0	1	0	1	0	33.700381478341	0
1.94	33.6512766378439	0	1	0	1	0	33.6512766378439	0
1.95	33.6038283236543	0	1	0	1	0	33.6038283236543	0
1.96	33.5580170931737	0	1	0	1	0	33.5580170931737	0
1.97	33.5138238985772	0	1	0	1	0	33.5138238985772	0
1.98	33.4712300768446	0	1	0	1	0	33.4712300768446	0
1.99	33.4302173400917	0	1	0	1	0	33.4302173400917	0
2	33.3907677661919	0	1	0	1	0	33.3907677661919	0
2.01	33.352863789678	0	1	0	1	0	33.352863789678	0
2.02	33.3164881929136	0	1	0	1	0	33.3164881929136	0
2.03	33.2816240975264	0	1	0	1	0	33.2816240975264	0
2.04	33.2482549560922	0	1	0	1	0	33.2482549560922	0
2.05	33.2163645440637	0	1	0	1	0	33.2163645440637	0
2.06	33.1859369519332	0	1	0	1	0	33.1859369519332	0
2.07	33.156956577623	0	1	0	1	0	33.156956577623	0
2.08	33.1294081190956	0	1	0	1	0	33.1294081190956	0
2.09	33.1032765671753	0	1	0	1	0	33.1032765671753	0
2.1	33.0785471985754	0	1	0	1	0	33.0785471985754	0
2.11	33.0552055691239	0	1	0	1	0	33.0552055691239	0
2.12	33.03323750718	0	1	0	1	0	33.03323750718	0
2.13	33.0126291072373	0	1	0	1	0	33.0126291072373	0
2.14	32.9933667237053	0	1	0	1	0	32.9933667237053	0
2.15	32.9754369648648	0	1	0	1	0	32.9754369648648	0
2.16	32.9588266869917	0	1	0	1	0	32.9588266869917	0
2.17	32.9435229886422	0	1	0	1	0	32.9435229886422	0
2.18	32.9295132050966	0	1	0	1	0	32.9295132050966	0
2.19	32.916784902954	0	1	0	1	0	32.916784902954	0
2.2	32.9053258748753	0	1	0	1	0	32.9053258748753	0
2.21	32.895124134469	0	1	0	1	0	32.895124134469	0
2.22	32.8861679113144	0	1	0	1	0	32.8861679113144	0
2.23	32.8784456461195	0	1	0	1	0	32.8784456461195	0
2.24	32.8719459860082	0	1	0	1	0	32.8719459860082	0
2.25	32.8666577799332	0	1	0	1	0	32.8666577799332	0
2.26	32.8625700742111	0	1	0	1	0	32.8625700742111	0
2.27	32.8596721081749	0	1	0	1	0	32.8596721081749	0
2.28	32.857953309941	0	1	0	1	0	32.857953309941	0
2.29	32.8574032922877	0	1	0	1	0	32.8574032922877	0
2.3	32.8580118486407	0	1	0	1	0	32.8580118486407	0
2.31	32.8597689491628	0	1	0	1	0	32.8597689491628	0
2.32	32.8626647369451	0	1	0	1	0	32.8626647369451	0
2.33	32.8666895242959	0	1	0	1	0	32.8666895242959	0
2.34	32.8718337891252	0	1	0	1	0	32.8718337891252	0
2.35	32.8780881714211	0	1	0	1	0	32.8780881714211	0
2.36	32.8854434698159	0	1	0	1	0	32.8854434698159	0
2.37	32.8938906382394	0	1	0	1	0	32.8938906382394	0
2.38	32.9034207826559	0	1	0	1	0	32.9034207826559	0
2.39	32.9140251578842	0	1	0	1	0	32.9140251578842	0
2.4	32.9256951644958	0	1	0	1	0	32.9256951644958	0
2.41	32.9384223457916	0	1	0	1	0	32.9384223457916	0
2.42	32.9521983848525	0	1	0	1	0	32.9521983848525	0
2.43	32.9670151016634	0	1	0	1	0	32.9670151016634	0
2.44	32.9828644503079	0	1	0	1	0	32.9828644503079	0
2.45	32.9997385162313	0	1	0	1	0	32.9997385162313	0
2.46	33.0176295135712	0	1	0	1	0	33.0176295135712	0
2.47	33.0365297825516	0	1	0	1	0	33.0365297825516	0
2.48	33.0564317869416	0	1	0	1	0	33.0564317869416	0
2.49	33.0773281115742	0	1	0	1	0	33.0773281115742	0
2.5	33.099211459925	0	1	0	1	0	33.099211459925	0
2.51	33.1220746517488	0	1	0	1	0	33.1220746517488	0
2.52	33.1459106207728	0	1	0	1	0	33.1459106207728	0
2.53	33.1707124124436	0	1	0	1	0	33.1707124124436	0
2.54	33.1964731817286	0	1	0	1	0	33.1964731817286	0
2.55	33.2231861909682	0	1	0	1	0	33.2231861909682	0
2.56	33.2508448077786	0	1	0	1	0	33.2508448077786	0
2.57	33.2794425030039	0	1	0	1	0	33.2794425030039	0
2.58	33.3089728487154	0	1	0	1	0	33.3089728487154	0
2.59	33.3394295162573	0	1	0	1	0	33.3394295162573	0
2.6	33.370806274338	0	1	0	1	0	33.370806274338	0
2.61	33.4030969871643	0	1	0	1	0	33.4030969871643	0
2.62	33.4362956126194	0	1	0	1	0	33.4362956126194	0
2.63	33.470396200482	0	1	0	1	0	33.470396200482	0
2.64	33.5053928906853	0	1	0	1	0	33.5053928906853	0
2.65	33.5412799116165	0	1	0	1	0	33.5412799116165	0
2.66	33.5780515784541	0	1	0	1	0	33.5780515784541	0
2.67	33.6157022915423	0	1	0	1	0	33.6157022915423	0
2.68	33.6542265348023	0	1	0	1	0	33.6542265348023	0
2.69	33.6936188741788	0	1	0	1	0	33.6936188741788	0
2.7	33.733873956121	0	1	0	1	0	33.733873956121	0
2.71	33.7749865060972	0	1	0	1	0	33.7749865060972	0
2.72	33.8169513271425	0	1	0	1	0	33.8169513271425	0
2.73	33.8597632984381	0	1	0	1	0	33.8597632984381	0
2.74	33.9034173739213	0	1	0	1	0	33.9034173739213	0
2.75	33.947908580927	0	1	0	1	0	33.947908580927	0
2.76	33.9932320188576	0	1	0	1	0	33.9932320188576	0
2.77	34.0393828578823	0	1	0	1	0	34.0393828578823	0
2.78	34.0863563376643	0	1	0	1	0	34.0863563376643	0
2.79	34.1341477661151	0	1	0	1	0	34.1341477661151	0
2.8	34.1827525181764	0	1	0	1	0	34.1827525181764	0
2.81	34.2321660346268	0	1	0	1	0	34.2321660346268	0
2.82	34.2823838209147	0	1	0	1	0	34.2823838209147	0
2.83	34.3334014460159	0	1	0	1	0	34.3334014460159	0
2.84	34.3852145413148	0	1	0	1	0	34.3852145413148	0
2.85	34.4378187995098	0	1	0	1	0	34.4378187995098	0
2.86	34.4912099735413	0	1	0	1	0	34.4912099735413	0
2.87	34.5453838755421	0	1	0	1	0	34.5453838755421	0
2.88	34.60033637581	0	1	0	1	0	34.60033637581	0
2.89	34.6560634018009	0	1	0	1	0	34.6560634018009	0
2.9	34.7125609371443	0	1	0	1	0	34.7125609371443	0
2.91	34.769825020677	0	1	0	1	0	34.769825020677	0
2.92	34.8278517454986	0	1	0	1	0	34.8278517454986	0
2.93	34.8866372580452	0	1	0	1	0	34.8866372580452	0
2.94	34.9461777571822	0	1	0	1	0	34.9461777571822	0
2.95	35.0064694933161	0	1	0	1	0	35.0064694933161	0
2.96	35.0675087675233	0	1	0	1	0	35.0675087675233	0
2.97	35.1292919306974	0	1	0	1	0	35.1292919306974	0
2.98	35.1918153827134	0	1	0	1	0	35.1918153827134	0
2.99	35.2550755716085	0	1	0	1	0	35.2550755716085	0
3	35.3190689927792	0	1	0	1	0	35.3190689927792	0
3.01	35.3837921881951	0	1	0	1	0	35.3837921881951	0
3.02	35.4492417456274	0	1	0	1	0	35.4492417456274	0
3.03	35.5154142978931	0	1	0	1	0	35.5154142978931	0
3.04	35.5823065221144	0	1	0	1	0	35.5823065221144	0
3.05	35.6499151389921	0	1	0	1	0	35.6499151389921	0
3.06	35.7182369120939	0	1	0	1	0	35.7182369120939	0
3.07	35.7872686471557	0	1	0	1	0	35.7872686471557	0
3.08	35.8570071913976	0	1	0	1	0	35.8570071913976	0
3.09	35.9274494328521	0	1	0	1	0	35.9274494328521	0
3.1	35.9985922997064	0	1	0	1	0	35.9985922997064	0
3.11	36.0704327596563	0	1	0	1	0	36.0704327596563	0
3.12	36.1429678192736	0	1	0	1	0	36.1429678192736	0
3.13	36.2161945233846	0	1	0	1	0	36.2161945233846	0
3.14	36.2901099544609	0	1	0	1	0	36.2901099544609	0
3.15	36.3647112320225	0	1	0	1	0	36.3647112320225	0
3.16	36.439995512051	0	1	0	1	0	36.439995512051	0
3.17	36.5159599864145	0	1	0	1	0	36.5159599864145	0
3.18	36.5926018823037	0	1	0	1	0	36.5926018823037	0
3.19	36.6699184616781	0	1	0	1	0	36.6699184616781	0
3.2	36.7479070207225	0	1	0	1	0	36.7479070207225	0
3.21	36.8265648893144	0	1	0	1	0	36.8265648893144	0
3.22	36.9058894305002	0	1	0	1	0	36.9058894305002	0
3.23	36.9858780399824	0	1	0	1	0	36.9858780399824	0
3.24	37.0665281456149	0	1	0	1	0	37.0665281456149	0
3.25	37.1478372069093	0	1	0	1	0	37.1478372069093	0
3.26	37.2298027145484	0	1	0	1	0	37.2298027145484	0
3.27	37.3124221899102	0	1	0	1	0	37.3124221899102	0
3.28	37.3956931845999	0	1	0	1	0	37.3956931845999	0
3.29	37.4796132799901	0	1	0	1	0	37.4796132799901	0
3.3	37.5641800867705	0	1	0	1	0	37.5641800867705	0
3.31	37.6493912445043	0	1	0	1	0	37.6493912445043	0
3.32	37.7352444211938	0	1	0	1	0	37.7352444211938	0
3.33	37.8217373128534	0	1	0	1	0	37.8217373128534	0
3.34	37.9088676430901	0	1	0	1	0	37.9088676430901	0
3.35	37.9966331626915	0	1	0	1	0	37.9966331626915	0
3.36	38.0850316492218	0	1	0	1	0	38.0850316492218	0
3.37	38.1740609066243	0	1	0	1	0	38.1740609066243	0
3.38	38.2637187648307	0	1	0	1	0	38.2637187648307	0
3.39	38.3540030793788	0	1	0	1	0	38.3540030793788	0
3.4	38.444911731035	0	1	0	1	0	38.444911731035	0
3.41	38.5364426254249	0	1	0	1	0	38.5364426254249	0
3.42	38.6285936926695	0	1	0	1	0	38.6285936926695	0
3.43	38.7213628870286	0	1	0	1	0	38.7213628870286	0
3.44	38.8147481865495	0	1	0	1	0	38.8147481865495	0
3.45	38.9087475927225	0	1	0	1	0	38.9087475927225	0
3.46	39.0033591301421	0	1	0	1	0	39.0033591301421	0
3.47	39.0985808461739	0	1	0	1	0	39.0985808461739	0
3.48	39.1944108106277	0	1	0	1	0	39.1944108106277	0
3.49	39.2908471154358	0	1	0	1	0	39.2908471154358	0
3.5	39.3878878743369	0	1	0	1	0	39.3878878743369	0
3.51	39.4855312225658	0	1	0	1	0	39.4855312225658	0
3.52	39.5837753165474	0	1	0	1	0	39.5837753165474	0
3.53	39.6826183335975	0	1	0	1	0	39.6826183335975	0
3.54	39.7820584716266	0	1	0	1	0	39.7820584716266	0
3.55	39.882093948851	0	1	0	1	0	39.882093948851	0
3.56	39.9827230035067	0	1	0	1	0	39.9827230035067	0
3.57	40.0839438935694	0	1	0	1	0	40.0839438935694	0
3.58	40.1857548964789	0	1	0	1	0	40.1857548964789	0
3.59	40.2881543088677	0	1	0	1	0	40.2881543088677	0
3.6	40.3911404462947	0	1	0	1	0	40.3911404462947	0
3.61	40.4947116429829	0	1	0	1	0	40.4947116429829	0
3.62	40.5988662515617	0	1	0	1	0	40.5988662515617	0
3.63	40.7036026428135	0	1	0	1	0	40.7036026428135	0
3.64	40.8089192054239	0	1	0	1	0	40.8089192054239	0
3.65	40.914814345737	0	1	0	1	0	40.914814345737	0
3.66	41.0212864875138	0	1	0	1	0	41.0212864875138	0
3.67	41.1283340716949	0	1	0	1	0	41.1283340716949	0
3.68	41.2359555561675	0	1	0	1	0	41.2359555561675	0
3.69	41.3441494155351	0	1	0	1	0	41.3441494155351	0
3.7	41.4529141408923	0	1	0	1	0	41.4529141408923	0
3.71	41.562248239602	0	1	0	1	0	41.562248239602	0
3.72	41.672150235077	0	1	0	1	0	41.672150235077	0
3.73	41.7826186665649	0	1	0	1	0	41.7826186665649	0
3.74	41.8936520889364	0	1	0	1	0	41.8936520889364	0
3.75	42.0052490724766	0	1	0	1	0	42.0052490724766	0
3.76	42.1174082026805	0	1	0	1	0	42.1174082026805	0
3.77	42.2301280800513	0	1	0	1	0	42.2301280800513	0
3.78	42.3434073199015	0	1	0	1	0	42.3434073199015	0
3.79	42.4572445521576	0	1	0	1	0	42.4572445521576	0
3.8	42.5716384211682	0	1	0	1	0	42.5716384211682	0
3.81	42.6865875855142	0	1	0	1	0	42.6865875855142	0
3.82	42.802090717823	0	1	0	1	0	42.802090717823	0
3.83	42.9181465045848	0	1	0	1	0	42.9181465045848	0
3.84	43.0347536459721	0	1	0	1	0	43.0347536459721	0
3.85	43.1519108556623	0	1	0	1	0	43.1519108556623	0
3.86	43.2696168606624	0	1	0	1	0	43.2696168606624	0
3.87	43.387870401137	0	1	0	1	0	43.387870401137	0
3.88	43.5066702302387	0	1	0	1	0	43.5066702302387	0
3.89	43.6260151139411	0	1	0	1	0	43.6260151139411	0
3.9	43.7459038308747	0	1	0	1	0	43.7459038308747	0
3.91	43.8663351721646	0	1	0	1	0	43.8663351721646	0
3.92	43.9873079412714	0	1	0	1	0	43.9873079412714	0
3.93	44.1088209538342	0	1	0	1	0	44.1088209538342	0
3.94	44.2308730375162	0	1	0	1	0	44.2308730375162	0
3.95	44.3534630318522	0	1	0	1	0	44.3534630318522	0
3.96	44.476589788099	0	1	0	1	0	44.476589788099	0
3.97	44.6002521690876	0	1	0	1	0	44.6002521690876	0
3.98	44.7244490490777	0	1	0	1	0	44.7244490490777	0
3.99	44.8491793136149	0	1	0	1	0	44.8491793136149	0
4	44.9744418593891	0	1	0	1	0	44.9744418593891	0
4.01	45.1002355940958	0	1	0	1	0	45.1002355940958	0
4.02	45.2265594362994	0	1	0	1	0	45.2265594362994	0
4.03	45.353412315298	0	1	0	1	0	45.353412315298	0
4.04	45.4807931709906	0	1	0	1	0	45.4807931709906	0
4.05	45.6087009537466	0	1	0	1	0	45.6087009537466	0
4.06	45.7371346242765	0	1	0	1	0	45.7371346242765	0
4.07	45.8660931535047	0	1	0	1	0	45.8660931535047	0
4.08	45.9955755224449	0	1	0	1	0	45.9955755224449	0
4.09	46.1255807220763	0	1	0	1	0	46.1255807220763	0
4.1	46.2561077532222	0	1	0	1	0	46.2561077532222	0
4.11	46.3871556264303	0	1	0	1	0	46.3871556264303	0
4.12	46.5187233618546	0	1	0	1	0	46.5187233618546	0
4.13	46.6508099891391	0	1	0	1	0	46.6508099891391	0
4.14	46.7834145473033	0	1	0	1	0	46.7834145473033	0
4.15	46.9165360846291	0	1	0	1	0	46.9165360846291	0
4.16	47.0501736585494	0	1	0	1	0	47.0501736585494	0
4.17	47.1843263355389	0	1	0	1	0	47.1843263355389	0
4.18	47.3189931910051	0	1	0	1	0	47.3189931910051	0
4.19	47.4541733091826	0	1	0	1	0	47.4541733091826	0
4.2	47.5898657830272	0	1	0	1	0	47.5898657830272	0
4.21	47.7260697141128	0	1	0	1	0	47.7260697141128	0
4.22	47.8627842125294	0	1	0	1	0	47.8627842125294	0
4.23	48.000008396782	0	1	0	1	0	48.000008396782	0
4.24	48.1377413936916	0	1	0	1	0	48.1377413936916	0
4.25	48.2759823382974	0	1	0	1	0	48.2759823382974	0
4.26	48.4147303737604	0	1	0	1	0	48.4147303737604	0
4.27	48.553984651268	0	1	0	1	0	48.553984651268	0
4.28	48.6937443299406	0	1	0	1	0	48.6937443299406	0
4.29	48.8340085767389	0	1	0	1	0	48.8340085767389	0
4.3	48.9747765663727	0	1	0	1	0	48.9747765663727	0
4.31	49.1160474812113	0	1	0	1	0	49.1160474812113	0
4.32	49.2578205111946	0	1	0	1	0	49.2578205111946	0
4.33	49.4000948537455	0	1	0	1	0	49.4000948537455	0
4.34	49.5428697136843	0	1	0	1	0	49.5428697136843	0
4.35	49.686144303143	0	1	0	1	0	49.686144303143	0
4.36	49.829917841482	0	1	0	1	0	49.829917841482	0
4.37	49.9741895552069	0	1	0	1	0	49.9741895552069	0
4.38	50.1189586778873	0	1	0	1	0	50.1189586778873	0
4.39	50.2642244500762	0	1	0	1	0	50.2642244500762	0
4.4	50.4099861192307	0	1	0	1	0	50.4099861192307	0
4.41	50.5562429396335	0	1	0	1	0	50.5562429396335	0
4.42	50.7029941723163	0	1	0	1	0	50.7029941723163	0
4.43	50.8502390849826	0	1	0	1	0	50.8502390849826	0
4.44	50.9979769519338	0	1	0	1	0	50.9979769519338	0
4.45	51.1462070539939	0	1	0	1	0	51.1462070539939	0
4.46	51.2949286784372	0	1	0	1	0	51.2949286784372	0
4.47	51.4441411189158	0	1	0	1	0	51.4441411189158	0
4.48	51.5938436753885	0	1	0	1	0	51.5938436753885	0
4.49	51.7440356540504	0	1	0	1	0	51.7440356540504	0
4.5	51.894716367264	0	1	0	1	0	51.894716367264	0
4.51	52.0458851334904	0	1	0	1	0	52.0458851334904	0
4.52	52.1975412772221	0	1	0	1	0	52.1975412772221	0
4.53	52.3496841289163	0	1	0	1	0	52.3496841289163	0
4.54	52.5023130249291	0	1	0	1	0	52.5023130249291	0
4.55	52.6554273074513	0	1	0	1	0	52.6554273074513	0
4.56	52.8090263244434	0	1	0	1	0	52.8090263244434	0
4.57	52.9631094295735	0	1	0	1	0	52.9631094295735	0
4.58	53.1176759821541	0	1	0	1	0	53.1176759821541	0
4.59	53.2727253470814	0	1	0	1	0	53.2727253470814	0
4.6	53.428256894774	0	1	0	1	0	53.428256894774	0
4.61	53.5842700011134	0	1	0	1	0	53.5842700011134	0
4.62	53.7407640473845	0	1	0	1	0	53.7407640473845	0
4.63	53.8977384202178	0	1	0	1	0	53.8977384202178	0
4.64	54.0551925115312	0	1	0	1	0	54.0551925115312	0
4.65	54.2131257184735	0	1	0	1	0	54.2131257184735	0
4.66	54.3715374433682	0	1	0	1	0	54.3715374433682	0
4.67	54.5304270936581	0	1	0	1	0	54.5304270936581	0
4.68	54.6897940818505	0	1	0	1	0	54.6897940818505	0
4.69	54.8496378254635	0	1	0	1	0	54.8496378254635	0
4.7	55.0099577469722	0	1	0	1	0	55.0099577469722	0
4.71	55.1707532737567	0	1	0	1	0	55.1707532737567	0
4.72	55.3320238380495	0	1	0	1	0	55.3320238380495	0
4.73	55.4937688768846	0	1	0	1	0	55.4937688768846	0
4.74	55.655987832047	0	1	0	1	0	55.655987832047	0
4.75	55.8186801500223	0	1	0	1	0	55.8186801500223	0
4.76	55.9818452819473	0	1	0	1	0	55.9818452819473	0
4.77	56.1454826835616	0	1	0	1	0	56.1454826835616	0
4.78	56.3095918151594	0	1	0	1	0	56.3095918151594	0
4.79	56.4741721415417	0	1	0	1	0	56.4741721415417	0
4.8	56.6392231319694	0	1	0	1	0	56.6392231319694	0
4.81	56.8047442601171	0	1	0	1	0	56.8047442601171	0
4.82	56.9707350040274	0	1	0	1	0	56.9707350040274	0
4.83	57.1371948460654	0	1	0	1	0	57.1371948460654	0
4.84	57.3041232728741	0	1	0	1	0	57.3041232728741	0
4.85	57.4715197753305	0	1	0	1	0	57.4715197753305	0
4.86	57.6393838485019	0	1	0	1	0	57.6393838485019	0
4.87	57.8077149916028	0	1	0	1	0	57.8077149916028	0
4.88	57.9765127079525	0	1	0	1	0	57.9765127079525	0
4.89	58.1457765049333	0	1	0	1	0	58.1457765049333	0
4.9	58.3155058939487	0	1	0	1	0	58.3155058939487	0
4.91	58.4857003903827	0	1	0	1	0	58.4857003903827	0
4.92	58.6563595135591	0	1	0	1	0	58.6563595135591	0
4.93	58.8274827867021	0	1	0	1	0	58.8274827867021	0
