# GHZ S RI R 50
1	51.9535589277468	0	1	0	1	0	51.9535589277468	0
1.01	51.527563479608	0	1	0	1	0	51.527563479608	0
1.02	51.1112749200443	0	1	0	1	0	51.1112749200443	0
1.03	50.7044238002909	0	1	0	1	0	50.7044238002909	0
1.04	50.3067510349971	0	1	0	1	0	50.3067510349971	0
1.05	49.9180074087301	0	1	0	1	0	49.9180074087301	0
1.06	49.5379531104135	0	1	0	1	0	49.5379531104135	0
1.07	49.1663572938705	0	1	0	1	0	49.1663572938705	0
1.08	48.8029976627829	0	1	0	1	0	48.8029976627829	0
1.09	48.4476600784957	0	1	0	1	0	48.4476600784957	0
1.1	48.1001381892137	0	1	0	1	0	48.1001381892137	0
1.11	47.7602330792429	0	1	0	1	0	47.7602330792429	0
1.12	47.4277529370208	0	1	0	1	0	47.4277529370208	0
1.13	47.102512740775	0	1	0	1	0	47.102512740775	0
1.14	46.7843339607249	0	1	0	1	0	46.7843339607249	0
1.15	46.4730442768217	0	1	0	1	0	46.4730442768217	0
1.16	46.1684773110869	0	1	0	1	0	46.1684773110869	0
1.17	45.8704723736783	0	1	0	1	0	45.8704723736783	0
1.18	45.5788742218669	0	1	0	1	0	45.5788742218669	0
1.19	45.2935328311665	0	1	0	1	0	45.2935328311665	0
1.2	45.0143031779075	0	1	0	1	0	45.0143031779075	0
1.21	44.7410450325908	0	1	0	1	0	44.7410450325908	0
1.22	44.473622763406	0	1	0	1	0	44.473622763406	0
1.23	44.2119051493333	0	1	0	1	0	44.2119051493333	0
1.24	43.9557652022889	0	1	0	1	0	43.9557652022889	0
1.25	43.7050799978079	0	1	0	1	0	43.7050799978079	0
1.26	43.4597305137891	0	1	0	1	0	43.4597305137891	0
1.27	43.219601476859	0	1	0	1	0	43.219601476859	0
1.28	42.9845812159372	0	1	0	1	0	42.9845812159372	0
1.29	42.7545615226121	0	1	0	1	0	42.7545615226121	0
1.3	42.529437517962	0	1	0	1	0	42.529437517962	0
1.31	42.3091075254748	0	1	0	1	0	42.3091075254748	0
1.32	42.0934729497451	0	1	0	1	0	42.0934729497451	0
1.33	41.8824381606426	0	1	0	1	0	41.8824381606426	0
1.34	41.6759103826678	0	1	0	1	0	41.6759103826678	0
1.35	41.473799589225	0	1	0	1	0	41.473799589225	0
1.36	41.2760184015595	0	1	0	1	0	41.2760184015595	0
1.37	41.082481992121	0	1	0	1	0	41.082481992121	0
1.38	40.8931079921289	0	1	0	1	0	40.8931079921289	0
1.39	40.7078164031272	0	1	0	1	0	40.7078164031272	0
1.4	40.5265295123302	0	1	0	1	0	40.5265295123302	0
1.41	40.3491718115699	0	1	0	1	0	40.3491718115699	0
1.42	40.1756699196693	0	1	0	1	0	40.1756699196693	0
1.43	40.0059525080714	0	1	0	1	0	40.0059525080714	0
1.44	39.8399502295684	0	1	0	1	0	39.8399502295684	0
1.45	39.6775956499785	0	1	0	1	0	39.6775956499785	0
1.46	39.5188231826321	0	1	0	1	0	39.5188231826321	0
1.47	39.3635690255307	0	1	0	1	0	39.3635690255307	0
1.48	39.2117711010541	0	1	0	1	0	39.2117711010541	0
1.49	39.0633689980955	0	1	0	1	0	39.0633689980955	0
1.5	38.9183039165109	0	1	0	1	0	38.9183039165109	0
1.51	38.776518613776	0	1	0	1	0	38.776518613776	0
1.52	38.6379573537487	0	1	0	1	0	38.6379573537487	0
1.53	38.502565857441	0	1	0	1	0	38.502565857441	0
1.54	38.3702912557087	0	1	0	1	0	38.3702912557087	0
1.55	38.2410820437726	0	1	0	1	0	38.2410820437726	0
1.56	38.114888037489	0	1	0	1	0	38.114888037489	0
1.57	37.9916603312909	0	1	0	1	0	37.9916603312909	0
1.58	37.871351257727	0	1	0	1	0	37.871351257727	0
1.59	37.7539143485273	0	1	0	1	0	37.7539143485273	0
1.6	37.6393042971283	0	1	0	1	0	37.6393042971283	0
1.61	37.5274769225956	0	1	0	1	0	37.5274769225956	0
1.62	37.418389134882	0	1	0	1	0	37.418389134882	0
1.63	37.3119989013649	0	1	0	1	0	37.3119989013649	0
1.64	37.2082652146073	0	1	0	1	0	37.2082652146073	0
1.65	37.1071480612922	0	1	0	1	0	37.1071480612922	0
1.66	37.0086083922788	0	1	0	1	0	37.0086083922788	0
1.67	36.912608093735	0	1	0	1	0	36.912608093735	0
1.68	36.819109959301	0	1	0	1	0	36.819109959301	0
1.69	36.7280776632409	0	1	0	1	0	36.7280776632409	0
1.7	36.6394757345418	0	1	0	1	0	36.6394757345418	0
1.71	36.5532695319224	0	1	0	1	0	36.5532695319224	0
1.72	36.4694252197124	0	1	0	1	0	36.4694252197124	0
1.73	36.3879097445691	0	1	0	1	0	36.3879097445691	0
1.74	36.3086908129969	0	1	0	1	0	36.3086908129969	0
1.75	36.2317368696371	0	1	0	1	0	36.2317368696371	0
1.76	36.1570170762984	0	1	0	1	0	36.1570170762984	0
1.77	36.0845012916977	0	1	0	1	0	36.0845012916977	0
1.78	36.0141600518841	0	1	0	1	0	36.0141600518841	0
1.79	35.945964551319	0	1	0	1	0	35.945964551319	0
1.8	35.8798866245869	0	1	0	1	0	35.8798866245869	0
1.81	35.8158987287124	0	1	0	1	0	35.8158987287124	0
1.82	35.7539739260602	0	1	0	1	0	35.7539739260602	0
1.83	35.6940858677958	0	1	0	1	0	35.6940858677958	0
1.84	35.6362087778855	0	1	0	1	0	35.6362087778855	0
1.85	35.5803174376153	0	1	0	1	0	35.5803174376153	0
1.86	35.5263871706088	0	1	0	1	0	35.5263871706088	0
1.87	35.474393828327	0	1	0	1	0	35.474393828327	0
1.88	35.4243137760292	0	1	0	1	0	35.4243137760292	0
1.89	35.3761238791812	0	1	0	1	0	35.3761238791812	0
1.9	35.3298014902912	0	1	0	1	0	35.3298014902912	0
1.91	35.2853244361609	0	1	0	1	0	35.2853244361609	0
1.92	35.2426710055332	0	1	0	1	0	35.2426710055332	0
1.93	35.2018199371256	0	1	0	1	0	35.2018199371256	0
1.94	35.1627504080324	0	1	0	1	0	35.1627504080324	0
1.95	35.1254420224843	0	1	0	1	0	35.1254420224843	0
1.96	35.0898748009524	0	1	0	1	0	35.0898748009524	0
1.97	35.0560291695834	0	1	0	1	0	35.0560291695834	0
1.98	35.0238859499554	0	1	0	1	0	35.0238859499554	0
1.99	34.9934263491425	0	1	0	1	0	34.9934263491425	0
2	34.9646319500771	0	1	0	1	0	34.9646319500771	0
2.01	34.9374847022007	0	1	0	1	0	34.9374847022007	0
2.02	34.9119669123914	0	1	0	1	0	34.9119669123914	0
2.03	34.8880612361603	0	1	0	1	0	34.8880612361603	0
2.04	34.8657506691065	0	1	0	1	0	34.8657506691065	0
2.05	34.8450185386223	0	1	0	1	0	34.8450185386223	0
2.06	34.82584849584	0	1	0	1	0	34.82584849584	0
2.07	34.8082245078119	0	1	0	1	0	34.8082245078119	0
2.08	34.7921308499165	0	1	0	1	0	34.7921308499165	0
2.09	34.7775520984817	0	1	0	1	0	34.7775520984817	0
2.1	34.7644731236198	0	1	0	1	0	34.7644731236198	0
2.11	34.7528790822655	0	1	0	1	0	34.7528790822655	0
2.12	34.7427554114114	0	1	0	1	0	34.7427554114114	0
2.13	34.7340878215339	0	1	0	1	0	34.7340878215339	0
2.14	34.7268622902032	0	1	0	1	0	34.7268622902032	0
2.15	34.7210650558718	0	1	0	1	0	34.7210650558718	0
2.16	34.716682611836	0	1	0	1	0	34.716682611836	0
2.17	34.7137017003631	0	1	0	1	0	34.7137017003631	0
2.18	34.7121093069821	0	1	0	1	0	34.7121093069821	0
2.19	34.7118926549289	0	1	0	1	0	34.7118926549289	0
2.2	34.7130391997442	0	1	0	1	0	34.7130391997442	0
2.21	34.715536624018	0	1	0	1	0	34.715536624018	0
2.22	34.7193728322752	0	1	0	1	0	34.7193728322752	0
2.23	34.7245359460002	0	1	0	1	0	34.7245359460002	0
2.24	34.7310142987937	0	1	0	1	0	34.7310142987937	0
2.25	34.7387964316591	0	1	0	1	0	34.7387964316591	0
2.26	34.7478710884137	0	1	0	1	0	34.7478710884137	0
2.27	34.7582272112218	0	1	0	1	0	34.7582272112218	0
2.28	34.7698539362449	0	1	0	1	0	34.7698539362449	0
2.29	34.7827405894055	0	1	0	1	0	34.7827405894055	0
2.3	34.7968766822627	0	1	0	1	0	34.7968766822627	0
2.31	34.8122519079932	0	1	0	1	0	34.8122519079932	0
2.32	34.828856137478	0	1	0	1	0	34.828856137478	0
2.33	34.8466794154881	0	1	0	1	0	34.8466794154881	0
2.34	34.8657119569697	0	1	0	1	0	34.8657119569697	0
2.35	34.8859441434228	0	1	0	1	0	34.8859441434228	0
2.36	34.9073665193732	0	1	0	1	0	34.9073665193732	0
2.37	34.9299697889324	0	1	0	1	0	34.9299697889324	0
2.38	34.9537448124455	0	1	0	1	0	34.9537448124455	0
2.39	34.9786826032226	0	1	0	1	0	34.9786826032226	0
2.4	35.0047743243517	0	1	0	1	0	35.0047743243517	0
2.41	35.0320112855919	0	1	0	1	0	35.0320112855919	0
2.42	35.0603849403424	0	1	0	1	0	35.0603849403424	0
2.43	35.0898868826873	0	1	0	1	0	35.0898868826873	0
2.44	35.1205088445124	0	1	0	1	0	35.1205088445124	0
2.45	35.1522426926933	0	1	0	1	0	35.1522426926933	0
2.46	35.1850804263516	0	1	0	1	0	35.1850804263516	0
2.47	35.2190141741776	0	1	0	1	0	35.2190141741776	0
2.48	35.2540361918183	0	1	0	1	0	35.2540361918183	0
2.49	35.2901388593279	0	1	0	1	0	35.2901388593279	0
2.5	35.3273146786799	0	1	0	1	0	35.3273146786799	0
2.51	35.3655562713381	0	1	0	1	0	35.3655562713381	0
2.52	35.4048563758859	0	1	0	1	0	35.4048563758859	0
2.53	35.4452078457119	0	1	0	1	0	35.4452078457119	0
2.54	35.4866036467496	0	1	0	1	0	35.4866036467496	0
2.55	35.5290368552707	0	1	0	1	0	35.5290368552707	0
2.56	35.5725006557306	0	1	0	1	0	35.5725006557306	0
2.57	35.6169883386626	0	1	0	1	0	35.6169883386626	0
2.58	35.6624932986232	0	1	0	1	0	35.6624932986232	0
2.59	35.7090090321834	0	1	0	1	0	35.7090090321834	0
2.6	35.7565291359667	0	1	0	1	0	35.7565291359667	0
2.61	35.8050473047328	0	1	0	1	0	35.8050473047328	0
2.62	35.8545573295048	0	1	0	1	0	35.8545573295048	0
2.63	35.9050530957387	0	1	0	1	0	35.9050530957387	0
2.64	35.956528581535	0	1	0	1	0	35.956528581535	0
2.65	36.008977855891	0	1	0	1	0	36.008977855891	0
2.66	36.062395076992	0	1	0	1	0	36.062395076992	0
2.67	36.116774490541	0	1	0	1	0	36.116774490541	0
2.68	36.1721104281262	0	1	0	1	0	36.1721104281262	0
2.69	36.2283973056242	0	1	0	1	0	36.2283973056242	0
2.7	36.2856296216396	0	1	0	1	0	36.2856296216396	0
2.71	36.3438019559783	0	1	0	1	0	36.3438019559783	0
2.72	36.402908968155	0	1	0	1	0	36.402908968155	0
2.73	36.462945395933	0	1	0	1	0	36.462945395933	0
2.74	36.5239060538971	0	1	0	1	0	36.5239060538971	0
2.75	36.5857858320558	0	1	0	1	0	36.5857858320558	0
2.76	36.6485796944757	0	1	0	1	0	36.6485796944757	0
2.77	36.7122826779444	0	1	0	1	0	36.7122826779444	0
2.78	36.7768898906628	0	1	0	1	0	36.7768898906628	0
2.79	36.8423965109648	0	1	0	1	0	36.8423965109648	0
2.8	36.9087977860654	0	1	0	1	0	36.9087977860654	0
2.81	36.9760890308351	0	1	0	1	0	36.9760890308351	0
2.82	37.0442656265997	0	1	0	1	0	37.0442656265997	0
2.83	37.1133230199671	0	1	0	1	0	37.1133230199671	0
2.84	37.1832567216771	0	1	0	1	0	37.1832567216771	0
2.85	37.2540623054769	0	1	0	1	0	37.2540623054769	0
2.86	37.3257354070192	0	1	0	1	0	37.3257354070192	0
2.87	37.3982717227839	0	1	0	1	0	37.3982717227839	0
2.88	37.4716670090219	0	1	0	1	0	37.4716670090219	0
2.89	37.5459170807214	0	1	0	1	0	37.5459170807214	0
2.9	37.6210178105946	0	1	0	1	0	37.6210178105946	0
2.91	37.6969651280862	0	1	0	1	0	37.6969651280862	0
2.92	37.7737550184022	0	1	0	1	0	37.7737550184022	0
2.93	37.8513835215577	0	1	0	1	0	37.8513835215577	0
2.94	37.9298467314455	0	1	0	1	0	37.9298467314455	0
2.95	38.0091407949224	0	1	0	1	0	38.0091407949224	0
2.96	38.0892619109146	0	1	0	1	0	38.0892619109146	0
2.97	38.1702063295414	0	1	0	1	0	38.1702063295414	0
2.98	38.2519703512559	0	1	0	1	0	38.2519703512559	0
2.99	38.3345503260037	0	1	0	1	0	38.3345503260037	0
3	38.4179426523975	0	1	0	1	0	38.4179426523975	0
3.01	38.5021437769092	0	1	0	1	0	38.5021437769092	0
3.02	38.5871501930772	0	1	0	1	0	38.5871501930772	0
3.03	38.6729584407298	0	1	0	1	0	38.6729584407298	0
3.04	38.7595651052239	0	1	0	1	0	38.7595651052239	0
3.05	38.8469668166987	0	1	0	1	0	38.8469668166987	0
3.06	38.9351602493438	0	1	0	1	0	38.9351602493438	0
3.07	39.0241421206817	0	1	0	1	0	39.0241421206817	0
3.08	39.1139091908646	0	1	0	1	0	39.1139091908646	0
3.09	39.2044582619845	0	1	0	1	0	39.2044582619845	0
3.1	39.2957861773968	0	1	0	1	0	39.2957861773968	0
3.11	39.3878898210566	0	1	0	1	0	39.3878898210566	0
3.12	39.4807661168685	0	1	0	1	0	39.4807661168685	0
3.13	39.5744120280481	0	1	0	1	0	39.5744120280481	0
3.14	39.6688245564962	0	1	0	1	0	39.6688245564962	0
3.15	39.7640007421847	0	1	0	1	0	39.7640007421847	0
3.16	39.8599376625543	0	1	0	1	0	39.8599376625543	0
3.17	39.9566324319232	0	1	0	1	0	39.9566324319232	0
3.18	40.0540822009078	0	1	0	1	0	40.0540822009078	0
3.19	40.152284155853	0	1	0	1	0	40.152284155853	0
3.2	40.2512355182748	0	1	0	1	0	40.2512355182748	0
3.21	40.350933544312	0	1	0	1	0	40.350933544312	0
3.22	40.4513755241884	0	1	0	1	0	40.4513755241884	0
3.23	40.5525587816855	0	1	0	1	0	40.5525587816855	0
3.24	40.6544806736247	0	1	0	1	0	40.6544806736247	0
3.25	40.7571385893586	0	1	0	1	0	40.7571385893586	0
3.26	40.8605299502725	0	1	0	1	0	40.8605299502725	0
3.27	40.9646522092942	0	1	0	1	0	40.9646522092942	0
3.28	41.0695028504134	0	1	0	1	0	41.0695028504134	0
3.29	41.1750793882097	0	1	0	1	0	41.1750793882097	0
3.3	41.2813793673888	0	1	0	1	0	41.2813793673888	0
3.31	41.3884003623279	0	1	0	1	0	41.3884003623279	0
3.32	41.4961399766283	0	1	0	1	0	41.4961399766283	0
3.33	41.6045958426771	0	1	0	1	0	41.6045958426771	0
3.34	41.7137656212159	0	1	0	1	0	41.7137656212159	0
3.35	41.8236470009178	0	1	0	1	0	41.8236470009178	0
3.36	41.9342376979716	0	1	0	1	0	41.9342376979716	0
3.37	42.0455354556739	0	1	0	1	0	42.0455354556739	0
3.38	42.1575380440276	0	1	0	1	0	42.1575380440276	0
3.39	42.2702432593483	0	1	0	1	0	42.2702432593483	0
3.4	42.3836489238773	0	1	0	1	0	42.3836489238773	0
3.41	42.4977528854017	0	1	0	1	0	42.4977528854017	0
3.42	42.6125530168802	0	1	0	1	0	42.6125530168802	0
3.43	42.7280472160771	0	1	0	1	0	42.7280472160771	0
3.44	42.844233405201	0	1	0	1	0	42.844233405201	0
3.45	42.961109530551	0	1	0	1	0	42.961109530551	0
3.46	43.0786735621684	0	1	0	1	0	43.0786735621684	0
3.47	43.1969234934946	0	1	0	1	0	43.1969234934946	0
3.48	43.3158573410347	0	1	0	1	0	43.3158573410347	0
3.49	43.4354731440275	0	1	0	1	0	43.4354731440275	0
3.5	43.5557689641205	0	1	0	1	0	43.5557689641205	0
3.51	43.6767428850504	0	1	0	1	0	43.6767428850504	0
3.52	43.79839301233	0	1	0	1	0	43.79839301233	0
3.53	43.9207174729392	0	1	0	1	0	43.9207174729392	0
3.54	44.0437144150219	0	1	0	1	0	44.0437144150219	0
3.55	44.167382007588	0	1	0	1	0	44.167382007588	0
3.56	44.2917184402205	0	1	0	1	0	44.2917184402205	0
3.57	44.416721922787	0	1	0	1	0	44.416721922787	0
3.58	44.5423906851567	0	1	0	1	0	44.5423906851567	0
3.59	44.6687229769215	0	1	0	1	0	44.6687229769215	0
3.6	44.7957170671226	0	1	0	1	0	44.7957170671226	0
3.61	44.9233712439805	0	1	0	1	0	44.9233712439805	0
3.62	45.0516838146306	0	1	0	1	0	45.0516838146306	0
3.63	45.1806531048623	0	1	0	1	0	45.1806531048623	0
3.64	45.310277458863	0	1	0	1	0	45.310277458863	0
3.65	45.440555238966	0	1	0	1	0	45.440555238966	0
3.66	45.5714848254026	0	1	0	1	0	45.5714848254026	0
3.67	45.7030646160582	0	1	0	1	0	45.7030646160582	0
3.68	45.8352930262325	0	1	0	1	0	45.8352930262325	0
3.69	45.9681684884037	0	1	0	1	0	45.9681684884037	0
3.7	46.1016894519958	0	1	0	1	0	46.1016894519958	0
3.71	46.2358543831509	0	1	0	1	0	46.2358543831509	0
3.72	46.3706617645041	0	1	0	1	0	46.3706617645041	0
3.73	46.5061100949627	0	1	0	1	0	46.5061100949627	0
3.74	46.6421978894881	0	1	0	1	0	46.6421978894881	0
3.75	46.7789236788824	0	1	0	1	0	46.7789236788824	0
3.76	46.9162860095774	0	1	0	1	0	46.9162860095774	0
3.77	47.0542834434272	0	1	0	1	0	47.0542834434272	0
3.78	47.1929145575048	0	1	0	1	0	47.1929145575048	0
3.79	47.3321779439003	0	1	0	1	0	47.3321779439003	0
3.8	47.4720722095245	0	1	0	1	0	47.4720722095245	0
3.81	47.6125959759134	0	1	0	1	0	47.6125959759134	0
3.82	47.7537478790373	0	1	0	1	0	47.7537478790373	0
3.83	47.8955265691123	0	1	0	1	0	47.8955265691123	0
3.84	48.0379307104147	0	1	0	1	0	48.0379307104147	0
3.85	48.1809589810984	0	1	0	1	0	48.1809589810984	0
3.86	48.3246100730154	0	1	0	1	0	48.3246100730154	0
3.87	48.4688826915383	0	1	0	1	0	48.4688826915383	0
3.88	48.6137755553865	0	1	0	1	0	48.6137755553865	0
3.89	48.7592873964547	0	1	0	1	0	48.7592873964547	0
3.9	48.9054169596435	0	1	0	1	0	48.9054169596435	0
3.91	49.0521630026937	0	1	0	1	0	49.0521630026937	0
3.92	49.1995242960219	0	1	0	1	0	49.1995242960219	0
3.93	49.3474996225598	0	1	0	1	0	49.3474996225598	0
3.94	49.4960877775949	0	1	0	1	0	49.4960877775949	0
3.95	49.6452875686147	0	1	0	1	0	49.6452875686147	0
3.96	49.7950978151518	0	1	0	1	0	49.7950978151518	0
3.97	49.945517348633	0	1	0	1	0	49.945517348633	0
3.98	50.0965450122294	0	1	0	1	0	50.0965450122294	0
3.99	50.2481796607096	0	1	0	1	0	50.2481796607096	0
4	50.4004201602942	0	1	0	1	0	50.4004201602942	0
4.01	50.5532653885135	0	1	0	1	0	50.5532653885135	0
4.02	50.7067142340666	0	1	0	1	0	50.7067142340666	0
4.03	50.860765596683	0	1	0	1	0	50.860765596683	0
4.04	51.0154183869859	0	1	0	1	0	51.0154183869859	0
4.05	51.1706715263577	0	1	0	1	0	51.1706715263577	0
4.06	51.3265239468075	0	1	0	1	0	51.3265239468075	0
4.07	51.482974590841	0	1	0	1	0	51.482974590841	0
4.08	51.6400224113311	0	1	0	1	0	51.6400224113311	0
4.09	51.7976663713917	0	1	0	1	0	51.7976663713917	0
4.1	51.9559054442527	0	1	0	1	0	51.9559054442527	0
4.11	52.1147386131369	0	1	0	1	0	52.1147386131369	0
4.12	52.2741648711386	0	1	0	1	0	52.2741648711386	0
4.13	52.4341832211043	0	1	0	1	0	52.4341832211043	0
4.14	52.5947926755149	0	1	0	1	0	52.5947926755149	0
4.15	52.7559922563693	0	1	0	1	0	52.7559922563693	0
4.16	52.9177809950707	0	1	0	1	0	52.9177809950707	0
4.17	53.0801579323129	0	1	0	1	0	53.0801579323129	0
4.18	53.2431221179701	0	1	0	1	0	53.2431221179701	0
4.19	53.4066726109866	0	1	0	1	0	53.4066726109866	0
4.2	53.5708084792692	0	1	0	1	0	53.5708084792692	0
4.21	53.7355287995809	0	1	0	1	0	53.7355287995809	0
4.22	53.9008326574355	0	1	0	1	0	53.9008326574355	0
4.23	54.0667191469945	0	1	0	1	0	54.0667191469945	0
4.24	54.2331873709651	0	1	0	1	0	54.2331873709651	0
4.25	54.4002364404996	0	1	0	1	0	54.4002364404996	0
4.26	54.5678654750962	0	1	0	1	0	54.5678654750962	0
4.27	54.7360736025016	0	1	0	1	0	54.7360736025016	0
4.28	54.904859958614	0	1	0	1	0	54.904859958614	0
4.29	55.0742236873889	0	1	0	1	0	55.0742236873889	0
4.3	55.2441639407448	0	1	0	1	0	55.2441639407448	0
4.31	55.414679878471	0	1	0	1	0	55.414679878471	0
4.32	55.5857706681366	0	1	0	1	0	55.5857706681366	0
4.33	55.7574354850005	0	1	0	1	0	55.7574354850005	0
4.34	55.9296735119231	0	1	0	1	0	55.9296735119231	0
4.35	56.1024839392786	0	1	0	1	0	56.1024839392786	0
4.36	56.2758659648689	0	1	0	1	0	56.2758659648689	0
4.37	56.4498187938387	0	1	0	1	0	56.4498187938387	0
4.38	56.6243416385918	0	1	0	1	0	56.6243416385918	0
4.39	56.7994337187081	0	1	0	1	0	56.7994337187081	0
4.4	56.9750942608622	0	1	0	1	0	56.9750942608622	0
4.41	57.1513224987433	0	1	0	1	0	57.1513224987433	0
4.42	57.3281176729752	0	1	0	1	0	57.3281176729752	0
4.43	57.5054790310384	0	1	0	1	0	57.5054790310384	0
4.44	57.6834058271931	0	1	0	1	0	57.6834058271931	0
4.45	57.8618973224026	0	1	0	1	0	57.8618973224026	0
4.46	58.0409527842582	0	1	0	1	0	58.0409527842582	0
4.47	58.2205714869056	0	1	0	1	0	58.2205714869056	0
4.48	58.4007527109709	0	1	0	1	0	58.4007527109709	0
4.49	58.5814957434891	0	1	0	1	0	58.5814957434891	0
4.5	58.7627998778327	0	1	0	1	0	58.7627998778327	0
4.51	58.9446644136413	0	1	0	1	0	58.9446644136413	0
4.52	59.1270886567524	0	1	0	1	0	59.1270886567524	0
4.53	59.3100719191331	0	1	0	1	0	59.3100719191331	0
4.54	59.4936135188122	0	1	0	1	0	59.4936135188122	0
4.55	59.6777127798141	0	1	0	1	0	59.6777127798141	0
4.56	59.8623690320926	0	1	0	1	0	59.8623690320926	0
4.57	60.0475816114665	0	1	0	1	0	60.0475816114665	0
4.58	60.2333498595552	0	1	0	1	0	60.2333498595552	0
4.59	60.4196731237154	0	1	0	1	0	60.4196731237154	0
4.6	60.6065507569792	0	1	0	1	0	60.6065507569792	0
4.61	60.7939821179924	0	1	0	1	0	60.7939821179924	0
4.62	60.9819665709533	0	1	0	1	0	60.9819665709533	0
4.63	61.1705034855534	0	1	0	1	0	61.1705034855534	0
4.64	61.3595922369177	0	1	0	1	0	61.3595922369177	0
4.65	61.5492322055466	0	1	0	1	0	61.5492322055466	0
4.66	61.7394227772581	0	1	0	1	0	61.7394227772581	0
4.67	61.9301633431306	0	1	0	1	0	61.9301633431306	0
4.68	62.1214532994474	0	1	0	1	0	62.1214532994474	0
4.69	62.3132920476404	0	1	0	1	0	62.3132920476404	0
4.7	62.5056789942358	0	1	0	1	0	62.5056789942358	0
4.71	62.6986135508	0	1	0	1	0	62.6986135508	0
4.72	62.8920951338861	0	1	0	1	0	62.8920951338861	0
4.73	63.0861231649811	0	1	0	1	0	63.0861231649811	0
4.74	63.2806970704541	0	1	0	1	0	63.2806970704541	0
4.75	63.4758162815047	0	1	0	1	0	63.4758162815047	0
4.76	63.6714802341123	0	1	0	1	0	63.6714802341123	0
4.77	63.8676883689862	0	1	0	1	0	63.8676883689862	0
4.78	64.0644401315158	0	1	0	1	0	64.0644401315158	0
4.79	64.2617349717219	0	1	0	1	0	64.2617349717219	0
4.8	64.4595723442086	0	1	0	1	0	64.4595723442086	0
4.81	64.6579517081153	0	1	0	1	0	64.6579517081153	0
4.82	64.8568725270701	0	1	0	1	0	64.8568725270701	0
4.83	65.056334269143	0	1	0	1	0	65.056334269143	0
4.84	65.2563364068001	0	1	0	1	0	65.2563364068001	0
4.85	65.4568784168583	0	1	0	1	0	65.4568784168583	0
4.86	65.6579597804405	0	1	0	1	0	65.6579597804405	0
4.87	65.8595799829316	0	1	0	1	0	65.8595799829316	0
4.88	66.0617385139344	0	1	0	1	0	66.0617385139344	0
4.89	66.2644348672269	0	1	0	1	0	66.2644348672269	0
4.9	66.4676685407194	0	1	0	1	0	66.4676685407194	0
4.91	66.6714390364127	0	1	0	1	0	66.6714390364127	0
4.92	66.8757458603563	0	1	0	1	0	66.8757458603563	0
4.93	67.0805885226075	0	1	0	1	0	67.0805885226075	0
