# GHZ S RI R 50
1	56.0274782260607	0	1	0	1	0	56.0274782260607	0
1.01	55.5727056676429	0	1	0	1	0	55.5727056676429	0
1.02	55.1280225820726	0	1	0	1	0	55.1280225820726	0
1.03	54.6931465960768	0	1	0	1	0	54.6931465960768	0
1.04	54.2678061968929	0	1	0	1	0	54.2678061968929	0
1.05	53.8517402151019	0	1	0	1	0	53.8517402151019	0
1.06	53.4446973367342	0	1	0	1	0	53.4446973367342	0
1.07	53.0464356427352	0	1	0	1	0	53.0464356427352	0
1.08	52.6567221740153	0	1	0	1	0	52.6567221740153	0
1.09	52.2753325204422	0	1	0	1	0	52.2753325204422	0
1.1	51.9020504322521	0	1	0	1	0	51.9020504322521	0
1.11	51.5366674524654	0	1	0	1	0	51.5366674524654	0
1.12	51.1789825689948	0	1	0	1	0	51.1789825689948	0
1.13	50.8288018852251	0	1	0	1	0	50.8288018852251	0
1.14	50.4859383079308	0	1	0	1	0	50.4859383079308	0
1.15	50.1502112514773	0	1	0	1	0	50.1502112514773	0
1.16	49.8214463573205	0	1	0	1	0	49.8214463573205	0
1.17	49.4994752278923	0	1	0	1	0	49.4994752278923	0
1.18	49.1841351740168	0	1	0	1	0	49.1841351740168	0
1.19	48.8752689750618	0	1	0	1	0	48.8752689750618	0
1.2	48.5727246510826	0	1	0	1	0	48.5727246510826	0
1.21	48.2763552462653	0	1	0	1	0	48.2763552462653	0
1.22	47.9860186230191	0	1	0	1	0	47.9860186230191	0
1.23	47.7015772661141	0	1	0	1	0	47.7015772661141	0
1.24	47.4228980962954	0	1	0	1	0	47.4228980962954	0
1.25	47.1498522928443	0	1	0	1	0	47.1498522928443	0
1.26	46.8823151245887	0	1	0	1	0	46.8823151245887	0
1.27	46.6201657888973	0	1	0	1	0	46.6201657888973	0
1.28	46.3632872582213	0	1	0	1	0	46.3632872582213	0
1.29	46.1115661337728	0	1	0	1	0	46.1115661337728	0
1.3	45.8648925059576	0	1	0	1	0	45.8648925059576	0
1.31	45.6231598211994	0	1	0	1	0	45.6231598211994	0
1.32	45.3862647548183	0	1	0	1	0	45.3862647548183	0
1.33	45.1541070896436	0	1	0	1	0	45.1541070896436	0
1.34	44.9265896000618	0	1	0	1	0	44.9265896000618	0
1.35	44.7036179412185	0	1	0	1	0	44.7036179412185	0
1.36	44.4851005431079	0	1	0	1	0	44.4851005431079	0
1.37	44.2709485093009	0	1	0	1	0	44.2709485093009	0
1.38	44.0610755200765	0	1	0	1	0	44.0610755200765	0
1.39	43.8553977397346	0	1	0	1	0	43.8553977397346	0
1.4	43.6538337278808	0	1	0	1	0	43.6538337278808	0
1.41	43.4563043544863	0	1	0	1	0	43.4563043544863	0
1.42	43.2627327185374	0	1	0	1	0	43.2627327185374	0
1.43	43.0730440700976	0	1	0	1	0	43.0730440700976	0
1.44	42.8871657356176	0	1	0	1	0	42.8871657356176	0
1.45	42.7050270463356	0	1	0	1	0	42.7050270463356	0
1.46	42.5265592696202	0	1	0	1	0	42.5265592696202	0
1.47	42.3516955431159	0	1	0	1	0	42.3516955431159	0
1.48	42.1803708115576	0	1	0	1	0	42.1803708115576	0
1.49	42.0125217661306	0	1	0	1	0	42.0125217661306	0
1.5	41.8480867862551	0	1	0	1	0	41.8480867862551	0
1.51	41.6870058836843	0	1	0	1	0	41.6870058836843	0
1.52	41.5292206488099	0	1	0	1	0	41.5292206488099	0
1.53	41.3746741990719	0	1	0	1	0	41.3746741990719	0
1.54	41.2233111293795	0	1	0	1	0	41.2233111293795	0
1.55	41.0750774644507	0	1	0	1	0	41.0750774644507	0
1.56	40.929920612985	0	1	0	1	0	40.929920612985	0
1.57	40.7877893235877	0	1	0	1	0	40.7877893235877	0
1.58	40.6486336423678	0	1	0	1	0	40.6486336423678	0
1.59	40.512404872136	0	1	0	1	0	40.512404872136	0
1.6	40.3790555331325	0	1	0	1	0	40.3790555331325	0
1.61	40.248539325219	0	1	0	1	0	40.248539325219	0
1.62	40.1208110914707	0	1	0	1	0	40.1208110914707	0
1.63	39.995826783108	0	1	0	1	0	39.995826783108	0
1.64	39.8735434257116	0	1	0	1	0	39.8735434257116	0
1.65	39.7539190866666	0	1	0	1	0	39.7539190866666	0
1.66	39.6369128437824	0	1	0	1	0	39.6369128437824	0
1.67	39.5224847550408	0	1	0	1	0	39.5224847550408	0
1.68	39.4105958294237	0	1	0	1	0	39.4105958294237	0
1.69	39.3012079987777	0	1	0	1	0	39.3012079987777	0
1.7	39.1942840906705	0	1	0	1	0	39.1942840906705	0
1.71	39.0897878022002	0	1	0	1	0	39.0897878022002	0
1.72	38.9876836747188	0	1	0	1	0	38.9876836747188	0
1.73	38.8879370694312	0	1	0	1	0	38.8879370694312	0
1.74	38.7905141438365	0	1	0	1	0	38.7905141438365	0
1.75	38.6953818289765	0	1	0	1	0	38.6953818289765	0
1.76	38.6025078074606	0	1	0	1	0	38.6025078074606	0
1.77	38.5118604922344	0	1	0	1	0	38.5118604922344	0
1.78	38.4234090060651	0	1	0	1	0	38.4234090060651	0
1.79	38.3371231617138	0	1	0	1	0	38.3371231617138	0
1.8	38.2529734427693	0	1	0	1	0	38.2529734427693	0
1.81	38.1709309851166	0	1	0	1	0	38.1709309851166	0
1.82	38.0909675590171	0	1	0	1	0	38.0909675590171	0
1.83	38.0130555517753	0	1	0	1	0	38.0130555517753	0
1.84	37.937167950972	0	1	0	1	0	37.937167950972	0
1.85	37.8632783282403	0	1	0	1	0	37.8632783282403	0
1.86	37.791360823565	0	1	0	1	0	37.791360823565	0
1.87	37.7213901300867	0	1	0	1	0	37.7213901300867	0
1.88	37.6533414793894	0	1	0	1	0	37.6533414793894	0
1.89	37.5871906272567	0	1	0	1	0	37.5871906272567	0
1.9	37.5229138398766	0	1	0	1	0	37.5229138398766	0
1.91	37.4604878804804	0	1	0	1	0	37.4604878804804	0
1.92	37.3998899963986	0	1	0	1	0	37.3998899963986	0
1.93	37.3410979065197	0	1	0	1	0	37.3410979065197	0
1.94	37.2840897891366	0	1	0	1	0	37.2840897891366	0
1.95	37.2288442701668	0	1	0	1	0	37.2288442701668	0
1.96	37.1753404117338	0	1	0	1	0	37.1753404117338	0
1.97	37.1235577010955	0	1	0	1	0	37.1235577010955	0
1.98	37.0734760399086	0	1	0	1	0	37.0734760399086	0
1.99	37.0250757338167	0	1	0	1	0	37.0250757338167	0
2	36.9783374823505	0	1	0	1	0	36.9783374823505	0
2.01	36.9332423691295	0	1	0	1	0	36.9332423691295	0
2.02	36.8897718523553	0	1	0	1	0	36.8897718523553	0
2.03	36.8479077555849	0	1	0	1	0	36.8479077555849	0
2.04	36.8076322587761	0	1	0	1	0	36.8076322587761	0
2.05	36.768927889595	0	1	0	1	0	36.768927889595	0
2.06	36.7317775149763	0	1	0	1	0	36.7317775149763	0
2.07	36.6961643329283	0	1	0	1	0	36.6961643329283	0
2.08	36.6620718645747	0	1	0	1	0	36.6620718645747	0
2.09	36.6294839464242	0	1	0	1	0	36.6294839464242	0
2.1	36.5983847228616	0	1	0	1	0	36.5983847228616	0
2.11	36.5687586388522	0	1	0	1	0	36.5687586388522	0
2.12	36.5405904328524	0	1	0	1	0	36.5405904328524	0
2.13	36.5138651299203	0	1	0	1	0	36.5138651299203	0
2.14	36.4885680350197	0	1	0	1	0	36.4885680350197	0
2.15	36.4646847265102	0	1	0	1	0	36.4646847265102	0
2.16	36.4422010498187	0	1	0	1	0	36.4422010498187	0
2.17	36.4211031112864	0	1	0	1	0	36.4211031112864	0
2.18	36.4013772721834	0	1	0	1	0	36.4013772721834	0
2.19	36.3830101428894	0	1	0	1	0	36.3830101428894	0
2.2	36.3659885772316	0	1	0	1	0	36.3659885772316	0
2.21	36.3502996669772	0	1	0	1	0	36.3502996669772	0
2.22	36.3359307364738	0	1	0	1	0	36.3359307364738	0
2.23	36.3228693374353	0	1	0	1	0	36.3228693374353	0
2.24	36.3111032438662	0	1	0	1	0	36.3111032438662	0
2.25	36.3006204471222	0	1	0	1	0	36.3006204471222	0
2.26	36.2914091511012	0	1	0	1	0	36.2914091511012	0
2.27	36.2834577675621	0	1	0	1	0	36.2834577675621	0
2.28	36.2767549115662	0	1	0	1	0	36.2767549115662	0
2.29	36.2712893970382	0	1	0	1	0	36.2712893970382	0
2.3	36.2670502324436	0	1	0	1	0	36.2670502324436	0
2.31	36.2640266165772	0	1	0	1	0	36.2640266165772	0
2.32	36.2622079344616	0	1	0	1	0	36.2622079344616	0
2.33	36.2615837533507	0	1	0	1	0	36.2615837533507	0
2.34	36.2621438188361	0	1	0	1	0	36.2621438188361	0
2.35	36.2638780510523	0	1	0	1	0	36.2638780510523	0
2.36	36.2667765409791	0	1	0	1	0	36.2667765409791	0
2.37	36.2708295468372	0	1	0	1	0	36.2708295468372	0
2.38	36.2760274905745	0	1	0	1	0	36.2760274905745	0
2.39	36.2823609544413	0	1	0	1	0	36.2823609544413	0
2.4	36.28982067765	0	1	0	1	0	36.28982067765	0
2.41	36.2983975531196	0	1	0	1	0	36.2983975531196	0
2.42	36.3080826242987	0	1	0	1	0	36.3080826242987	0
2.43	36.3188670820693	0	1	0	1	0	36.3188670820693	0
2.44	36.3307422617251	0	1	0	1	0	36.3307422617251	0
2.45	36.3436996400242	0	1	0	1	0	36.3436996400242	0
2.46	36.3577308323142	0	1	0	1	0	36.3577308323142	0
2.47	36.3728275897265	0	1	0	1	0	36.3728275897265	0
2.48	36.3889817964387	0	1	0	1	0	36.3889817964387	0
2.49	36.406185467003	0	1	0	1	0	36.406185467003	0
2.5	36.4244307437391	0	1	0	1	0	36.4244307437391	0
2.51	36.4437098941882	0	1	0	1	0	36.4437098941882	0
2.52	36.4640153086294	0	1	0	1	0	36.4640153086294	0
2.53	36.4853394976533	0	1	0	1	0	36.4853394976533	0
2.54	36.5076750897941	0	1	0	1	0	36.5076750897941	0
2.55	36.5310148292168	0	1	0	1	0	36.5310148292168	0
2.56	36.5553515734586	0	1	0	1	0	36.5553515734586	0
2.57	36.5806782912239	0	1	0	1	0	36.5806782912239	0
2.58	36.6069880602291	0	1	0	1	0	36.6069880602291	0
2.59	36.6342740650985	0	1	0	1	0	36.6342740650985	0
2.6	36.6625295953083	0	1	0	1	0	36.6625295953083	0
2.61	36.6917480431782	0	1	0	1	0	36.6917480431782	0
2.62	36.7219229019083	0	1	0	1	0	36.7219229019083	0
2.63	36.7530477636614	0	1	0	1	0	36.7530477636614	0
2.64	36.785116317689	0	1	0	1	0	36.785116317689	0
2.65	36.8181223484988	0	1	0	1	0	36.8181223484988	0
2.66	36.852059734065	0	1	0	1	0	36.852059734065	0
2.67	36.8869224440772	0	1	0	1	0	36.8869224440772	0
2.68	36.9227045382297	0	1	0	1	0	36.9227045382297	0
2.69	36.9594001645486	0	1	0	1	0	36.9594001645486	0
2.7	36.9970035577558	0	1	0	1	0	36.9970035577558	0
2.71	37.0355090376697	0	1	0	1	0	37.0355090376697	0
2.72	37.0749110076405	0	1	0	1	0	37.0749110076405	0
2.73	37.1152039530208	0	1	0	1	0	37.1152039530208	0
2.74	37.1563824396691	0	1	0	1	0	37.1563824396691	0
2.75	37.1984411124857	0	1	0	1	0	37.1984411124857	0
2.76	37.2413746939812	0	1	0	1	0	37.2413746939812	0
2.77	37.2851779828754	0	1	0	1	0	37.2851779828754	0
2.78	37.3298458527267	0	1	0	1	0	37.3298458527267	0
2.79	37.3753732505908	0	1	0	1	0	37.3753732505908	0
2.8	37.4217551957084	0	1	0	1	0	37.4217551957084	0
2.81	37.4689867782206	0	1	0	1	0	37.4689867782206	0
2.82	37.517063157912	0	1	0	1	0	37.517063157912	0
2.83	37.56597956298	0	1	0	1	0	37.56597956298	0
2.84	37.6157312888305	0	1	0	1	0	37.6157312888305	0
2.85	37.666313696899	0	1	0	1	0	37.666313696899	0
2.86	37.7177222134958	0	1	0	1	0	37.7177222134958	0
2.87	37.7699523286761	0	1	0	1	0	37.7699523286761	0
2.88	37.8229995951332	0	1	0	1	0	37.8229995951332	0
2.89	37.8768596271147	0	1	0	1	0	37.8768596271147	0
2.9	37.9315280993617	0	1	0	1	0	37.9315280993617	0
2.91	37.9870007460686	0	1	0	1	0	37.9870007460686	0
2.92	38.0432733598657	0	1	0	1	0	38.0432733598657	0
2.93	38.1003417908218	0	1	0	1	0	38.1003417908218	0
2.94	38.1582019454674	0	1	0	1	0	38.1582019454674	0
2.95	38.2168497858375	0	1	0	1	0	38.2168497858375	0
2.96	38.2762813285343	0	1	0	1	0	38.2762813285343	0
2.97	38.3364926438085	0	1	0	1	0	38.3364926438085	0
2.98	38.3974798546591	0	1	0	1	0	38.3974798546591	0
2.99	38.4592391359511	0	1	0	1	0	38.4592391359511	0
3	38.5217667135517	0	1	0	1	0	38.5217667135517	0
3.01	38.5850588634824	0	1	0	1	0	38.5850588634824	0
3.02	38.6491119110889	0	1	0	1	0	38.6491119110889	0
3.03	38.7139222302274	0	1	0	1	0	38.7139222302274	0
3.04	38.7794862424665	0	1	0	1	0	38.7794862424665	0
3.05	38.8458004163047	0	1	0	1	0	38.8458004163047	0
3.06	38.9128612664044	0	1	0	1	0	38.9128612664044	0
3.07	38.9806653528393	0	1	0	1	0	38.9806653528393	0
3.08	39.0492092803573	0	1	0	1	0	39.0492092803573	0
3.09	39.1184896976583	0	1	0	1	0	39.1184896976583	0
3.1	39.1885032966842	0	1	0	1	0	39.1885032966842	0
3.11	39.2592468119247	0	1	0	1	0	39.2592468119247	0
3.12	39.3307170197348	0	1	0	1	0	39.3307170197348	0
3.13	39.4029107376664	0	1	0	1	0	39.4029107376664	0
3.14	39.4758248238118	0	1	0	1	0	39.4758248238118	0
3.15	39.549456176161	0	1	0	1	0	39.549456176161	0
3.16	39.6238017319697	0	1	0	1	0	39.6238017319697	0
3.17	39.6988584671402	0	1	0	1	0	39.6988584671402	0
3.18	39.7746233956138	0	1	0	1	0	39.7746233956138	0
3.19	39.8510935687745	0	1	0	1	0	39.8510935687745	0
3.2	39.9282660748642	0	1	0	1	0	39.9282660748642	0
3.21	40.0061380384081	0	1	0	1	0	40.0061380384081	0
3.22	40.0847066196518	0	1	0	1	0	40.0847066196518	0
3.23	40.1639690140081	0	1	0	1	0	40.1639690140081	0
3.24	40.2439224515142	0	1	0	1	0	40.2439224515142	0
3.25	40.3245641962993	0	1	0	1	0	40.3245641962993	0
3.26	40.4058915460615	0	1	0	1	0	40.4058915460615	0
3.27	40.4879018315546	0	1	0	1	0	40.4879018315546	0
3.28	40.5705924160842	0	1	0	1	0	40.5705924160842	0
3.29	40.6539606950129	0	1	0	1	0	40.6539606950129	0
3.3	40.7380040952748	0	1	0	1	0	40.7380040952748	0
3.31	40.8227200748982	0	1	0	1	0	40.8227200748982	0
3.32	40.9081061225379	0	1	0	1	0	40.9081061225379	0
3.33	40.9941597570148	0	1	0	1	0	40.9941597570148	0
3.34	41.0808785268645	0	1	0	1	0	41.0808785268645	0
3.35	41.1682600098939	0	1	0	1	0	41.1682600098939	0
3.36	41.2563018127456	0	1	0	1	0	41.2563018127456	0
3.37	41.3450015704697	0	1	0	1	0	41.3450015704697	0
3.38	41.4343569461043	0	1	0	1	0	41.4343569461043	0
3.39	41.524365630262	0	1	0	1	0	41.524365630262	0
3.4	41.6150253407247	0	1	0	1	0	41.6150253407247	0
3.41	41.7063338220451	0	1	0	1	0	41.7063338220451	0
3.42	41.7982888451557	0	1	0	1	0	41.7982888451557	0
3.43	41.8908882069836	0	1	0	1	0	41.8908882069836	0
3.44	41.9841297300733	0	1	0	1	0	41.9841297300733	0
3.45	42.0780112622149	0	1	0	1	0	42.0780112622149	0
3.46	42.1725306760799	0	1	0	1	0	42.1725306760799	0
3.47	42.267685868862	0	1	0	1	0	42.267685868862	0
3.48	42.3634747619252	0	1	0	1	0	42.3634747619252	0
3.49	42.4598953004574	0	1	0	1	0	42.4598953004574	0
3.5	42.5569454531301	0	1	0	1	0	42.5569454531301	0
3.51	42.6546232117637	0	1	0	1	0	42.6546232117637	0
3.52	42.7529265909991	0	1	0	1	0	42.7529265909991	0
3.53	42.8518536279739	0	1	0	1	0	42.8518536279739	0
3.54	42.9514023820052	0	1	0	1	0	42.9514023820052	0
3.55	43.0515709342767	0	1	0	1	0	43.0515709342767	0
3.56	43.1523573875319	0	1	0	1	0	43.1523573875319	0
3.57	43.2537598657722	0	1	0	1	0	43.2537598657722	0
3.58	43.3557765139598	0	1	0	1	0	43.3557765139598	0
3.59	43.4584054977258	0	1	0	1	0	43.4584054977258	0
3.6	43.5616450030832	0	1	0	1	0	43.5616450030832	0
3.61	43.6654932361447	0	1	0	1	0	43.6654932361447	0
3.62	43.7699484228448	0	1	0	1	0	43.7699484228448	0
3.63	43.8750088086669	0	1	0	1	0	43.8750088086669	0
3.64	43.980672658375	0	1	0	1	0	43.980672658375	0
3.65	44.0869382557493	0	1	0	1	0	44.0869382557493	0
3.66	44.1938039033264	0	1	0	1	0	44.1938039033264	0
3.67	44.3012679221439	0	1	0	1	0	44.3012679221439	0
3.68	44.4093286514892	0	1	0	1	0	44.4093286514892	0
3.69	44.5179844486516	0	1	0	1	0	44.5179844486516	0
3.7	44.6272336886799	0	1	0	1	0	44.6272336886799	0
3.71	44.7370747641422	0	1	0	1	0	44.7370747641422	0
3.72	44.847506084891	0	1	0	1	0	44.847506084891	0
3.73	44.9585260778314	0	1	0	1	0	44.9585260778314	0
3.74	45.0701331866928	0	1	0	1	0	45.0701331866928	0
3.75	45.182325871805	0	1	0	1	0	45.182325871805	0
3.76	45.2951026098773	0	1	0	1	0	45.2951026098773	0
3.77	45.408461893781	0	1	0	1	0	45.408461893781	0
3.78	45.5224022323362	0	1	0	1	0	45.5224022323362	0
3.79	45.6369221501008	0	1	0	1	0	45.6369221501008	0
3.8	45.7520201871637	0	1	0	1	0	45.7520201871637	0
3.81	45.8676948989409	0	1	0	1	0	45.8676948989409	0
3.82	45.9839448559752	0	1	0	1	0	45.9839448559752	0
3.83	46.1007686437382	0	1	0	1	0	46.1007686437382	0
3.84	46.2181648624361	0	1	0	1	0	46.2181648624361	0
3.85	46.3361321268188	0	1	0	1	0	46.3361321268188	0
3.86	46.4546690659907	0	1	0	1	0	46.4546690659907	0
3.87	46.5737743232259	0	1	0	1	0	46.5737743232259	0
3.88	46.6934465557853	0	1	0	1	0	46.6934465557853	0
3.89	46.8136844347369	0	1	0	1	0	46.8136844347369	0
3.9	46.9344866447788	0	1	0	1	0	46.9344866447788	0
3.91	47.0558518840648	0	1	0	1	0	47.0558518840648	0
3.92	47.1777788640328	0	1	0	1	0	47.1777788640328	0
3.93	47.3002663092361	0	1	0	1	0	47.3002663092361	0
3.94	47.4233129571764	0	1	0	1	0	47.4233129571764	0
3.95	47.5469175581403	0	1	0	1	0	47.5469175581403	0
3.96	47.6710788750378	0	1	0	1	0	47.6710788750378	0
3.97	47.7957956832433	0	1	0	1	0	47.7957956832433	0
3.98	47.9210667704389	0	1	0	1	0	47.9210667704389	0
3.99	48.0468909364604	0	1	0	1	0	48.0468909364604	0
4	48.173266993145	0	1	0	1	0	48.173266993145	0
4.01	48.3001937641823	0	1	0	1	0	48.3001937641823	0
4.02	48.427670084966	0	1	0	1	0	48.427670084966	0
4.03	48.5556948024495	0	1	0	1	0	48.5556948024495	0
4.04	48.6842667750025	0	1	0	1	0	48.6842667750025	0
4.05	48.8133848722698	0	1	0	1	0	48.8133848722698	0
4.06	48.943047975033	0	1	0	1	0	48.943047975033	0
4.07	49.0732549750733	0	1	0	1	0	49.0732549750733	0
4.08	49.2040047750366	0	1	0	1	0	49.2040047750366	0
4.09	49.3352962883011	0	1	0	1	0	49.3352962883011	0
4.1	49.4671284388462	0	1	0	1	0	49.4671284388462	0
4.11	49.5995001611233	0	1	0	1	0	49.5995001611233	0
4.12	49.7324103999291	0	1	0	1	0	49.7324103999291	0
4.13	49.8658581102802	0	1	0	1	0	49.8658581102802	0
4.14	49.9998422572896	0	1	0	1	0	49.9998422572896	0
4.15	50.1343618160451	0	1	0	1	0	50.1343618160451	0
4.16	50.2694157714894	0	1	0	1	0	50.2694157714894	0
4.17	50.4050031183021	0	1	0	1	0	50.4050031183021	0
4.18	50.541122860783	0	1	0	1	0	50.541122860783	0
4.19	50.6777740127373	0	1	0	1	0	50.6777740127373	0
4.2	50.8149555973627	0	1	0	1	0	50.8149555973627	0
4.21	50.9526666471376	0	1	0	1	0	50.9526666471376	0
4.22	51.0909062037112	0	1	0	1	0	51.0909062037112	0
4.23	51.2296733177952	0	1	0	1	0	51.2296733177952	0
4.24	51.3689670490567	0	1	0	1	0	51.3689670490567	0
4.25	51.5087864660131	0	1	0	1	0	51.5087864660131	0
4.26	51.6491306459282	0	1	0	1	0	51.6491306459282	0
4.27	51.7899986747095	0	1	0	1	0	51.7899986747095	0
4.28	51.9313896468076	0	1	0	1	0	51.9313896468076	0
4.29	52.0733026651163	0	1	0	1	0	52.0733026651163	0
4.3	52.2157368408747	0	1	0	1	0	52.2157368408747	0
4.31	52.3586912935702	0	1	0	1	0	52.3586912935702	0
4.32	52.5021651508431	0	1	0	1	0	52.5021651508431	0
4.33	52.6461575483924	0	1	0	1	0	52.6461575483924	0
4.34	52.7906676298831	0	1	0	1	0	52.7906676298831	0
4.35	52.9356945468545	0	1	0	1	0	52.9356945468545	0
4.36	53.08123745863	0	1	0	1	0	53.08123745863	0
4.37	53.2272955322279	0	1	0	1	0	53.2272955322279	0
4.38	53.3738679422736	0	1	0	1	0	53.3738679422736	0
4.39	53.5209538709132	0	1	0	1	0	53.5209538709132	0
4.4	53.6685525077275	0	1	0	1	0	53.6685525077275	0
4.41	53.8166630496485	0	1	0	1	0	53.8166630496485	0
4.42	53.9652847008753	0	1	0	1	0	53.9652847008753	0
4.43	54.1144166727928	0	1	0	1	0	54.1144166727928	0
4.44	54.2640581838907	0	1	0	1	0	54.2640581838907	0
4.45	54.4142084596832	0	1	0	1	0	54.4142084596832	0
4.46	54.5648667326308	0	1	0	1	0	54.5648667326308	0
4.47	54.7160322420621	0	1	0	1	0	54.7160322420621	0
4.48	54.8677042340977	0	1	0	1	0	54.8677042340977	0
4.49	55.0198819615741	0	1	0	1	0	55.0198819615741	0
4.5	55.1725646839693	0	1	0	1	0	55.1725646839693	0
4.51	55.3257516673292	0	1	0	1	0	55.3257516673292	0
4.52	55.4794421841947	0	1	0	1	0	55.4794421841947	0
4.53	55.6336355135303	0	1	0	1	0	55.6336355135303	0
4.54	55.7883309406531	0	1	0	1	0	55.7883309406531	0
4.55	55.9435277571635	0	1	0	1	0	55.9435277571635	0
4.56	56.0992252608754	0	1	0	1	0	56.0992252608754	0
4.57	56.2554227557491	0	1	0	1	0	56.2554227557491	0
4.58	56.4121195518238	0	1	0	1	0	56.4121195518238	0
4.59	56.5693149651513	0	1	0	1	0	56.5693149651513	0
4.6	56.727008317731	0	1	0	1	0	56.727008317731	0
4.61	56.8851989374449	0	1	0	1	0	56.8851989374449	0
4.62	57.0438861579945	0	1	0	1	0	57.0438861579945	0
4.63	57.2030693188374	0	1	0	1	0	57.2030693188374	0
4.64	57.3627477651256	0	1	0	1	0	57.3627477651256	0
4.65	57.5229208476443	0	1	0	1	0	57.5229208476443	0
4.66	57.6835879227512	0	1	0	1	0	57.6835879227512	0
4.67	57.8447483523172	0	1	0	1	0	57.8447483523172	0
4.68	58.0064015036671	0	1	0	1	0	58.0064015036671	0
4.69	58.1685467495218	0	1	0	1	0	58.1685467495218	0
4.7	58.3311834679407	0	1	0	1	0	58.3311834679407	0
4.71	58.4943110422649	0	1	0	1	0	58.4943110422649	0
4.72	58.6579288610617	0	1	0	1	0	58.6579288610617	0
4.73	58.8220363180689	0	1	0	1	0	58.8220363180689	0
4.74	58.9866328121405	0	1	0	1	0	58.9866328121405	0
4.75	59.1517177471928	0	1	0	1	0	59.1517177471928	0
4.76	59.3172905321511	0	1	0	1	0	59.3172905321511	0
4.77	59.4833505808975	0	1	0	1	0	59.4833505808975	0
4.78	59.6498973122186	0	1	0	1	0	59.6498973122186	0
4.79	59.8169301497548	0	1	0	1	0	59.8169301497548	0
4.8	59.9844485219493	0	1	0	1	0	59.9844485219493	0
4.81	60.1524518619985	0	1	0	1	0	60.1524518619985	0
4.82	60.3209396078026	0	1	0	1	0	60.3209396078026	0
4.83	60.4899112019166	0	1	0	1	0	60.4899112019166	0
4.84	60.6593660915028	0	1	0	1	0	60.6593660915028	0
4.85	60.8293037282828	0	1	0	1	0	60.8293037282828	0
4.86	60.9997235684909	0	1	0	1	0	60.9997235684909	0
4.87	61.1706250728276	0	1	0	1	0	61.1706250728276	0
4.88	61.3420077064138	0	1	0	1	0	61.3420077064138	0
4.89	61.5138709387459	0	1	0	1	0	61.5138709387459	0
4.9	61.6862142436506	0	1	0	1	0	61.6862142436506	0
4.91	61.8590370992415	0	1	0	1	0	61.8590370992415	0
4.92	62.0323389878749	0	1	0	1	0	62.0323389878749	0
