# GHZ S RI R 50
1	53.3090861160675	0	1	0	1	0	53.3090861160675	0
1.01	52.8800632273961	0	1	0	1	0	52.8800632273961	0
1.02	52.4607209087919	0	1	0	1	0	52.4607209087919	0
1.03	52.0507896379668	0	1	0	1	0	52.0507896379668	0
1.04	51.6500102588749	0	1	0	1	0	51.6500102588749	0
1.05	51.2581334880815	0	1	0	1	0	51.2581334880815	0
1.06	50.8749194490737	0	1	0	1	0	50.8749194490737	0
1.07	50.5001372326852	0	1	0	1	0	50.5001372326852	0
1.08	50.1335644819409	0	1	0	1	0	50.1335644819409	0
1.09	49.7749869997548	0	1	0	1	0	49.7749869997548	0
1.1	49.4241983780256	0	1	0	1	0	49.4241983780256	0
1.11	49.0809996467821	0	1	0	1	0	49.0809996467821	0
1.12	48.7451989421232	0	1	0	1	0	48.7451989421232	0
1.13	48.4166111917906	0	1	0	1	0	48.4166111917906	0
1.14	48.0950578172891	0	1	0	1	0	48.0950578172891	0
1.15	47.7803664515499	0	1	0	1	0	47.7803664515499	0
1.16	47.4723706711957	0	1	0	1	0	47.4723706711957	0
1.17	47.1709097425377	0	1	0	1	0	47.1709097425377	0
1.18	46.8758283804865	0	1	0	1	0	46.8758283804865	0
1.19	46.5869765196198	0	1	0	1	0	46.5869765196198	0
1.2	46.3042090966958	0	1	0	1	0	46.3042090966958	0
1.21	46.0273858439518	0	1	0	1	0	46.0273858439518	0
1.22	45.7563710925683	0	1	0	1	0	45.7563710925683	0
1.23	45.4910335857199	0	1	0	1	0	45.4910335857199	0
1.24	45.2312463006721	0	1	0	1	0	45.2312463006721	0
1.25	44.9768862794182	0	1	0	1	0	44.9768862794182	0
1.26	44.7278344673802	0	1	0	1	0	44.7278344673802	0
1.27	44.4839755597304	0	1	0	1	0	44.4839755597304	0
1.28	44.2451978549173	0	1	0	1	0	44.2451978549173	0
1.29	44.0113931150031	0	1	0	1	0	44.0113931150031	0
1.3	43.7824564324483	0	1	0	1	0	43.7824564324483	0
1.31	43.5582861029969	0	1	0	1	0	43.5582861029969	0
1.32	43.3387835043401	0	1	0	1	0	43.3387835043401	0
1.33	43.1238529802535	0	1	0	1	0	43.1238529802535	0
1.34	42.9134017299227	0	1	0	1	0	42.9134017299227	0
1.35	42.7073397021866	0	1	0	1	0	42.7073397021866	0
1.36	42.505579494448	0	1	0	1	0	42.505579494448	0
1.37	42.3080362560102	0	1	0	1	0	42.3080362560102	0
1.38	42.114627595617	0	1	0	1	0	42.114627595617	0
1.39	41.9252734929836	0	1	0	1	0	41.9252734929836	0
1.4	41.7398962141192	0	1	0	1	0	41.7398962141192	0
1.41	41.5584202302524	0	1	0	1	0	41.5584202302524	0
1.42	41.3807721401829	0	1	0	1	0	41.3807721401829	0
1.43	41.2068805958907	0	1	0	1	0	41.2068805958907	0
1.44	41.0366762312456	0	1	0	1	0	41.0366762312456	0
1.45	40.8700915936654	0	1	0	1	0	40.8700915936654	0
1.46	40.7070610785841	0	1	0	1	0	40.7070610785841	0
1.47	40.5475208665939	0	1	0	1	0	40.5475208665939	0
1.48	40.3914088631358	0	1	0	1	0	40.3914088631358	0
1.49	40.238664640619	0	1	0	1	0	40.238664640619	0
1.5	40.0892293828549	0	1	0	1	0	40.0892293828549	0
1.51	39.9430458316998	0	1	0	1	0	39.9430458316998	0
1.52	39.8000582358031	0	1	0	1	0	39.8000582358031	0
1.53	39.6602123013661	0	1	0	1	0	39.6602123013661	0
1.54	39.5234551448183	0	1	0	1	0	39.5234551448183	0
1.55	39.3897352473268	0	1	0	1	0	39.3897352473268	0
1.56	39.2590024110542	0	1	0	1	0	39.2590024110542	0
1.57	39.1312077170891	0	1	0	1	0	39.1312077170891	0
1.58	39.0063034849734	0	1	0	1	0	39.0063034849734	0
1.59	38.8842432337574	0	1	0	1	0	38.8842432337574	0
1.6	38.7649816445151	0	1	0	1	0	38.7649816445151	0
1.61	38.6484745242568	0	1	0	1	0	38.6484745242568	0
1.62	38.5346787711774	0	1	0	1	0	38.5346787711774	0
1.63	38.423552341185	0	1	0	1	0	38.423552341185	0
1.64	38.3150542156532	0	1	0	1	0	38.3150542156532	0
1.65	38.2091443703468	0	1	0	1	0	38.2091443703468	0
1.66	38.1057837454699	0	1	0	1	0	38.1057837454699	0
1.67	38.0049342167904	0	1	0	1	0	38.0049342167904	0
1.68	37.9065585677961	0	1	0	1	0	37.9065585677961	0
1.69	37.8106204628392	0	1	0	1	0	37.8106204628392	0
1.7	37.717084421228	0	1	0	1	0	37.717084421228	0
1.71	37.6259157922288	0	1	0	1	0	37.6259157922288	0
1.72	37.5370807309386	0	1	0	1	0	37.5370807309386	0
1.73	37.4505461749959	0	1	0	1	0	37.4505461749959	0
1.74	37.3662798220931	0	1	0	1	0	37.3662798220931	0
1.75	37.2842501082612	0	1	0	1	0	37.2842501082612	0
1.76	37.2044261868943	0	1	0	1	0	37.2044261868943	0
1.77	37.1267779084847	0	1	0	1	0	37.1267779084847	0
1.78	37.0512758010419	0	1	0	1	0	37.0512758010419	0
1.79	36.9778910511672	0	1	0	1	0	36.9778910511672	0
1.8	36.9065954857598	0	1	0	1	0	36.9065954857598	0
1.81	36.8373615543288	0	1	0	1	0	36.8373615543288	0
1.82	36.7701623118886	0	1	0	1	0	36.7701623118886	0
1.83	36.704971402415	0	1	0	1	0	36.704971402415	0
1.84	36.6417630428409	0	1	0	1	0	36.6417630428409	0
1.85	36.5805120075709	0	1	0	1	0	36.5805120075709	0
1.86	36.5211936134955	0	1	0	1	0	36.5211936134955	0
1.87	36.4637837054862	0	1	0	1	0	36.4637837054862	0
1.88	36.4082586423534	0	1	0	1	0	36.4082586423534	0
1.89	36.35459528325	0	1	0	1	0	36.35459528325	0
1.9	36.3027709745049	0	1	0	1	0	36.3027709745049	0
1.91	36.2527635368692	0	1	0	1	0	36.2527635368692	0
1.92	36.2045512531618	0	1	0	1	0	36.2045512531618	0
1.93	36.1581128562985	0	1	0	1	0	36.1581128562985	0
1.94	36.1134275176919	0	1	0	1	0	36.1134275176919	0
1.95	36.0704748360074	0	1	0	1	0	36.0704748360074	0
1.96	36.0292348262643	0	1	0	1	0	36.0292348262643	0
1.97	35.9896879092684	0	1	0	1	0	35.9896879092684	0
1.98	35.9518149013646	0	1	0	1	0	35.9518149013646	0
1.99	35.9155970044991	0	1	0	1	0	35.9155970044991	0
2	35.881015796579	0	1	0	1	0	35.881015796579	0
2.01	35.8480532221202	0	1	0	1	0	35.8480532221202	0
2.02	35.8166915831733	0	1	0	1	0	35.8166915831733	0
2.03	35.7869135305164	0	1	0	1	0	35.7869135305164	0
2.04	35.7587020551089	0	1	0	1	0	35.7587020551089	0
2.05	35.7320404797936	0	1	0	1	0	35.7320404797936	0
2.06	35.7069124512419	0	1	0	1	0	35.7069124512419	0
2.07	35.6833019321312	0	1	0	1	0	35.6833019321312	0
2.08	35.6611931935492	0	1	0	1	0	35.6611931935492	0
2.09	35.6405708076154	0	1	0	1	0	35.6405708076154	0
2.1	35.6214196403135	0	1	0	1	0	35.6214196403135	0
2.11	35.6037248445282	0	1	0	1	0	35.6037248445282	0
2.12	35.5874718532784	0	1	0	1	0	35.5874718532784	0
2.13	35.5726463731412	0	1	0	1	0	35.5726463731412	0
2.14	35.5592343778607	0	1	0	1	0	35.5592343778607	0
2.15	35.5472221021344	0	1	0	1	0	35.5472221021344	0
2.16	35.5365960355729	0	1	0	1	0	35.5365960355729	0
2.17	35.5273429168262	0	1	0	1	0	35.5273429168262	0
2.18	35.5194497278719	0	1	0	1	0	35.5194497278719	0
2.19	35.5129036884596	0	1	0	1	0	35.5129036884596	0
2.2	35.5076922507072	0	1	0	1	0	35.5076922507072	0
2.21	35.5038030938434	0	1	0	1	0	35.5038030938434	0
2.22	35.501224119093	0	1	0	1	0	35.501224119093	0
2.23	35.4999434446991	0	1	0	1	0	35.4999434446991	0
2.24	35.4999494010789	0	1	0	1	0	35.4999494010789	0
2.25	35.5012305261091	0	1	0	1	0	35.5012305261091	0
2.26	35.5037755605357	0	1	0	1	0	35.5037755605357	0
2.27	35.5075734435056	0	1	0	1	0	35.5075734435056	0
2.28	35.5126133082159	0	1	0	1	0	35.5126133082159	0
2.29	35.5188844776767	0	1	0	1	0	35.5188844776767	0
2.3	35.5263764605849	0	1	0	1	0	35.5263764605849	0
2.31	35.5350789473051	0	1	0	1	0	35.5350789473051	0
2.32	35.5449818059542	0	1	0	1	0	35.5449818059542	0
2.33	35.556075078587	0	1	0	1	0	35.556075078587	0
2.34	35.5683489774794	0	1	0	1	0	35.5683489774794	0
2.35	35.5817938815072	0	1	0	1	0	35.5817938815072	0
2.36	35.5964003326158	0	1	0	1	0	35.5964003326158	0
2.37	35.6121590323803	0	1	0	1	0	35.6121590323803	0
2.38	35.6290608386521	0	1	0	1	0	35.6290608386521	0
2.39	35.6470967622888	0	1	0	1	0	35.6470967622888	0
2.4	35.6662579639675	0	1	0	1	0	35.6662579639675	0
2.41	35.6865357510757	0	1	0	1	0	35.6865357510757	0
2.42	35.7079215746807	0	1	0	1	0	35.7079215746807	0
2.43	35.7304070265729	0	1	0	1	0	35.7304070265729	0
2.44	35.753983836382	0	1	0	1	0	35.753983836382	0
2.45	35.7786438687644	0	1	0	1	0	35.7786438687644	0
2.46	35.8043791206585	0	1	0	1	0	35.8043791206585	0
2.47	35.8311817186068	0	1	0	1	0	35.8311817186068	0
2.48	35.8590439161431	0	1	0	1	0	35.8590439161431	0
2.49	35.8879580912425	0	1	0	1	0	35.8879580912425	0
2.5	35.9179167438324	0	1	0	1	0	35.9179167438324	0
2.51	35.9489124933633	0	1	0	1	0	35.9489124933633	0
2.52	35.9809380764374	0	1	0	1	0	35.9809380764374	0
2.53	36.013986344493	0	1	0	1	0	36.013986344493	0
2.54	36.0480502615443	0	1	0	1	0	36.0480502615443	0
2.55	36.083122901974	0	1	0	1	0	36.083122901974	0
2.56	36.1191974483773	0	1	0	1	0	36.1191974483773	0
2.57	36.1562671894572	0	1	0	1	0	36.1562671894572	0
2.58	36.1943255179675	0	1	0	1	0	36.1943255179675	0
2.59	36.2333659287047	0	1	0	1	0	36.2333659287047	0
2.6	36.2733820165451	0	1	0	1	0	36.2733820165451	0
2.61	36.3143674745281	0	1	0	1	0	36.3143674745281	0
2.62	36.3563160919823	0	1	0	1	0	36.3563160919823	0
2.63	36.3992217526952	0	1	0	1	0	36.3992217526952	0
2.64	36.4430784331244	0	1	0	1	0	36.4430784331244	0
2.65	36.4878802006488	0	1	0	1	0	36.4878802006488	0
2.66	36.5336212118595	0	1	0	1	0	36.5336212118595	0
2.67	36.5802957108895	0	1	0	1	0	36.5802957108895	0
2.68	36.6278980277802	0	1	0	1	0	36.6278980277802	0
2.69	36.6764225768846	0	1	0	1	0	36.6764225768846	0
2.7	36.725863855306	0	1	0	1	0	36.725863855306	0
2.71	36.7762164413715	0	1	0	1	0	36.7762164413715	0
2.72	36.8274749931383	0	1	0	1	0	36.8274749931383	0
2.73	36.8796342469343	0	1	0	1	0	36.8796342469343	0
2.74	36.9326890159288	0	1	0	1	0	36.9326890159288	0
2.75	36.9866341887364	0	1	0	1	0	36.9866341887364	0
2.76	37.0414647280494	0	1	0	1	0	37.0414647280494	0
2.77	37.0971756693011	0	1	0	1	0	37.0971756693011	0
2.78	37.1537621193576	0	1	0	1	0	37.1537621193576	0
2.79	37.2112192552372	0	1	0	1	0	37.2112192552372	0
2.8	37.2695423228581	0	1	0	1	0	37.2695423228581	0
2.81	37.3287266358121	0	1	0	1	0	37.3287266358121	0
2.82	37.3887675741651	0	1	0	1	0	37.3887675741651	0
2.83	37.4496605832822	0	1	0	1	0	37.4496605832822	0
2.84	37.5114011726785	0	1	0	1	0	37.5114011726785	0
2.85	37.5739849148933	0	1	0	1	0	37.5739849148933	0
2.86	37.6374074443884	0	1	0	1	0	37.6374074443884	0
2.87	37.7016644564695	0	1	0	1	0	37.7016644564695	0
2.88	37.7667517062296	0	1	0	1	0	37.7667517062296	0
2.89	37.8326650075147	0	1	0	1	0	37.8326650075147	0
2.9	37.8994002319109	0	1	0	1	0	37.8994002319109	0
2.91	37.9669533077525	0	1	0	1	0	37.9669533077525	0
2.92	38.0353202191495	0	1	0	1	0	38.0353202191495	0
2.93	38.1044970050369	0	1	0	1	0	38.1044970050369	0
2.94	38.1744797582414	0	1	0	1	0	38.1744797582414	0
2.95	38.2452646245685	0	1	0	1	0	38.2452646245685	0
2.96	38.3168478019072	0	1	0	1	0	38.3168478019072	0
2.97	38.3892255393535	0	1	0	1	0	38.3892255393535	0
2.98	38.4623941363513	0	1	0	1	0	38.4623941363513	0
2.99	38.5363499418499	0	1	0	1	0	38.5363499418499	0
3	38.6110893534795	0	1	0	1	0	38.6110893534795	0
3.01	38.6866088167424	0	1	0	1	0	38.6866088167424	0
3.02	38.76290482422	0	1	0	1	0	38.76290482422	0
3.03	38.8399739147967	0	1	0	1	0	38.8399739147967	0
3.04	38.9178126728975	0	1	0	1	0	38.9178126728975	0
3.05	38.9964177277421	0	1	0	1	0	38.9964177277421	0
3.06	39.0757857526125	0	1	0	1	0	39.0757857526125	0
3.07	39.1559134641358	0	1	0	1	0	39.1559134641358	0
3.08	39.23679762158	0	1	0	1	0	39.23679762158	0
3.09	39.3184350261645	0	1	0	1	0	39.3184350261645	0
3.1	39.4008225203833	0	1	0	1	0	39.4008225203833	0
3.11	39.4839569873414	0	1	0	1	0	39.4839569873414	0
3.12	39.5678353501039	0	1	0	1	0	39.5678353501039	0
3.13	39.6524545710578	0	1	0	1	0	39.6524545710578	0
3.14	39.7378116512859	0	1	0	1	0	39.7378116512859	0
3.15	39.8239036299524	0	1	0	1	0	39.8239036299524	0
3.16	39.9107275837004	0	1	0	1	0	39.9107275837004	0
3.17	39.9982806260609	0	1	0	1	0	39.9982806260609	0
3.18	40.0865599068726	0	1	0	1	0	40.0865599068726	0
3.19	40.1755626117128	0	1	0	1	0	40.1755626117128	0
3.2	40.2652859613394	0	1	0	1	0	40.2652859613394	0
3.21	40.3557272111422	0	1	0	1	0	40.3557272111422	0
3.22	40.4468836506058	0	1	0	1	0	40.4468836506058	0
3.23	40.5387526027816	0	1	0	1	0	40.5387526027816	0
3.24	40.6313314237695	0	1	0	1	0	40.6313314237695	0
3.25	40.72461750221	0	1	0	1	0	40.72461750221	0
3.26	40.8186082587845	0	1	0	1	0	40.8186082587845	0
3.27	40.913301145726	0	1	0	1	0	40.913301145726	0
3.28	41.0086936463376	0	1	0	1	0	41.0086936463376	0
3.29	41.1047832745207	0	1	0	1	0	41.1047832745207	0
3.3	41.2015675743111	0	1	0	1	0	41.2015675743111	0
3.31	41.299044119424	0	1	0	1	0	41.299044119424	0
3.32	41.3972105128071	0	1	0	1	0	41.3972105128071	0
3.33	41.4960643862011	0	1	0	1	0	41.4960643862011	0
3.34	41.5956033997095	0	1	0	1	0	41.5956033997095	0
3.35	41.6958252413747	0	1	0	1	0	41.6958252413747	0
3.36	41.7967276267624	0	1	0	1	0	41.7967276267624	0
3.37	41.8983082985532	0	1	0	1	0	41.8983082985532	0
3.38	42.0005650261417	0	1	0	1	0	42.0005650261417	0
3.39	42.1034956052421	0	1	0	1	0	42.1034956052421	0
3.4	42.2070978575016	0	1	0	1	0	42.2070978575016	0
3.41	42.3113696301198	0	1	0	1	0	42.3113696301198	0
3.42	42.4163087954752	0	1	0	1	0	42.4163087954752	0
3.43	42.5219132507585	0	1	0	1	0	42.5219132507585	0
3.44	42.6281809176112	0	1	0	1	0	42.6281809176112	0
3.45	42.7351097417721	0	1	0	1	0	42.7351097417721	0
3.46	42.8426976927286	0	1	0	1	0	42.8426976927286	0
3.47	42.9509427633745	0	1	0	1	0	42.9509427633745	0
3.48	43.0598429696737	0	1	0	1	0	43.0598429696737	0
3.49	43.1693963503301	0	1	0	1	0	43.1693963503301	0
3.5	43.2796009664621	0	1	0	1	0	43.2796009664621	0
3.51	43.3904549012838	0	1	0	1	0	43.3904549012838	0
3.52	43.5019562597908	0	1	0	1	0	43.5019562597908	0
3.53	43.6141031684519	0	1	0	1	0	43.6141031684519	0
3.54	43.7268937749058	0	1	0	1	0	43.7268937749058	0
3.55	43.8403262476629	0	1	0	1	0	43.8403262476629	0
3.56	43.954398775812	0	1	0	1	0	43.954398775812	0
3.57	44.0691095687323	0	1	0	1	0	44.0691095687323	0
3.58	44.18445685581	0	1	0	1	0	44.18445685581	0
3.59	44.3004388861595	0	1	0	1	0	44.3004388861595	0
3.6	44.4170539283494	0	1	0	1	0	44.4170539283494	0
3.61	44.5343002701334	0	1	0	1	0	44.5343002701334	0
3.62	44.6521762181848	0	1	0	1	0	44.6521762181848	0
3.63	44.7706800978362	0	1	0	1	0	44.7706800978362	0
3.64	44.8898102528233	0	1	0	1	0	44.8898102528233	0
3.65	45.0095650450324	0	1	0	1	0	45.0095650450324	0
3.66	45.1299428542529	0	1	0	1	0	45.1299428542529	0
3.67	45.250942077933	0	1	0	1	0	45.250942077933	0
3.68	45.37256113094	0	1	0	1	0	45.37256113094	0
3.69	45.4947984453243	0	1	0	1	0	45.4947984453243	0
3.7	45.6176524700869	0	1	0	1	0	45.6176524700869	0
3.71	45.7411216709515	0	1	0	1	0	45.7411216709515	0
3.72	45.8652045301389	0	1	0	1	0	45.8652045301389	0
3.73	45.9898995461469	0	1	0	1	0	45.9898995461469	0
3.74	46.1152052335317	0	1	0	1	0	46.1152052335317	0
3.75	46.2411201226946	0	1	0	1	0	46.2411201226946	0
3.76	46.3676427596705	0	1	0	1	0	46.3676427596705	0
3.77	46.4947717059215	0	1	0	1	0	46.4947717059215	0
3.78	46.6225055381318	0	1	0	1	0	46.6225055381318	0
3.79	46.7508428480079	0	1	0	1	0	46.7508428480079	0
3.8	46.87978224208	0	1	0	1	0	46.87978224208	0
3.81	47.0093223415082	0	1	0	1	0	47.0093223415082	0
3.82	47.1394617818907	0	1	0	1	0	47.1394617818907	0
3.83	47.270199213075	0	1	0	1	0	47.270199213075	0
3.84	47.4015332989732	0	1	0	1	0	47.4015332989732	0
3.85	47.5334627173784	0	1	0	1	0	47.5334627173784	0
3.86	47.6659861597856	0	1	0	1	0	47.6659861597856	0
3.87	47.7991023312142	0	1	0	1	0	47.7991023312142	0
3.88	47.932809950034	0	1	0	1	0	47.932809950034	0
3.89	48.0671077477936	0	1	0	1	0	48.0671077477936	0
3.9	48.2019944690513	0	1	0	1	0	48.2019944690513	0
3.91	48.3374688712087	0	1	0	1	0	48.3374688712087	0
3.92	48.473529724347	0	1	0	1	0	48.473529724347	0
3.93	48.6101758110659	0	1	0	1	0	48.6101758110659	0
3.94	48.7474059263241	0	1	0	1	0	48.7474059263241	0
3.95	48.8852188772836	0	1	0	1	0	48.8852188772836	0
3.96	49.0236134831551	0	1	0	1	0	49.0236134831551	0
3.97	49.1625885750463	0	1	0	1	0	49.1625885750463	0
3.98	49.3021429958129	0	1	0	1	0	49.3021429958129	0
3.99	49.4422755999107	0	1	0	1	0	49.4422755999107	0
4	49.5829852532512	0	1	0	1	0	49.5829852532512	0
4.01	49.7242708330583	0	1	0	1	0	49.7242708330583	0
4.02	49.8661312277279	0	1	0	1	0	49.8661312277279	0
4.03	50.0085653366893	0	1	0	1	0	50.0085653366893	0
4.04	50.1515720702683	0	1	0	1	0	50.1515720702683	0
4.05	50.2951503495531	0	1	0	1	0	50.2951503495531	0
4.06	50.4392991062615	0	1	0	1	0	50.4392991062615	0
4.07	50.5840172826104	0	1	0	1	0	50.5840172826104	0
4.08	50.7293038311871	0	1	0	1	0	50.7293038311871	0
4.09	50.8751577148226	0	1	0	1	0	50.8751577148226	0
4.1	51.0215779064666	0	1	0	1	0	51.0215779064666	0
4.11	51.1685633890644	0	1	0	1	0	51.1685633890644	0
4.12	51.3161131554356	0	1	0	1	0	51.3161131554356	0
4.13	51.4642262081547	0	1	0	1	0	51.4642262081547	0
4.14	51.612901559433	0	1	0	1	0	51.612901559433	0
4.15	51.7621382310027	0	1	0	1	0	51.7621382310027	0
4.16	51.9119352540024	0	1	0	1	0	51.9119352540024	0
4.17	52.0622916688645	0	1	0	1	0	52.0622916688645	0
4.18	52.2132065252037	0	1	0	1	0	52.2132065252037	0
4.19	52.3646788817076	0	1	0	1	0	52.3646788817076	0
4.2	52.5167078060287	0	1	0	1	0	52.5167078060287	0
4.21	52.669292374678	0	1	0	1	0	52.669292374678	0
4.22	52.8224316729198	0	1	0	1	0	52.8224316729198	0
4.23	52.9761247946684	0	1	0	1	0	52.9761247946684	0
4.24	53.1303708423863	0	1	0	1	0	53.1303708423863	0
4.25	53.2851689269832	0	1	0	1	0	53.2851689269832	0
4.26	53.440518167717	0	1	0	1	0	53.440518167717	0
4.27	53.5964176920963	0	1	0	1	0	53.5964176920963	0
4.28	53.7528666357837	0	1	0	1	0	53.7528666357837	0
4.29	53.909864142501	0	1	0	1	0	53.909864142501	0
4.3	54.0674093639353	0	1	0	1	0	54.0674093639353	0
4.31	54.2255014596467	0	1	0	1	0	54.2255014596467	0
4.32	54.3841395969771	0	1	0	1	0	54.3841395969771	0
4.33	54.5433229509604	0	1	0	1	0	54.5433229509604	0
4.34	54.703050704234	0	1	0	1	0	54.703050704234	0
4.35	54.8633220469511	0	1	0	1	0	54.8633220469511	0
4.36	55.0241361766949	0	1	0	1	0	55.0241361766949	0
4.37	55.1854922983931	0	1	0	1	0	55.1854922983931	0
4.38	55.3473896242345	0	1	0	1	0	55.3473896242345	0
4.39	55.5098273735863	0	1	0	1	0	55.5098273735863	0
4.4	55.6728047729119	0	1	0	1	0	55.6728047729119	0
4.41	55.8363210556913	0	1	0	1	0	55.8363210556913	0
4.42	56.0003754623413	0	1	0	1	0	56.0003754623413	0
4.43	56.1649672401371	0	1	0	1	0	56.1649672401371	0
4.44	56.3300956431352	0	1	0	1	0	56.3300956431352	0
4.45	56.4957599320973	0	1	0	1	0	56.4957599320973	0
4.46	56.6619593744151	0	1	0	1	0	56.6619593744151	0
4.47	56.8286932440359	0	1	0	1	0	56.8286932440359	0
4.48	56.9959608213896	0	1	0	1	0	56.9959608213896	0
4.49	57.1637613933168	0	1	0	1	0	57.1637613933168	0
4.5	57.3320942529971	0	1	0	1	0	57.3320942529971	0
4.51	57.500958699879	0	1	0	1	0	57.500958699879	0
4.52	57.6703540396105	0	1	0	1	0	57.6703540396105	0
4.53	57.840279583971	0	1	0	1	0	57.840279583971	0
4.54	58.0107346508034	0	1	0	1	0	58.0107346508034	0
4.55	58.1817185639474	0	1	0	1	0	58.1817185639474	0
4.56	58.3532306531742	0	1	0	1	0	58.3532306531742	0
4.57	58.5252702541211	0	1	0	1	0	58.5252702541211	0
4.58	58.6978367082279	0	1	0	1	0	58.6978367082279	0
4.59	58.8709293626735	0	1	0	1	0	58.8709293626735	0
4.6	59.0445475703132	0	1	0	1	0	59.0445475703132	0
4.61	59.2186906896178	0	1	0	1	0	59.2186906896178	0
4.62	59.3933580846123	0	1	0	1	0	59.3933580846123	0
4.63	59.568549124816	0	1	0	1	0	59.568549124816	0
4.64	59.7442631851835	0	1	0	1	0	59.7442631851835	0
4.65	59.9204996460462	0	1	0	1	0	59.9204996460462	0
4.66	60.0972578930543	0	1	0	1	0	60.0972578930543	0
4.67	60.2745373171204	0	1	0	1	0	60.2745373171204	0
4.68	60.4523373143628	0	1	0	1	0	60.4523373143628	0
4.69	60.6306572860501	0	1	0	1	0	60.6306572860501	0
4.7	60.8094966385466	0	1	0	1	0	60.8094966385466	0
4.71	60.9888547832582	0	1	0	1	0	60.9888547832582	0
4.72	61.1687311365787	0	1	0	1	0	61.1687311365787	0
4.73	61.3491251198372	0	1	0	1	0	61.3491251198372	0
4.74	61.5300361592465	0	1	0	1	0	61.5300361592465	0
4.75	61.7114636858507	0	1	0	1	0	61.7114636858507	0
4.76	61.8934071354756	0	1	0	1	0	61.8934071354756	0
4.77	62.0758659486776	0	1	0	1	0	62.0758659486776	0
4.78	62.258839570695	0	1	0	1	0	62.258839570695	0
4.79	62.4423274513984	0	1	0	1	0	62.4423274513984	0
4.8	62.6263290452431	0	1	0	1	0	62.6263290452431	0
4.81	62.810843811221	0	1	0	1	0	62.810843811221	0
4.82	62.9958712128138	0	1	0	1	0	62.9958712128138	0
4.83	63.1814107179462	0	1	0	1	0	63.1814107179462	0
4.84	63.3674617989406	0	1	0	1	0	63.3674617989406	0
4.85	63.5540239324709	0	1	0	1	0	63.5540239324709	0
4.86	63.7410965995187	0	1	0	1	0	63.7410965995187	0
4.87	63.9286792853282	0	1	0	1	0	63.9286792853282	0
4.88	64.1167714793631	0	1	0	1	0	64.1167714793631	0
4.89	64.3053726752632	0	1	0	1	0	64.3053726752632	0
4.9	64.4944823708019	0	1	0	1	0	64.4944823708019	0
4.91	64.684100067844	0	1	0	1	0	64.684100067844	0
4.92	64.8742252723043	0	1	0	1	0	64.8742252723043	0
4.93	65.0648574941062	0	1	0	1	0	65.0648574941062	0
