# GHZ S RI R 50
1	55.4081742372271	0	1	0	1	0	55.4081742372271	0
1.01	54.9399498678405	0	1	0	1	0	54.9399498678405	0
1.02	54.4820019254531	0	1	0	1	0	54.4820019254531	0
1.03	54.0340418384444	0	1	0	1	0	54.0340418384444	0
1.04	53.5957921341028	0	1	0	1	0	53.5957921341028	0
1.05	53.1669859101055	0	1	0	1	0	53.1669859101055	0
1.06	52.7473663359154	0	1	0	1	0	52.7473663359154	0
1.07	52.3366861821372	0	1	0	1	0	52.3366861821372	0
1.08	51.9347073760196	0	1	0	1	0	51.9347073760196	0
1.09	51.5412005814263	0	1	0	1	0	51.5412005814263	0
1.1	51.1559448017166	0	1	0	1	0	51.1559448017166	0
1.11	50.7787270040929	0	1	0	1	0	50.7787270040929	0
1.12	50.4093417640717	0	1	0	1	0	50.4093417640717	0
1.13	50.0475909288328	0	1	0	1	0	50.0475909288328	0
1.14	49.6932832982862	0	1	0	1	0	49.6932832982862	0
1.15	49.3462343227802	0	1	0	1	0	49.3462343227802	0
1.16	49.0062658164439	0	1	0	1	0	49.0062658164439	0
1.17	48.6732056852312	0	1	0	1	0	48.6732056852312	0
1.18	48.3468876687925	0	1	0	1	0	48.3468876687925	0
1.19	48.0271510953611	0	1	0	1	0	48.0271510953611	0
1.2	47.7138406488963	0	1	0	1	0	47.7138406488963	0
1.21	47.4068061477717	0	1	0	1	0	47.4068061477717	0
1.22	47.1059023343485	0	1	0	1	0	47.1059023343485	0
1.23	46.810988674814	0	1	0	1	0	46.810988674814	0
1.24	46.5219291687039	0	1	0	1	0	46.5219291687039	0
1.25	46.2385921675689	0	1	0	1	0	46.2385921675689	0
1.26	45.9608502022755	0	1	0	1	0	45.9608502022755	0
1.27	45.6885798184663	0	1	0	1	0	45.6885798184663	0
1.28	45.4216614197321	0	1	0	1	0	45.4216614197321	0
1.29	45.15997911808	0	1	0	1	0	45.15997911808	0
1.3	44.9034205913012	0	1	0	1	0	44.9034205913012	0
1.31	44.6518769468726	0	1	0	1	0	44.6518769468726	0
1.32	44.4052425920448	0	1	0	1	0	44.4052425920448	0
1.33	44.16341510979	0	1	0	1	0	44.16341510979	0
1.34	43.9262951403051	0	1	0	1	0	43.9262951403051	0
1.35	43.6937862677813	0	1	0	1	0	43.6937862677813	0
1.36	43.4657949121687	0	1	0	1	0	43.4657949121687	0
1.37	43.2422302256818	0	1	0	1	0	43.2422302256818	0
1.38	43.0230039938041	0	1	0	1	0	43.0230039938041	0
1.39	42.8080305405665	0	1	0	1	0	42.8080305405665	0
1.4	42.5972266378846	0	1	0	1	0	42.5972266378846	0
1.41	42.3905114187545	0	1	0	1	0	42.3905114187545	0
1.42	42.1878062941159	0	1	0	1	0	42.1878062941159	0
1.43	41.9890348732041	0	1	0	1	0	41.9890348732041	0
1.44	41.79412288722	0	1	0	1	0	41.79412288722	0
1.45	41.602998116159	0	1	0	1	0	41.602998116159	0
1.46	41.4155903186466	0	1	0	1	0	41.4155903186466	0
1.47	41.2318311646384	0	1	0	1	0	41.2318311646384	0
1.48	41.051654170848	0	1	0	1	0	41.051654170848	0
1.49	40.874994638775	0	1	0	1	0	40.874994638775	0
1.5	40.7017895952125	0	1	0	1	0	40.7017895952125	0
1.51	40.5319777351179	0	1	0	1	0	40.5319777351179	0
1.52	40.3654993667393	0	1	0	1	0	40.3654993667393	0
1.53	40.2022963588935	0	1	0	1	0	40.2022963588935	0
1.54	40.0423120902981	0	1	0	1	0	40.0423120902981	0
1.55	39.885491400865	0	1	0	1	0	39.885491400865	0
1.56	39.7317805448676	0	1	0	1	0	39.7317805448676	0
1.57	39.5811271458968	0	1	0	1	0	39.5811271458968	0
1.58	39.4334801535289	0	1	0	1	0	39.4334801535289	0
1.59	39.2887898016274	0	1	0	1	0	39.2887898016274	0
1.6	39.1470075682092	0	1	0	1	0	39.1470075682092	0
1.61	39.0080861368063	0	1	0	1	0	39.0080861368063	0
1.62	38.8719793592587	0	1	0	1	0	38.8719793592587	0
1.63	38.7386422198765	0	1	0	1	0	38.7386422198765	0
1.64	38.6080308009134	0	1	0	1	0	38.6080308009134	0
1.65	38.4801022492958	0	1	0	1	0	38.4801022492958	0
1.66	38.3548147445542	0	1	0	1	0	38.3548147445542	0
1.67	38.2321274679071	0	1	0	1	0	38.2321274679071	0
1.68	38.1120005724488	0	1	0	1	0	38.1120005724488	0
1.69	37.9943951543954	0	1	0	1	0	37.9943951543954	0
1.7	37.8792732253463	0	1	0	1	0	37.8792732253463	0
1.71	37.7665976855185	0	1	0	1	0	37.7665976855185	0
1.72	37.6563322979146	0	1	0	1	0	37.6563322979146	0
1.73	37.5484416633868	0	1	0	1	0	37.5484416633868	0
1.74	37.4428911965609	0	1	0	1	0	37.4428911965609	0
1.75	37.3396471025855	0	1	0	1	0	37.3396471025855	0
1.76	37.2386763546739	0	1	0	1	0	37.2386763546739	0
1.77	37.1399466724077	0	1	0	1	0	37.1399466724077	0
1.78	37.0434265007709	0	1	0	1	0	37.0434265007709	0
1.79	36.9490849898878	0	1	0	1	0	36.9490849898878	0
1.8	36.8568919754352	0	1	0	1	0	36.8568919754352	0
1.81	36.7668179597049	0	1	0	1	0	36.7668179597049	0
1.82	36.6788340932902	0	1	0	1	0	36.6788340932902	0
1.83	36.5929121573721	0	1	0	1	0	36.5929121573721	0
1.84	36.5090245465845	0	1	0	1	0	36.5090245465845	0
1.85	36.4271442524339	0	1	0	1	0	36.4271442524339	0
1.86	36.3472448472549	0	1	0	1	0	36.3472448472549	0
1.87	36.2693004686794	0	1	0	1	0	36.2693004686794	0
1.88	36.1932858046026	0	1	0	1	0	36.1932858046026	0
1.89	36.1191760786257	0	1	0	1	0	36.1191760786257	0
1.9	36.0469470359583	0	1	0	1	0	36.0469470359583	0
1.91	35.9765749297635	0	1	0	1	0	35.9765749297635	0
1.92	35.9080365079304	0	1	0	1	0	35.9080365079304	0
1.93	35.8413090002571	0	1	0	1	0	35.8413090002571	0
1.94	35.7763701060302	0	1	0	1	0	35.7763701060302	0
1.95	35.7131979819872	0	1	0	1	0	35.7131979819872	0
1.96	35.6517712306461	0	1	0	1	0	35.6517712306461	0
1.97	35.5920688889918	0	1	0	1	0	35.5920688889918	0
1.98	35.5340704175042	0	1	0	1	0	35.5340704175042	0
1.99	35.4777556895182	0	1	0	1	0	35.4777556895182	0
2	35.4231049809017	0	1	0	1	0	35.4231049809017	0
2.01	35.3700989600429	0	1	0	1	0	35.3700989600429	0
2.02	35.3187186781339	0	1	0	1	0	35.3187186781339	0
2.03	35.2689455597426	0	1	0	1	0	35.2689455597426	0
2.04	35.2207613936609	0	1	0	1	0	35.2207613936609	0
2.05	35.1741483240214	0	1	0	1	0	35.1741483240214	0
2.06	35.1290888416725	0	1	0	1	0	35.1290888416725	0
2.07	35.0855657758039	0	1	0	1	0	35.0855657758039	0
2.08	35.043562285813	0	1	0	1	0	35.043562285813	0
2.09	35.0030618534054	0	1	0	1	0	35.0030618534054	0
2.1	34.9640482749208	0	1	0	1	0	34.9640482749208	0
2.11	34.9265056538777	0	1	0	1	0	34.9265056538777	0
2.12	34.8904183937276	0	1	0	1	0	34.8904183937276	0
2.13	34.8557711908155	0	1	0	1	0	34.8557711908155	0
2.14	34.8225490275356	0	1	0	1	0	34.8225490275356	0
2.15	34.7907371656797	0	1	0	1	0	34.7907371656797	0
2.16	34.7603211399692	0	1	0	1	0	34.7603211399692	0
2.17	34.7312867517667	0	1	0	1	0	34.7312867517667	0
2.18	34.7036200629602	0	1	0	1	0	34.7036200629602	0
2.19	34.677307390015	0	1	0	1	0	34.677307390015	0
2.2	34.6523352981882	0	1	0	1	0	34.6523352981882	0
2.21	34.6286905958995	0	1	0	1	0	34.6286905958995	0
2.22	34.6063603292546	0	1	0	1	0	34.6063603292546	0
2.23	34.5853317767163	0	1	0	1	0	34.5853317767163	0
2.24	34.5655924439175	0	1	0	1	0	34.5655924439175	0
2.25	34.5471300586134	0	1	0	1	0	34.5471300586134	0
2.26	34.5299325657668	0	1	0	1	0	34.5299325657668	0
2.27	34.5139881227643	0	1	0	1	0	34.5139881227643	0
2.28	34.4992850947576	0	1	0	1	0	34.4992850947576	0
2.29	34.485812050127	0	1	0	1	0	34.485812050127	0
2.3	34.4735577560639	0	1	0	1	0	34.4735577560639	0
2.31	34.4625111742669	0	1	0	1	0	34.4625111742669	0
2.32	34.4526614567503	0	1	0	1	0	34.4526614567503	0
2.33	34.44399794176	0	1	0	1	0	34.44399794176	0
2.34	34.4365101497938	0	1	0	1	0	34.4365101497938	0
2.35	34.4301877797244	0	1	0	1	0	34.4301877797244	0
2.36	34.4250207050196	0	1	0	1	0	34.4250207050196	0
2.37	34.4209989700592	0	1	0	1	0	34.4209989700592	0
2.38	34.4181127865444	0	1	0	1	0	34.4181127865444	0
2.39	34.4163525299972	0	1	0	1	0	34.4163525299972	0
2.4	34.4157087363477	0	1	0	1	0	34.4157087363477	0
2.41	34.4161720986059	0	1	0	1	0	34.4161720986059	0
2.42	34.4177334636163	0	1	0	1	0	34.4177334636163	0
2.43	34.4203838288929	0	1	0	1	0	34.4203838288929	0
2.44	34.424114339531	0	1	0	1	0	34.424114339531	0
2.45	34.4289162851962	0	1	0	1	0	34.4289162851962	0
2.46	34.4347810971853	0	1	0	1	0	34.4347810971853	0
2.47	34.4417003455596	0	1	0	1	0	34.4417003455596	0
2.48	34.4496657363471	0	1	0	1	0	34.4496657363471	0
2.49	34.4586691088123	0	1	0	1	0	34.4586691088123	0
2.5	34.4687024327916	0	1	0	1	0	34.4687024327916	0
2.51	34.4797578060921	0	1	0	1	0	34.4797578060921	0
2.52	34.4918274519524	0	1	0	1	0	34.4918274519524	0
2.53	34.5049037165638	0	1	0	1	0	34.5049037165638	0
2.54	34.5189790666504	0	1	0	1	0	34.5189790666504	0
2.55	34.5340460871049	0	1	0	1	0	34.5340460871049	0
2.56	34.5500974786812	0	1	0	1	0	34.5500974786812	0
2.57	34.5671260557404	0	1	0	1	0	34.5671260557404	0
2.58	34.5851247440484	0	1	0	1	0	34.5851247440484	0
2.59	34.604086578626	0	1	0	1	0	34.604086578626	0
2.6	34.6240047016475	0	1	0	1	0	34.6240047016475	0
2.61	34.6448723603877	0	1	0	1	0	34.6448723603877	0
2.62	34.6666829052169	0	1	0	1	0	34.6666829052169	0
2.63	34.6894297876401	0	1	0	1	0	34.6894297876401	0
2.64	34.7131065583821	0	1	0	1	0	34.7131065583821	0
2.65	34.737706865515	0	1	0	1	0	34.737706865515	0
2.66	34.763224452629	0	1	0	1	0	34.763224452629	0
2.67	34.7896531570429	0	1	0	1	0	34.7896531570429	0
2.68	34.8169869080561	0	1	0	1	0	34.8169869080561	0
2.69	34.8452197252386	0	1	0	1	0	34.8452197252386	0
2.7	34.8743457167591	0	1	0	1	0	34.8743457167591	0
2.71	34.9043590777509	0	1	0	1	0	34.9043590777509	0
2.72	34.9352540887129	0	1	0	1	0	34.9352540887129	0
2.73	34.9670251139462	0	1	0	1	0	34.9670251139462	0
2.74	34.9996666000249	0	1	0	1	0	34.9996666000249	0
2.75	35.0331730743001	0	1	0	1	0	35.0331730743001	0
2.76	35.0675391434368	0	1	0	1	0	35.0675391434368	0
2.77	35.102759491982	0	1	0	1	0	35.102759491982	0
2.78	35.138828880964	0	1	0	1	0	35.138828880964	0
2.79	35.1757421465219	0	1	0	1	0	35.1757421465219	0
2.8	35.2134941985643	0	1	0	1	0	35.2134941985643	0
2.81	35.2520800194564	0	1	0	1	0	35.2520800194564	0
2.82	35.2914946627358	0	1	0	1	0	35.2914946627358	0
2.83	35.3317332518544	0	1	0	1	0	35.3317332518544	0
2.84	35.3727909789483	0	1	0	1	0	35.3727909789483	0
2.85	35.4146631036321	0	1	0	1	0	35.4146631036321	0
2.86	35.4573449518195	0	1	0	1	0	35.4573449518195	0
2.87	35.5008319145684	0	1	0	1	0	35.5008319145684	0
2.88	35.5451194469498	0	1	0	1	0	35.5451194469498	0
2.89	35.5902030669402	0	1	0	1	0	35.5902030669402	0
2.9	35.636078354337	0	1	0	1	0	35.636078354337	0
2.91	35.6827409496966	0	1	0	1	0	35.6827409496966	0
2.92	35.7301865532937	0	1	0	1	0	35.7301865532937	0
2.93	35.7784109241024	0	1	0	1	0	35.7784109241024	0
2.94	35.8274098787978	0	1	0	1	0	35.8274098787978	0
2.95	35.8771792907781	0	1	0	1	0	35.8771792907781	0
2.96	35.9277150892061	0	1	0	1	0	35.9277150892061	0
2.97	35.9790132580711	0	1	0	1	0	35.9790132580711	0
2.98	36.0310698352684	0	1	0	1	0	36.0310698352684	0
2.99	36.0838809116979	0	1	0	1	0	36.0838809116979	0
3	36.1374426303811	0	1	0	1	0	36.1374426303811	0
3.01	36.1917511855949	0	1	0	1	0	36.1917511855949	0
3.02	36.2468028220232	0	1	0	1	0	36.2468028220232	0
3.03	36.3025938339248	0	1	0	1	0	36.3025938339248	0
3.04	36.3591205643185	0	1	0	1	0	36.3591205643185	0
3.05	36.4163794041834	0	1	0	1	0	36.4163794041834	0
3.06	36.4743667916755	0	1	0	1	0	36.4743667916755	0
3.07	36.5330792113589	0	1	0	1	0	36.5330792113589	0
3.08	36.5925131934529	0	1	0	1	0	36.5925131934529	0
3.09	36.6526653130931	0	1	0	1	0	36.6526653130931	0
3.1	36.7135321896068	0	1	0	1	0	36.7135321896068	0
3.11	36.7751104858027	0	1	0	1	0	36.7751104858027	0
3.12	36.8373969072738	0	1	0	1	0	36.8373969072738	0
3.13	36.9003882017144	0	1	0	1	0	36.9003882017144	0
3.14	36.9640811582494	0	1	0	1	0	36.9640811582494	0
3.15	37.0284726067766	0	1	0	1	0	37.0284726067766	0
3.16	37.0935594173217	0	1	0	1	0	37.0935594173217	0
3.17	37.1593384994055	0	1	0	1	0	37.1593384994055	0
3.18	37.2258068014225	0	1	0	1	0	37.2258068014225	0
3.19	37.2929613100321	0	1	0	1	0	37.2929613100321	0
3.2	37.3607990495602	0	1	0	1	0	37.3607990495602	0
3.21	37.429317081413	0	1	0	1	0	37.429317081413	0
3.22	37.4985125035009	0	1	0	1	0	37.4985125035009	0
3.23	37.5683824496733	0	1	0	1	0	37.5683824496733	0
3.24	37.6389240891645	0	1	0	1	0	37.6389240891645	0
3.25	37.7101346260486	0	1	0	1	0	37.7101346260486	0
3.26	37.782011298706	0	1	0	1	0	37.782011298706	0
3.27	37.854551379298	0	1	0	1	0	37.854551379298	0
3.28	37.9277521732524	0	1	0	1	0	37.9277521732524	0
3.29	38.0016110187577	0	1	0	1	0	38.0016110187577	0
3.3	38.0761252862668	0	1	0	1	0	38.0761252862668	0
3.31	38.1512923780096	0	1	0	1	0	38.1512923780096	0
3.32	38.2271097275145	0	1	0	1	0	38.2271097275145	0
3.33	38.3035747991383	0	1	0	1	0	38.3035747991383	0
3.34	38.3806850876047	0	1	0	1	0	38.3806850876047	0
3.35	38.4584381175514	0	1	0	1	0	38.4584381175514	0
3.36	38.5368314430846	0	1	0	1	0	38.5368314430846	0
3.37	38.6158626473417	0	1	0	1	0	38.6158626473417	0
3.38	38.6955293420622	0	1	0	1	0	38.6955293420622	0
3.39	38.7758291671657	0	1	0	1	0	38.7758291671657	0
3.4	38.8567597903373	0	1	0	1	0	38.8567597903373	0
3.41	38.9383189066207	0	1	0	1	0	38.9383189066207	0
3.42	39.0205042380183	0	1	0	1	0	39.0205042380183	0
3.43	39.1033135330978	0	1	0	1	0	39.1033135330978	0
3.44	39.1867445666065	0	1	0	1	0	39.1867445666065	0
3.45	39.2707951390917	0	1	0	1	0	39.2707951390917	0
3.46	39.355463076528	0	1	0	1	0	39.355463076528	0
3.47	39.4407462299507	0	1	0	1	0	39.4407462299507	0
3.48	39.5266424750958	0	1	0	1	0	39.5266424750958	0
3.49	39.6131497120462	0	1	0	1	0	39.6131497120462	0
3.5	39.700265864884	0	1	0	1	0	39.700265864884	0
3.51	39.7879888813484	0	1	0	1	0	39.7879888813484	0
3.52	39.8763167324995	0	1	0	1	0	39.8763167324995	0
3.53	39.9652474123886	0	1	0	1	0	39.9652474123886	0
3.54	40.0547789377329	0	1	0	1	0	40.0547789377329	0
3.55	40.1449093475965	0	1	0	1	0	40.1449093475965	0
3.56	40.2356367030764	0	1	0	1	0	40.2356367030764	0
3.57	40.326959086994	0	1	0	1	0	40.326959086994	0
3.58	40.4188746035919	0	1	0	1	0	40.4188746035919	0
3.59	40.5113813782351	0	1	0	1	0	40.5113813782351	0
3.6	40.604477557118	0	1	0	1	0	40.604477557118	0
3.61	40.6981613069757	0	1	0	1	0	40.6981613069757	0
3.62	40.7924308148005	0	1	0	1	0	40.7924308148005	0
3.63	40.8872842875627	0	1	0	1	0	40.8872842875627	0
3.64	40.9827199519361	0	1	0	1	0	40.9827199519361	0
3.65	41.0787360540283	0	1	0	1	0	41.0787360540283	0
3.66	41.1753308591152	0	1	0	1	0	41.1753308591152	0
3.67	41.2725026513797	0	1	0	1	0	41.2725026513797	0
3.68	41.3702497336549	0	1	0	1	0	41.3702497336549	0
3.69	41.4685704271714	0	1	0	1	0	41.4685704271714	0
3.7	41.5674630713084	0	1	0	1	0	41.5674630713084	0
3.71	41.6669260233499	0	1	0	1	0	41.6669260233499	0
3.72	41.766957658243	0	1	0	1	0	41.766957658243	0
3.73	41.8675563683618	0	1	0	1	0	41.8675563683618	0
3.74	41.9687205632745	0	1	0	1	0	41.9687205632745	0
3.75	42.0704486695136	0	1	0	1	0	42.0704486695136	0
3.76	42.1727391303508	0	1	0	1	0	42.1727391303508	0
3.77	42.2755904055746	0	1	0	1	0	42.2755904055746	0
3.78	42.3790009712722	0	1	0	1	0	42.3790009712722	0
3.79	42.4829693196144	0	1	0	1	0	42.4829693196144	0
3.8	42.5874939586436	0	1	0	1	0	42.5874939586436	0
3.81	42.6925734120661	0	1	0	1	0	42.6925734120661	0
3.82	42.7982062190467	0	1	0	1	0	42.7982062190467	0
3.83	42.9043909340067	0	1	0	1	0	42.9043909340067	0
3.84	43.0111261264258	0	1	0	1	0	43.0111261264258	0
3.85	43.1184103806463	0	1	0	1	0	43.1184103806463	0
3.86	43.2262422956802	0	1	0	1	0	43.2262422956802	0
3.87	43.3346204850202	0	1	0	1	0	43.3346204850202	0
3.88	43.443543576453	0	1	0	1	0	43.443543576453	0
3.89	43.5530102118753	0	1	0	1	0	43.5530102118753	0
3.9	43.663019047113	0	1	0	1	0	43.663019047113	0
3.91	43.7735687517434	0	1	0	1	0	43.7735687517434	0
3.92	43.8846580089193	0	1	0	1	0	43.8846580089193	0
3.93	43.9962855151966	0	1	0	1	0	43.9962855151966	0
3.94	44.1084499803642	0	1	0	1	0	44.1084499803642	0
3.95	44.2211501272764	0	1	0	1	0	44.2211501272764	0
3.96	44.3343846916879	0	1	0	1	0	44.3343846916879	0
3.97	44.4481524220913	0	1	0	1	0	44.4481524220913	0
3.98	44.5624520795575	0	1	0	1	0	44.5624520795575	0
3.99	44.6772824375774	0	1	0	1	0	44.6772824375774	0
4	44.7926422819072	0	1	0	1	0	44.7926422819072	0
4.01	44.9085304104151	0	1	0	1	0	44.9085304104151	0
4.02	45.024945632931	0	1	0	1	0	45.024945632931	0
4.03	45.1418867710977	0	1	0	1	0	45.1418867710977	0
4.04	45.259352658225	0	1	0	1	0	45.259352658225	0
4.05	45.3773421391456	0	1	0	1	0	45.3773421391456	0
4.06	45.4958540700731	0	1	0	1	0	45.4958540700731	0
4.07	45.6148873184623	0	1	0	1	0	45.6148873184623	0
4.08	45.7344407628713	0	1	0	1	0	45.7344407628713	0
4.09	45.8545132928259	0	1	0	1	0	45.8545132928259	0
4.1	45.9751038086859	0	1	0	1	0	45.9751038086859	0
4.11	46.0962112215129	0	1	0	1	0	46.0962112215129	0
4.12	46.2178344529411	0	1	0	1	0	46.2178344529411	0
4.13	46.3399724350485	0	1	0	1	0	46.3399724350485	0
4.14	46.4626241102316	0	1	0	1	0	46.4626241102316	0
4.15	46.5857884310805	0	1	0	1	0	46.5857884310805	0
4.16	46.7094643602563	0	1	0	1	0	46.7094643602563	0
4.17	46.8336508703711	0	1	0	1	0	46.8336508703711	0
4.18	46.958346943868	0	1	0	1	0	46.958346943868	0
4.19	47.0835515729044	0	1	0	1	0	47.0835515729044	0
4.2	47.2092637592364	0	1	0	1	0	47.2092637592364	0
4.21	47.3354825141044	0	1	0	1	0	47.3354825141044	0
4.22	47.4622068581208	0	1	0	1	0	47.4622068581208	0
4.23	47.5894358211597	0	1	0	1	0	47.5894358211597	0
4.24	47.7171684422471	0	1	0	1	0	47.7171684422471	0
4.25	47.8454037694534	0	1	0	1	0	47.8454037694534	0
4.26	47.9741408597875	0	1	0	1	0	47.9741408597875	0
4.27	48.1033787790919	0	1	0	1	0	48.1033787790919	0
4.28	48.2331166019394	0	1	0	1	0	48.2331166019394	0
4.29	48.3633534115317	0	1	0	1	0	48.3633534115317	0
4.3	48.4940882995986	0	1	0	1	0	48.4940882995986	0
4.31	48.6253203662995	0	1	0	1	0	48.6253203662995	0
4.32	48.7570487201257	0	1	0	1	0	48.7570487201257	0
4.33	48.889272477804	0	1	0	1	0	48.889272477804	0
4.34	49.0219907642021	0	1	0	1	0	49.0219907642021	0
4.35	49.1552027122348	0	1	0	1	0	49.1552027122348	0
4.36	49.2889074627718	0	1	0	1	0	49.2889074627718	0
4.37	49.4231041645468	0	1	0	1	0	49.4231041645468	0
4.38	49.5577919740674	0	1	0	1	0	49.5577919740674	0
4.39	49.6929700555272	0	1	0	1	0	49.6929700555272	0
4.4	49.8286375807176	0	1	0	1	0	49.8286375807176	0
4.41	49.9647937289422	0	1	0	1	0	49.9647937289422	0
4.42	50.1014376869319	0	1	0	1	0	50.1014376869319	0
4.43	50.2385686487608	0	1	0	1	0	50.2385686487608	0
4.44	50.3761858157635	0	1	0	1	0	50.3761858157635	0
4.45	50.5142883964538	0	1	0	1	0	50.5142883964538	0
4.46	50.6528756064437	0	1	0	1	0	50.6528756064437	0
4.47	50.7919466683647	0	1	0	1	0	50.7919466683647	0
4.48	50.9315008117889	0	1	0	1	0	50.9315008117889	0
4.49	51.071537273152	0	1	0	1	0	51.071537273152	0
4.5	51.2120552956767	0	1	0	1	0	51.2120552956767	0
4.51	51.3530541292981	0	1	0	1	0	51.3530541292981	0
4.52	51.4945330305886	0	1	0	1	0	51.4945330305886	0
4.53	51.6364912626854	0	1	0	1	0	51.6364912626854	0
4.54	51.7789280952178	0	1	0	1	0	51.7789280952178	0
4.55	51.9218428042359	0	1	0	1	0	51.9218428042359	0
4.56	52.0652346721402	0	1	0	1	0	52.0652346721402	0
4.57	52.2091029876122	0	1	0	1	0	52.2091029876122	0
4.58	52.3534470455459	0	1	0	1	0	52.3534470455459	0
4.59	52.4982661469798	0	1	0	1	0	52.4982661469798	0
4.6	52.6435595990306	0	1	0	1	0	52.6435595990306	0
4.61	52.7893267148267	0	1	0	1	0	52.7893267148267	0
4.62	52.9355668134436	0	1	0	1	0	52.9355668134436	0
4.63	53.0822792198396	0	1	0	1	0	53.0822792198396	0
4.64	53.2294632647922	0	1	0	1	0	53.2294632647922	0
4.65	53.3771182848356	0	1	0	1	0	53.3771182848356	0
4.66	53.5252436221991	0	1	0	1	0	53.5252436221991	0
4.67	53.673838624746	0	1	0	1	0	53.673838624746	0
4.68	53.8229026459134	0	1	0	1	0	53.8229026459134	0
4.69	53.9724350446528	0	1	0	1	0	53.9724350446528	0
4.7	54.1224351853714	0	1	0	1	0	54.1224351853714	0
4.71	54.2729024378742	0	1	0	1	0	54.2729024378742	0
4.72	54.4238361773069	0	1	0	1	0	54.4238361773069	0
4.73	54.5752357840994	0	1	0	1	0	54.5752357840994	0
4.74	54.7271006439099	0	1	0	1	0	54.7271006439099	0
4.75	54.8794301475702	0	1	0	1	0	54.8794301475702	0
4.76	55.032223691031	0	1	0	1	0	55.032223691031	0
4.77	55.1854806753085	0	1	0	1	0	55.1854806753085	0
4.78	55.3392005064312	0	1	0	1	0	55.3392005064312	0
4.79	55.4933825953878	0	1	0	1	0	55.4933825953878	0
4.8	55.6480263580755	0	1	0	1	0	55.6480263580755	0
4.81	55.8031312152487	0	1	0	1	0	55.8031312152487	0
4.82	55.9586965924689	0	1	0	1	0	55.9586965924689	0
4.83	56.114721920055	0	1	0	1	0	56.114721920055	0
4.84	56.2712066330338	0	1	0	1	0	56.2712066330338	0
4.85	56.4281501710917	0	1	0	1	0	56.4281501710917	0
4.86	56.5855519785269	0	1	0	1	0	56.5855519785269	0
4.87	56.7434115042018	0	1	0	1	0	56.7434115042018	0
4.88	56.9017282014962	0	1	0	1	0	56.9017282014962	0
4.89	57.0605015282613	0	1	0	1	0	57.0605015282613	0
4.9	57.2197309467742	0	1	0	1	0	57.2197309467742	0
4.91	57.3794159236923	0	1	0	1	0	57.3794159236923	0
4.92	57.5395559300095	0	1	0	1	0	57.5395559300095	0
4.93	57.7001504410114	0	1	0	1	0	57.7001504410114	0
