# GHZ S RI R 50
1	59.1205609324268	0	1	0	1	0	59.1205609324268	0
1.01	58.6340590813572	0	1	0	1	0	58.6340590813572	0
1.02	58.1581208713004	0	1	0	1	0	58.1581208713004	0
1.03	57.6924486673869	0	1	0	1	0	57.6924486673869	0
1.04	57.2367562822425	0	1	0	1	0	57.2367562822425	0
1.05	56.7907684308689	0	1	0	1	0	56.7907684308689	0
1.06	56.354220216381	0	1	0	1	0	56.354220216381	0
1.07	55.9268566445812	0	1	0	1	0	55.9268566445812	0
1.08	55.5084321655011	0	1	0	1	0	55.5084321655011	0
1.09	55.0987102401806	0	1	0	1	0	55.0987102401806	0
1.1	54.6974629310762	0	1	0	1	0	54.6974629310762	0
1.11	54.30447051461	0	1	0	1	0	54.30447051461	0
1.12	53.9195211144747	0	1	0	1	0	53.9195211144747	0
1.13	53.5424103544091	0	1	0	1	0	53.5424103544091	0
1.14	53.1729410292493	0	1	0	1	0	53.1729410292493	0
1.15	52.810922793141	0	1	0	1	0	52.810922793141	0
1.16	52.4561718638804	0	1	0	1	0	52.4561718638804	0
1.17	52.1085107424158	0	1	0	1	0	52.1085107424158	0
1.18	51.7677679466125	0	1	0	1	0	51.7677679466125	0
1.19	51.4337777584411	0	1	0	1	0	51.4337777584411	0
1.2	51.1063799838068	0	1	0	1	0	51.1063799838068	0
1.21	50.785419724287	0	1	0	1	0	50.785419724287	0
1.22	50.4707471600961	0	1	0	1	0	50.4707471600961	0
1.23	50.1622173436367	0	1	0	1	0	50.1622173436367	0
1.24	49.8596900030402	0	1	0	1	0	49.8596900030402	0
1.25	49.5630293551379	0	1	0	1	0	49.5630293551379	0
1.26	49.2721039273378	0	1	0	1	0	49.2721039273378	0
1.27	48.986786387917	0	1	0	1	0	48.986786387917	0
1.28	48.706953384269	0	1	0	1	0	48.706953384269	0
1.29	48.4324853886742	0	1	0	1	0	48.4324853886742	0
1.3	48.163266551189	0	1	0	1	0	48.163266551189	0
1.31	47.8991845592727	0	1	0	1	0	47.8991845592727	0
1.32	47.640130503795	0	1	0	1	0	47.640130503795	0
1.33	47.385998751088	0	1	0	1	0	47.385998751088	0
1.34	47.1366868207278	0	1	0	1	0	47.1366868207278	0
1.35	46.8920952687473	0	1	0	1	0	46.8920952687473	0
1.36	46.6521275760021	0	1	0	1	0	46.6521275760021	0
1.37	46.416690041425	0	1	0	1	0	46.416690041425	0
1.38	46.1856916799218	0	1	0	1	0	46.1856916799218	0
1.39	45.9590441246742	0	1	0	1	0	45.9590441246742	0
1.4	45.7366615336304	0	1	0	1	0	45.7366615336304	0
1.41	45.5184604999739	0	1	0	1	0	45.5184604999739	0
1.42	45.3043599663761	0	1	0	1	0	45.3043599663761	0
1.43	45.0942811428463	0	1	0	1	0	45.0942811428463	0
1.44	44.8881474280044	0	1	0	1	0	44.8881474280044	0
1.45	44.6858843336122	0	1	0	1	0	44.6858843336122	0
1.46	44.4874194122049	0	1	0	1	0	44.4874194122049	0
1.47	44.2926821876773	0	1	0	1	0	44.2926821876773	0
1.48	44.1016040886839	0	1	0	1	0	44.1016040886839	0
1.49	43.9141183847205	0	1	0	1	0	43.9141183847205	0
1.5	43.7301601247633	0	1	0	1	0	43.7301601247633	0
1.51	43.5496660783453	0	1	0	1	0	43.5496660783453	0
1.52	43.3725746789589	0	1	0	1	0	43.3725746789589	0
1.53	43.1988259696789	0	1	0	1	0	43.1988259696789	0
1.54	43.0283615509023	0	1	0	1	0	43.0283615509023	0
1.55	42.861124530113	0	1	0	1	0	42.861124530113	0
1.56	42.6970594735773	0	1	0	1	0	42.6970594735773	0
1.57	42.5361123598858	0	1	0	1	0	42.5361123598858	0
1.58	42.3782305352598	0	1	0	1	0	42.3782305352598	0
1.59	42.223362670544	0	1	0	1	0	42.223362670544	0
1.6	42.0714587198119	0	1	0	1	0	42.0714587198119	0
1.61	41.9224698805141	0	1	0	1	0	41.9224698805141	0
1.62	41.7763485551024	0	1	0	1	0	41.7763485551024	0
1.63	41.6330483140666	0	1	0	1	0	41.6330483140666	0
1.64	41.4925238603236	0	1	0	1	0	41.4925238603236	0
1.65	41.3547309949014	0	1	0	1	0	41.3547309949014	0
1.66	41.2196265838634	0	1	0	1	0	41.2196265838634	0
1.67	41.0871685264214	0	1	0	1	0	41.0871685264214	0
1.68	40.9573157241866	0	1	0	1	0	40.9573157241866	0
1.69	40.8300280515133	0	1	0	1	0	40.8300280515133	0
1.7	40.7052663268887	0	1	0	1	0	40.7052663268887	0
1.71	40.5829922853265	0	1	0	1	0	40.5829922853265	0
1.72	40.4631685517239	0	1	0	1	0	40.4631685517239	0
1.73	40.3457586151422	0	1	0	1	0	40.3457586151422	0
1.74	40.2307268039747	0	1	0	1	0	40.2307268039747	0
1.75	40.1180382619658	0	1	0	1	0	40.1180382619658	0
1.76	40.0076589250474	0	1	0	1	0	40.0076589250474	0
1.77	39.8995554989608	0	1	0	1	0	39.8995554989608	0
1.78	39.7936954376331	0	1	0	1	0	39.7936954376331	0
1.79	39.6900469222777	0	1	0	1	0	39.6900469222777	0
1.8	39.5885788411924	0	1	0	1	0	39.5885788411924	0
1.81	39.4892607702262	0	1	0	1	0	39.4892607702262	0
1.82	39.3920629538908	0	1	0	1	0	39.3920629538908	0
1.83	39.2969562870913	0	1	0	1	0	39.2969562870913	0
1.84	39.203912297452	0	1	0	1	0	39.203912297452	0
1.85	39.1129031282162	0	1	0	1	0	39.1129031282162	0
1.86	39.0239015216973	0	1	0	1	0	39.0239015216973	0
1.87	38.9368808032608	0	1	0	1	0	38.9368808032608	0
1.88	38.8518148658176	0	1	0	1	0	38.8518148658176	0
1.89	38.7686781548096	0	1	0	1	0	38.7686781548096	0
1.9	38.6874456536694	0	1	0	1	0	38.6874456536694	0
1.91	38.6080928697366	0	1	0	1	0	38.6080928697366	0
1.92	38.5305958206149	0	1	0	1	0	38.5305958206149	0
1.93	38.4549310209523	0	1	0	1	0	38.4549310209523	0
1.94	38.3810754696307	0	1	0	1	0	38.3810754696307	0
1.95	38.3090066373501	0	1	0	1	0	38.3090066373501	0
1.96	38.2387024545919	0	1	0	1	0	38.2387024545919	0
1.97	38.1701412999497	0	1	0	1	0	38.1701412999497	0
1.98	38.1033019888132	0	1	0	1	0	38.1033019888132	0
1.99	38.0381637623933	0	1	0	1	0	38.0381637623933	0
2	37.9747062770766	0	1	0	1	0	37.9747062770766	0
2.01	37.9129095940981	0	1	0	1	0	37.9129095940981	0
2.02	37.8527541695195	0	1	0	1	0	37.8527541695195	0
2.03	37.7942208445047	0	1	0	1	0	37.7942208445047	0
2.04	37.7372908358814	0	1	0	1	0	37.7372908358814	0
2.05	37.6819457269778	0	1	0	1	0	37.6819457269778	0
2.06	37.6281674587276	0	1	0	1	0	37.6281674587276	0
2.07	37.5759383210321	0	1	0	1	0	37.5759383210321	0
2.08	37.5252409443712	0	1	0	1	0	37.5252409443712	0
2.09	37.4760582916557	0	1	0	1	0	37.4760582916557	0
2.1	37.4283736503128	0	1	0	1	0	37.4283736503128	0
2.11	37.3821706245953	0	1	0	1	0	37.3821706245953	0
2.12	37.3374331281101	0	1	0	1	0	37.3374331281101	0
2.13	37.2941453765555	0	1	0	1	0	37.2941453765555	0
2.14	37.252291880664	0	1	0	1	0	37.252291880664	0
2.15	37.2118574393402	0	1	0	1	0	37.2118574393402	0
2.16	37.1728271329906	0	1	0	1	0	37.1728271329906	0
2.17	37.1351863170371	0	1	0	1	0	37.1351863170371	0
2.18	37.0989206156096	0	1	0	1	0	37.0989206156096	0
2.19	37.064015915411	0	1	0	1	0	37.064015915411	0
2.2	37.0304583597494	0	1	0	1	0	37.0304583597494	0
2.21	36.998234342733	0	1	0	1	0	36.998234342733	0
2.22	36.9673305036211	0	1	0	1	0	36.9673305036211	0
2.23	36.9377337213273	0	1	0	1	0	36.9377337213273	0
2.24	36.9094311090708	0	1	0	1	0	36.9094311090708	0
2.25	36.8824100091688	0	1	0	1	0	36.8824100091688	0
2.26	36.8566579879682	0	1	0	1	0	36.8566579879682	0
2.27	36.8321628309114	0	1	0	1	0	36.8321628309114	0
2.28	36.8089125377311	0	1	0	1	0	36.8089125377311	0
2.29	36.7868953177718	0	1	0	1	0	36.7868953177718	0
2.3	36.7660995854326	0	1	0	1	0	36.7660995854326	0
2.31	36.7465139557294	0	1	0	1	0	36.7465139557294	0
2.32	36.7281272399706	0	1	0	1	0	36.7281272399706	0
2.33	36.7109284415454	0	1	0	1	0	36.7109284415454	0
2.34	36.6949067518193	0	1	0	1	0	36.6949067518193	0
2.35	36.6800515461342	0	1	0	1	0	36.6800515461342	0
2.36	36.6663523799113	0	1	0	1	0	36.6663523799113	0
2.37	36.6537989848515	0	1	0	1	0	36.6537989848515	0
2.38	36.6423812652321	0	1	0	1	0	36.6423812652321	0
2.39	36.6320892942965	0	1	0	1	0	36.6320892942965	0
2.4	36.622913310734	0	1	0	1	0	36.622913310734	0
2.41	36.6148437152476	0	1	0	1	0	36.6148437152476	0
2.42	36.607871067206	0	1	0	1	0	36.607871067206	0
2.43	36.6019860813795	0	1	0	1	0	36.6019860813795	0
2.44	36.5971796247551	0	1	0	1	0	36.5971796247551	0
2.45	36.5934427134304	0	1	0	1	0	36.5934427134304	0
2.46	36.5907665095827	0	1	0	1	0	36.5907665095827	0
2.47	36.5891423185117	0	1	0	1	0	36.5891423185117	0
2.48	36.5885615857544	0	1	0	1	0	36.5885615857544	0
2.49	36.5890158942689	0	1	0	1	0	36.5890158942689	0
2.5	36.590496961686	0	1	0	1	0	36.590496961686	0
2.51	36.5929966376262	0	1	0	1	0	36.5929966376262	0
2.52	36.5965069010813	0	1	0	1	0	36.5965069010813	0
2.53	36.6010198578576	0	1	0	1	0	36.6010198578576	0
2.54	36.6065277380791	0	1	0	1	0	36.6065277380791	0
2.55	36.6130228937504	0	1	0	1	0	36.6130228937504	0
2.56	36.6204977963759	0	1	0	1	0	36.6204977963759	0
2.57	36.6289450346352	0	1	0	1	0	36.6289450346352	0
2.58	36.638357312112	0	1	0	1	0	36.638357312112	0
2.59	36.648727445076	0	1	0	1	0	36.648727445076	0
2.6	36.6600483603157	0	1	0	1	0	36.6600483603157	0
2.61	36.6723130930215	0	1	0	1	0	36.6723130930215	0
2.62	36.6855147847165	0	1	0	1	0	36.6855147847165	0
2.63	36.6996466812357	0	1	0	1	0	36.6996466812357	0
2.64	36.7147021307494	0	1	0	1	0	36.7147021307494	0
2.65	36.7306745818332	0	1	0	1	0	36.7306745818332	0
2.66	36.7475575815803	0	1	0	1	0	36.7475575815803	0
2.67	36.7653447737566	0	1	0	1	0	36.7653447737566	0
2.68	36.7840298969973	0	1	0	1	0	36.7840298969973	0
2.69	36.8036067830432	0	1	0	1	0	36.8036067830432	0
2.7	36.8240693550168	0	1	0	1	0	36.8240693550168	0
2.71	36.8454116257364	0	1	0	1	0	36.8454116257364	0
2.72	36.8676276960668	0	1	0	1	0	36.8676276960668	0
2.73	36.8907117533071	0	1	0	1	0	36.8907117533071	0
2.74	36.9146580696135	0	1	0	1	0	36.9146580696135	0
2.75	36.9394610004561	0	1	0	1	0	36.9394610004561	0
2.76	36.9651149831099	0	1	0	1	0	36.9651149831099	0
2.77	36.9916145351779	0	1	0	1	0	36.9916145351779	0
2.78	37.0189542531468	0	1	0	1	0	37.0189542531468	0
2.79	37.0471288109727	0	1	0	1	0	37.0471288109727	0
2.8	37.0761329586982	0	1	0	1	0	37.0761329586982	0
2.81	37.1059615210985	0	1	0	1	0	37.1059615210985	0
2.82	37.1366093963561	0	1	0	1	0	37.1366093963561	0
2.83	37.1680715547639	0	1	0	1	0	37.1680715547639	0
2.84	37.200343037456	0	1	0	1	0	37.200343037456	0
2.85	37.2334189551644	0	1	0	1	0	37.2334189551644	0
2.86	37.2672944870026	0	1	0	1	0	37.2672944870026	0
2.87	37.3019648792741	0	1	0	1	0	37.3019648792741	0
2.88	37.3374254443059	0	1	0	1	0	37.3374254443059	0
2.89	37.3736715593065	0	1	0	1	0	37.3736715593065	0
2.9	37.4106986652468	0	1	0	1	0	37.4106986652468	0
2.91	37.4485022657648	0	1	0	1	0	37.4485022657648	0
2.92	37.4870779260928	0	1	0	1	0	37.4870779260928	0
2.93	37.5264212720055	0	1	0	1	0	37.5264212720055	0
2.94	37.5665279887913	0	1	0	1	0	37.5665279887913	0
2.95	37.607393820243	0	1	0	1	0	37.607393820243	0
2.96	37.6490145676697	0	1	0	1	0	37.6490145676697	0
2.97	37.6913860889285	0	1	0	1	0	37.6913860889285	0
2.98	37.7345042974758	0	1	0	1	0	37.7345042974758	0
2.99	37.7783651614375	0	1	0	1	0	37.7783651614375	0
3	37.8229647026977	0	1	0	1	0	37.8229647026977	0
3.01	37.868298996006	0	1	0	1	0	37.868298996006	0
3.02	37.9143641681019	0	1	0	1	0	37.9143641681019	0
3.03	37.9611563968572	0	1	0	1	0	37.9611563968572	0
3.04	38.0086719104347	0	1	0	1	0	38.0086719104347	0
3.05	38.0569069864641	0	1	0	1	0	38.0569069864641	0
3.06	38.1058579512333	0	1	0	1	0	38.1058579512333	0
3.07	38.1555211788965	0	1	0	1	0	38.1555211788965	0
3.08	38.2058930906964	0	1	0	1	0	38.2058930906964	0
3.09	38.256970154203	0	1	0	1	0	38.256970154203	0
3.1	38.3087488825658	0	1	0	1	0	38.3087488825658	0
3.11	38.3612258337815	0	1	0	1	0	38.3612258337815	0
3.12	38.4143976099748	0	1	0	1	0	38.4143976099748	0
3.13	38.4682608566938	0	1	0	1	0	38.4682608566938	0
3.14	38.5228122622185	0	1	0	1	0	38.5228122622185	0
3.15	38.5780485568826	0	1	0	1	0	38.5780485568826	0
3.16	38.6339665124077	0	1	0	1	0	38.6339665124077	0
3.17	38.6905629412511	0	1	0	1	0	38.6905629412511	0
3.18	38.7478346959648	0	1	0	1	0	38.7478346959648	0
3.19	38.8057786685671	0	1	0	1	0	38.8057786685671	0
3.2	38.8643917899263	0	1	0	1	0	38.8643917899263	0
3.21	38.9236710291554	0	1	0	1	0	38.9236710291554	0
3.22	38.9836133930178	0	1	0	1	0	38.9836133930178	0
3.23	39.0442159253452	0	1	0	1	0	39.0442159253452	0
3.24	39.105475706465	0	1	0	1	0	39.105475706465	0
3.25	39.1673898526391	0	1	0	1	0	39.1673898526391	0
3.26	39.2299555155129	0	1	0	1	0	39.2299555155129	0
3.27	39.2931698815736	0	1	0	1	0	39.2931698815736	0
3.28	39.3570301716199	0	1	0	1	0	39.3570301716199	0
3.29	39.42153364024	0	1	0	1	0	39.42153364024	0
3.3	39.4866775753	0	1	0	1	0	39.4866775753	0
3.31	39.5524592974408	0	1	0	1	0	39.5524592974408	0
3.32	39.6188761595849	0	1	0	1	0	39.6188761595849	0
3.33	39.6859255464515	0	1	0	1	0	39.6859255464515	0
3.34	39.7536048740805	0	1	0	1	0	39.7536048740805	0
3.35	39.821911589365	0	1	0	1	0	39.821911589365	0
3.36	39.8908431695924	0	1	0	1	0	39.8908431695924	0
3.37	39.9603971219931	0	1	0	1	0	39.9603971219931	0
3.38	40.0305709832978	0	1	0	1	0	40.0305709832978	0
3.39	40.1013623193024	0	1	0	1	0	40.1013623193024	0
3.4	40.1727687244403	0	1	0	1	0	40.1727687244403	0
3.41	40.2447878213629	0	1	0	1	0	40.2447878213629	0
3.42	40.3174172605267	0	1	0	1	0	40.3174172605267	0
3.43	40.3906547197882	0	1	0	1	0	40.3906547197882	0
3.44	40.4644979040055	0	1	0	1	0	40.4644979040055	0
3.45	40.5389445446472	0	1	0	1	0	40.5389445446472	0
3.46	40.6139923994076	0	1	0	1	0	40.6139923994076	0
3.47	40.6896392518288	0	1	0	1	0	40.6896392518288	0
3.48	40.7658829109295	0	1	0	1	0	40.7658829109295	0
3.49	40.84272121084	0	1	0	1	0	40.84272121084	0
3.5	40.9201520104433	0	1	0	1	0	40.9201520104433	0
3.51	40.9981731930228	0	1	0	1	0	40.9981731930228	0
3.52	41.0767826659152	0	1	0	1	0	41.0767826659152	0
3.53	41.1559783601702	0	1	0	1	0	41.1559783601702	0
3.54	41.2357582302156	0	1	0	1	0	41.2357582302156	0
3.55	41.3161202535278	0	1	0	1	0	41.3161202535278	0
3.56	41.3970624303082	0	1	0	1	0	41.3970624303082	0
3.57	41.4785827831649	0	1	0	1	0	41.4785827831649	0
3.58	41.5606793567997	0	1	0	1	0	41.5606793567997	0
3.59	41.6433502177006	0	1	0	1	0	41.6433502177006	0
3.6	41.7265934538389	0	1	0	1	0	41.7265934538389	0
3.61	41.810407174372	0	1	0	1	0	41.810407174372	0
3.62	41.8947895093504	0	1	0	1	0	41.8947895093504	0
3.63	41.9797386094302	0	1	0	1	0	41.9797386094302	0
3.64	42.0652526455901	0	1	0	1	0	42.0652526455901	0
3.65	42.1513298088525	0	1	0	1	0	42.1513298088525	0
3.66	42.2379683100103	0	1	0	1	0	42.2379683100103	0
3.67	42.3251663793574	0	1	0	1	0	42.3251663793574	0
3.68	42.4129222664234	0	1	0	1	0	42.4129222664234	0
3.69	42.5012342397133	0	1	0	1	0	42.5012342397133	0
3.7	42.5901005864509	0	1	0	1	0	42.5901005864509	0
3.71	42.6795196123268	0	1	0	1	0	42.6795196123268	0
3.72	42.7694896412496	0	1	0	1	0	42.7694896412496	0
3.73	42.8600090151025	0	1	0	1	0	42.8600090151025	0
3.74	42.9510760935023	0	1	0	1	0	42.9510760935023	0
3.75	43.0426892535632	0	1	0	1	0	43.0426892535632	0
3.76	43.1348468896643	0	1	0	1	0	43.1348468896643	0
3.77	43.2275474132203	0	1	0	1	0	43.2275474132203	0
3.78	43.3207892524566	0	1	0	1	0	43.3207892524566	0
3.79	43.4145708521869	0	1	0	1	0	43.4145708521869	0
3.8	43.5088906735954	0	1	0	1	0	43.5088906735954	0
3.81	43.6037471940221	0	1	0	1	0	43.6037471940221	0
3.82	43.6991389067508	0	1	0	1	0	43.6991389067508	0
3.83	43.7950643208013	0	1	0	1	0	43.7950643208013	0
3.84	43.8915219607244	0	1	0	1	0	43.8915219607244	0
3.85	43.9885103664004	0	1	0	1	0	43.9885103664004	0
3.86	44.0860280928402	0	1	0	1	0	44.0860280928402	0
3.87	44.1840737099901	0	1	0	1	0	44.1840737099901	0
3.88	44.2826458025393	0	1	0	1	0	44.2826458025393	0
3.89	44.38174296973	0	1	0	1	0	44.38174296973	0
3.9	44.4813638251715	0	1	0	1	0	44.4813638251715	0
3.91	44.581506996656	0	1	0	1	0	44.581506996656	0
3.92	44.6821711259777	0	1	0	1	0	44.6821711259777	0
3.93	44.783354868755	0	1	0	1	0	44.783354868755	0
3.94	44.8850568942546	0	1	0	1	0	44.8850568942546	0
3.95	44.9872758852193	0	1	0	1	0	44.9872758852193	0
3.96	45.0900105376971	0	1	0	1	0	45.0900105376971	0
3.97	45.1932595608744	0	1	0	1	0	45.1932595608744	0
3.98	45.2970216769105	0	1	0	1	0	45.2970216769105	0
3.99	45.4012956207752	0	1	0	1	0	45.4012956207752	0
4	45.5060801400884	0	1	0	1	0	45.5060801400884	0
4.01	45.6113739949627	0	1	0	1	0	45.6113739949627	0
4.02	45.7171759578479	0	1	0	1	0	45.7171759578479	0
4.03	45.823484813378	0	1	0	1	0	45.823484813378	0
4.04	45.9302993582202	0	1	0	1	0	45.9302993582202	0
4.05	46.0376184009264	0	1	0	1	0	46.0376184009264	0
4.06	46.1454407617871	0	1	0	1	0	46.1454407617871	0
4.07	46.2537652726868	0	1	0	1	0	46.2537652726868	0
4.08	46.3625907769624	0	1	0	1	0	46.3625907769624	0
4.09	46.4719161292626	0	1	0	1	0	46.4719161292626	0
4.1	46.5817401954103	0	1	0	1	0	46.5817401954103	0
4.11	46.6920618522668	0	1	0	1	0	46.6920618522668	0
4.12	46.8028799875976	0	1	0	1	0	46.8028799875976	0
4.13	46.9141934999404	0	1	0	1	0	46.9141934999404	0
4.14	47.026001298475	0	1	0	1	0	47.026001298475	0
4.15	47.1383023028952	0	1	0	1	0	47.1383023028952	0
4.16	47.2510954432824	0	1	0	1	0	47.2510954432824	0
4.17	47.3643796599808	0	1	0	1	0	47.3643796599808	0
4.18	47.4781539034752	0	1	0	1	0	47.4781539034752	0
4.19	47.5924171342693	0	1	0	1	0	47.5924171342693	0
4.2	47.707168322767	0	1	0	1	0	47.707168322767	0
4.21	47.8224064491544	0	1	0	1	0	47.8224064491544	0
4.22	47.9381305032842	0	1	0	1	0	47.9381305032842	0
4.23	48.0543394845614	0	1	0	1	0	48.0543394845614	0
4.24	48.1710324018303	0	1	0	1	0	48.1710324018303	0
4.25	48.2882082732639	0	1	0	1	0	48.2882082732639	0
4.26	48.4058661262544	0	1	0	1	0	48.4058661262544	0
4.27	48.5240049973047	0	1	0	1	0	48.5240049973047	0
4.28	48.6426239319227	0	1	0	1	0	48.6426239319227	0
4.29	48.7617219845158	0	1	0	1	0	48.7617219845158	0
4.3	48.8812982182877	0	1	0	1	0	48.8812982182877	0
4.31	49.0013517051361	0	1	0	1	0	49.0013517051361	0
4.32	49.1218815255524	0	1	0	1	0	49.1218815255524	0
4.33	49.2428867685223	0	1	0	1	0	49.2428867685223	0
4.34	49.3643665314279	0	1	0	1	0	49.3643665314279	0
4.35	49.4863199199512	0	1	0	1	0	49.4863199199512	0
4.36	49.6087460479791	0	1	0	1	0	49.6087460479791	0
4.37	49.7316440375092	0	1	0	1	0	49.7316440375092	0
4.38	49.8550130185575	0	1	0	1	0	49.8550130185575	0
4.39	49.9788521290668	0	1	0	1	0	49.9788521290668	0
4.4	50.1031605148171	0	1	0	1	0	50.1031605148171	0
4.41	50.2279373293361	0	1	0	1	0	50.2279373293361	0
4.42	50.353181733812	0	1	0	1	0	50.353181733812	0
4.43	50.478892897007	0	1	0	1	0	50.478892897007	0
4.44	50.6050699951718	0	1	0	1	0	50.6050699951718	0
4.45	50.7317122119617	0	1	0	1	0	50.7317122119617	0
4.46	50.8588187383535	0	1	0	1	0	50.8588187383535	0
4.47	50.9863887725633	0	1	0	1	0	50.9863887725633	0
4.48	51.1144215199664	0	1	0	1	0	51.1144215199664	0
4.49	51.2429161930169	0	1	0	1	0	51.2429161930169	0
4.5	51.3718720111693	0	1	0	1	0	51.3718720111693	0
4.51	51.5012882008011	0	1	0	1	0	51.5012882008011	0
4.52	51.6311639951357	0	1	0	1	0	51.6311639951357	0
4.53	51.7614986341675	0	1	0	1	0	51.7614986341675	0
4.54	51.8922913645867	0	1	0	1	0	51.8922913645867	0
4.55	52.0235414397062	0	1	0	1	0	52.0235414397062	0
4.56	52.1552481193887	0	1	0	1	0	52.1552481193887	0
4.57	52.287410669975	0	1	0	1	0	52.287410669975	0
4.58	52.4200283642138	0	1	0	1	0	52.4200283642138	0
4.59	52.553100481191	0	1	0	1	0	52.553100481191	0
4.6	52.6866263062617	0	1	0	1	0	52.6866263062617	0
4.61	52.8206051309816	0	1	0	1	0	52.8206051309816	0
4.62	52.9550362530403	0	1	0	1	0	52.9550362530403	0
4.63	53.0899189761947	0	1	0	1	0	53.0899189761947	0
4.64	53.2252526102038	0	1	0	1	0	53.2252526102038	0
4.65	53.3610364707644	0	1	0	1	0	53.3610364707644	0
4.66	53.4972698794469	0	1	0	1	0	53.4972698794469	0
4.67	53.6339521636327	0	1	0	1	0	53.6339521636327	0
4.68	53.7710826564522	0	1	0	1	0	53.7710826564522	0
4.69	53.9086606967232	0	1	0	1	0	53.9086606967232	0
4.7	54.0466856288907	0	1	0	1	0	54.0466856288907	0
4.71	54.1851568029671	0	1	0	1	0	54.1851568029671	0
4.72	54.3240735744731	0	1	0	1	0	54.3240735744731	0
4.73	54.4634353043794	0	1	0	1	0	54.4634353043794	0
4.74	54.6032413590496	0	1	0	1	0	54.6032413590496	0
4.75	54.7434911101831	0	1	0	1	0	54.7434911101831	0
4.76	54.8841839347591	0	1	0	1	0	54.8841839347591	0
4.77	55.0253192149813	0	1	0	1	0	55.0253192149813	0
4.78	55.1668963382233	0	1	0	1	0	55.1668963382233	0
4.79	55.3089146969744	0	1	0	1	0	55.3089146969744	0
4.8	55.4513736887867	0	1	0	1	0	55.4513736887867	0
4.81	55.5942727162222	0	1	0	1	0	55.5942727162222	0
4.82	55.7376111868008	0	1	0	1	0	55.7376111868008	0
4.83	55.8813885129492	0	1	0	1	0	55.8813885129492	0
4.84	56.02560411195	0	1	0	1	0	56.02560411195	0
4.85	56.1702574058918	0	1	0	1	0	56.1702574058918	0
4.86	56.3153478216195	0	1	0	1	0	56.3153478216195	0
4.87	56.4608747906859	0	1	0	1	0	56.4608747906859	0
4.88	56.6068377493029	0	1	0	1	0	56.6068377493029	0
4.89	56.7532361382943	0	1	0	1	0	56.7532361382943	0
4.9	56.9000694030487	0	1	0	1	0	56.9000694030487	0
4.91	57.0473369934729	0	1	0	1	0	57.0473369934729	0
4.92	57.1950383639457	0	1	0	1	0	57.1950383639457	0
4.93	57.3431729732734	0	1	0	1	0	57.3431729732734	0
