# GHZ S RI R 50
1	61.1966437923923	0	1	0	1	0	61.1966437923923	0
1.01	60.6787357065743	0	1	0	1	0	60.6787357065743	0
1.02	60.1722403659225	0	1	0	1	0	60.1722403659225	0
1.03	59.6768376918103	0	1	0	1	0	59.6768376918103	0
1.04	59.192219916328	0	1	0	1	0	59.192219916328	0
1.05	58.7180909960573	0	1	0	1	0	58.7180909960573	0
1.06	58.2541660590299	0	1	0	1	0	58.2541660590299	0
1.07	57.8001708826966	0	1	0	1	0	57.8001708826966	0
1.08	57.3558414008992	0	1	0	1	0	57.3558414008992	0
1.09	56.9209232379806	0	1	0	1	0	56.9209232379806	0
1.1	56.4951712683075	0	1	0	1	0	56.4951712683075	0
1.11	56.0783491996029	0	1	0	1	0	56.0783491996029	0
1.12	55.6702291785996	0	1	0	1	0	55.6702291785996	0
1.13	55.270591417633	0	1	0	1	0	55.270591417633	0
1.14	54.8792238408859	0	1	0	1	0	54.8792238408859	0
1.15	54.4959217490918	0	1	0	1	0	54.4959217490918	0
1.16	54.1204875015792	0	1	0	1	0	54.1204875015792	0
1.17	53.7527302146228	0	1	0	1	0	53.7527302146228	0
1.18	53.3924654751322	0	1	0	1	0	53.3924654751322	0
1.19	53.039515068776	0	1	0	1	0	53.039515068776	0
1.2	52.6937067217009	0	1	0	1	0	52.6937067217009	0
1.21	52.3548738550566	0	1	0	1	0	52.3548738550566	0
1.22	52.0228553515948	0	1	0	1	0	52.0228553515948	0
1.23	51.6974953336524	0	1	0	1	0	51.6974953336524	0
1.24	51.3786429518779	0	1	0	1	0	51.3786429518779	0
1.25	51.0661521840992	0	1	0	1	0	51.0661521840992	0
1.26	50.7598816437685	0	1	0	1	0	50.7598816437685	0
1.27	50.459694397458	0	1	0	1	0	50.459694397458	0
1.28	50.1654577909091	0	1	0	1	0	50.1654577909091	0
1.29	49.8770432831738	0	1	0	1	0	49.8770432831738	0
1.3	49.5943262884102	0	1	0	1	0	49.5943262884102	0
1.31	49.317186024924	0	1	0	1	0	49.317186024924	0
1.32	49.0455053710724	0	1	0	1	0	49.0455053710724	0
1.33	48.7791707276682	0	1	0	1	0	48.7791707276682	0
1.34	48.5180718865445	0	1	0	1	0	48.5180718865445	0
1.35	48.2621019049614	0	1	0	1	0	48.2621019049614	0
1.36	48.0111569855542	0	1	0	1	0	48.0111569855542	0
1.37	47.7651363615377	0	1	0	1	0	47.7651363615377	0
1.38	47.5239421869034	0	1	0	1	0	47.5239421869034	0
1.39	47.2874794313551	0	1	0	1	0	47.2874794313551	0
1.4	47.055655779748	0	1	0	1	0	47.055655779748	0
1.41	46.8283815358066	0	1	0	1	0	46.8283815358066	0
1.42	46.6055695299112	0	1	0	1	0	46.6055695299112	0
1.43	46.3871350307529	0	1	0	1	0	46.3871350307529	0
1.44	46.1729956606704	0	1	0	1	0	46.1729956606704	0
1.45	45.9630713144896	0	1	0	1	0	45.9630713144896	0
1.46	45.7572840816989	0	1	0	1	0	45.7572840816989	0
1.47	45.5555581718001	0	1	0	1	0	45.5555581718001	0
1.48	45.3578198426875	0	1	0	1	0	45.3578198426875	0
1.49	45.1639973319087	0	1	0	1	0	45.1639973319087	0
1.5	44.9740207906769	0	1	0	1	0	44.9740207906769	0
1.51	44.7878222205045	0	1	0	1	0	44.7878222205045	0
1.52	44.6053354123374	0	1	0	1	0	44.6053354123374	0
1.53	44.4264958880774	0	1	0	1	0	44.4264958880774	0
1.54	44.251240844382	0	1	0	1	0	44.251240844382	0
1.55	44.0795090986403	0	1	0	1	0	44.0795090986403	0
1.56	43.9112410370261	0	1	0	1	0	43.9112410370261	0
1.57	43.7463785645368	0	1	0	1	0	43.7463785645368	0
1.58	43.5848650569294	0	1	0	1	0	43.5848650569294	0
1.59	43.4266453144703	0	1	0	1	0	43.4266453144703	0
1.6	43.2716655174189	0	1	0	1	0	43.2716655174189	0
1.61	43.1198731831715	0	1	0	1	0	43.1198731831715	0
1.62	42.9712171249907	0	1	0	1	0	42.9712171249907	0
1.63	42.8256474122556	0	1	0	1	0	42.8256474122556	0
1.64	42.6831153321653	0	1	0	1	0	42.6831153321653	0
1.65	42.5435733528351	0	1	0	1	0	42.5435733528351	0
1.66	42.4069750877272	0	1	0	1	0	42.4069750877272	0
1.67	42.2732752613584	0	1	0	1	0	42.2732752613584	0
1.68	42.1424296762334	0	1	0	1	0	42.1424296762334	0
1.69	42.0143951809511	0	1	0	1	0	42.0143951809511	0
1.7	41.8891296394379	0	1	0	1	0	41.8891296394379	0
1.71	41.766591901259	0	1	0	1	0	41.766591901259	0
1.72	41.6467417729667	0	1	0	1	0	41.6467417729667	0
1.73	41.5295399904415	0	1	0	1	0	41.5295399904415	0
1.74	41.4149481921872	0	1	0	1	0	41.4149481921872	0
1.75	41.3029288935421	0	1	0	1	0	41.3029288935421	0
1.76	41.1934454617683	0	1	0	1	0	41.1934454617683	0
1.77	41.0864620919866	0	1	0	1	0	41.0864620919866	0
1.78	40.9819437839218	0	1	0	1	0	40.9819437839218	0
1.79	40.8798563194276	0	1	0	1	0	40.8798563194276	0
1.8	40.7801662407611	0	1	0	1	0	40.7801662407611	0
1.81	40.682840829577	0	1	0	1	0	40.682840829577	0
1.82	40.5878480866146	0	1	0	1	0	40.5878480866146	0
1.83	40.4951567120504	0	1	0	1	0	40.4951567120504	0
1.84	40.4047360864919	0	1	0	1	0	40.4047360864919	0
1.85	40.3165562525877	0	1	0	1	0	40.3165562525877	0
1.86	40.2305878972303	0	1	0	1	0	40.2305878972303	0
1.87	40.1468023343307	0	1	0	1	0	40.1468023343307	0
1.88	40.065171488142	0	1	0	1	0	40.065171488142	0
1.89	39.9856678771133	0	1	0	1	0	39.9856678771133	0
1.9	39.9082645982524	0	1	0	1	0	39.9082645982524	0
1.91	39.8329353119808	0	1	0	1	0	39.8329353119808	0
1.92	39.7596542274609	0	1	0	1	0	39.7596542274609	0
1.93	39.6883960883805	0	1	0	1	0	39.6883960883805	0
1.94	39.619136159176	0	1	0	1	0	39.619136159176	0
1.95	39.5518502116801	0	1	0	1	0	39.5518502116801	0
1.96	39.4865145121776	0	1	0	1	0	39.4865145121776	0
1.97	39.4231058088564	0	1	0	1	0	39.4231058088564	0
1.98	39.361601319638	0	1	0	1	0	39.361601319638	0
1.99	39.301978720375	0	1	0	1	0	39.301978720375	0
2	39.2442161334029	0	1	0	1	0	39.2442161334029	0
2.01	39.1882921164338	0	1	0	1	0	39.1882921164338	0
2.02	39.1341856517793	0	1	0	1	0	39.1341856517793	0
2.03	39.081876135893	0	1	0	1	0	39.081876135893	0
2.04	39.0313433692193	0	1	0	1	0	39.0313433692193	0
2.05	38.9825675463403	0	1	0	1	0	38.9825675463403	0
2.06	38.9355292464095	0	1	0	1	0	38.9355292464095	0
2.07	38.8902094238624	0	1	0	1	0	38.8902094238624	0
2.08	38.8465893993952	0	1	0	1	0	38.8465893993952	0
2.09	38.8046508512028	0	1	0	1	0	38.8046508512028	0
2.1	38.7643758064671	0	1	0	1	0	38.7643758064671	0
2.11	38.7257466330865	0	1	0	1	0	38.7257466330865	0
2.12	38.688746031641	0	1	0	1	0	38.688746031641	0
2.13	38.6533570275821	0	1	0	1	0	38.6533570275821	0
2.14	38.6195629636425	0	1	0	1	0	38.6195629636425	0
2.15	38.5873474924578	0	1	0	1	0	38.5873474924578	0
2.16	38.5566945693924	0	1	0	1	0	38.5566945693924	0
2.17	38.5275884455644	0	1	0	1	0	38.5275884455644	0
2.18	38.5000136610622	0	1	0	1	0	38.5000136610622	0
2.19	38.4739550383469	0	1	0	1	0	38.4739550383469	0
2.2	38.4493976758351	0	1	0	1	0	38.4493976758351	0
2.21	38.4263269416552	0	1	0	1	0	38.4263269416552	0
2.22	38.4047284675728	0	1	0	1	0	38.4047284675728	0
2.23	38.3845881430798	0	1	0	1	0	38.3845881430798	0
2.24	38.3658921096416	0	1	0	1	0	38.3658921096416	0
2.25	38.3486267550972	0	1	0	1	0	38.3486267550972	0
2.26	38.3327787082091	0	1	0	1	0	38.3327787082091	0
2.27	38.3183348333561	0	1	0	1	0	38.3183348333561	0
2.28	38.3052822253668	0	1	0	1	0	38.3052822253668	0
2.29	38.2936082044874	0	1	0	1	0	38.2936082044874	0
2.3	38.2833003114815	0	1	0	1	0	38.2833003114815	0
2.31	38.2743463028573	0	1	0	1	0	38.2743463028573	0
2.32	38.2667341462174	0	1	0	1	0	38.2667341462174	0
2.33	38.2604520157295	0	1	0	1	0	38.2604520157295	0
2.34	38.2554882877119	0	1	0	1	0	38.2554882877119	0
2.35	38.2518315363332	0	1	0	1	0	38.2518315363332	0
2.36	38.2494705294197	0	1	0	1	0	38.2494705294197	0
2.37	38.2483942243707	0	1	0	1	0	38.2483942243707	0
2.38	38.2485917641752	0	1	0	1	0	38.2485917641752	0
2.39	38.2500524735295	0	1	0	1	0	38.2500524735295	0
2.4	38.2527658550517	0	1	0	1	0	38.2527658550517	0
2.41	38.2567215855901	0	1	0	1	0	38.2567215855901	0
2.42	38.261909512624	0	1	0	1	0	38.261909512624	0
2.43	38.268319650752	0	1	0	1	0	38.268319650752	0
2.44	38.275942178268	0	1	0	1	0	38.275942178268	0
2.45	38.2847674338203	0	1	0	1	0	38.2847674338203	0
2.46	38.2947859131522	0	1	0	1	0	38.2947859131522	0
2.47	38.3059882659222	0	1	0	1	0	38.3059882659222	0
2.48	38.3183652926008	0	1	0	1	0	38.3183652926008	0
2.49	38.3319079414419	0	1	0	1	0	38.3319079414419	0
2.5	38.3466073055277	0	1	0	1	0	38.3466073055277	0
2.51	38.3624546198829	0	1	0	1	0	38.3624546198829	0
2.52	38.3794412586591	0	1	0	1	0	38.3794412586591	0
2.53	38.3975587323848	0	1	0	1	0	38.3975587323848	0
2.54	38.416798685281	0	1	0	1	0	38.416798685281	0
2.55	38.4371528926398	0	1	0	1	0	38.4371528926398	0
2.56	38.4586132582642	0	1	0	1	0	38.4586132582642	0
2.57	38.4811718119683	0	1	0	1	0	38.4811718119683	0
2.58	38.5048207071347	0	1	0	1	0	38.5048207071347	0
2.59	38.5295522183294	0	1	0	1	0	38.5295522183294	0
2.6	38.5553587389714	0	1	0	1	0	38.5553587389714	0
2.61	38.5822327790553	0	1	0	1	0	38.5822327790553	0
2.62	38.6101669629273	0	1	0	1	0	38.6101669629273	0
2.63	38.6391540271105	0	1	0	1	0	38.6391540271105	0
2.64	38.6691868181809	0	1	0	1	0	38.6691868181809	0
2.65	38.7002582906908	0	1	0	1	0	38.7002582906908	0
2.66	38.7323615051387	0	1	0	1	0	38.7323615051387	0
2.67	38.7654896259861	0	1	0	1	0	38.7654896259861	0
2.68	38.7996359197172	0	1	0	1	0	38.7996359197172	0
2.69	38.8347937529429	0	1	0	1	0	38.8347937529429	0
2.7	38.8709565905465	0	1	0	1	0	38.8709565905465	0
2.71	38.9081179938707	0	1	0	1	0	38.9081179938707	0
2.72	38.9462716189441	0	1	0	1	0	38.9462716189441	0
2.73	38.9854112147476	0	1	0	1	0	38.9854112147476	0
2.74	39.0255306215176	0	1	0	1	0	39.0255306215176	0
2.75	39.0666237690871	0	1	0	1	0	39.0666237690871	0
2.76	39.1086846752626	0	1	0	1	0	39.1086846752626	0
2.77	39.151707444236	0	1	0	1	0	39.151707444236	0
2.78	39.195686265031	0	1	0	1	0	39.195686265031	0
2.79	39.2406154099829	0	1	0	1	0	39.2406154099829	0
2.8	39.2864892332505	0	1	0	1	0	39.2864892332505	0
2.81	39.3333021693608	0	1	0	1	0	39.3333021693608	0
2.82	39.3810487317834	0	1	0	1	0	39.3810487317834	0
2.83	39.4297235115361	0	1	0	1	0	39.4297235115361	0
2.84	39.4793211758196	0	1	0	1	0	39.4793211758196	0
2.85	39.5298364666809	0	1	0	1	0	39.5298364666809	0
2.86	39.5812641997049	0	1	0	1	0	39.5812641997049	0
2.87	39.6335992627328	0	1	0	1	0	39.6335992627328	0
2.88	39.6868366146085	0	1	0	1	0	39.6868366146085	0
2.89	39.7409712839493	0	1	0	1	0	39.7409712839493	0
2.9	39.7959983679435	0	1	0	1	0	39.7959983679435	0
2.91	39.8519130311718	0	1	0	1	0	39.8519130311718	0
2.92	39.9087105044538	0	1	0	1	0	39.9087105044538	0
2.93	39.9663860837172	0	1	0	1	0	39.9663860837172	0
2.94	40.0249351288907	0	1	0	1	0	40.0249351288907	0
2.95	40.0843530628192	0	1	0	1	0	40.0843530628192	0
2.96	40.1446353702011	0	1	0	1	0	40.1446353702011	0
2.97	40.2057775965468	0	1	0	1	0	40.2057775965468	0
2.98	40.2677753471588	0	1	0	1	0	40.2677753471588	0
2.99	40.3306242861312	0	1	0	1	0	40.3306242861312	0
3	40.3943201353705	0	1	0	1	0	40.3943201353705	0
3.01	40.4588586736347	0	1	0	1	0	40.4588586736347	0
3.02	40.5242357355923	0	1	0	1	0	40.5242357355923	0
3.03	40.5904472108999	0	1	0	1	0	40.5904472108999	0
3.04	40.6574890432972	0	1	0	1	0	40.6574890432972	0
3.05	40.7253572297212	0	1	0	1	0	40.7253572297212	0
3.06	40.7940478194362	0	1	0	1	0	40.7940478194362	0
3.07	40.8635569131819	0	1	0	1	0	40.8635569131819	0
3.08	40.9338806623379	0	1	0	1	0	40.9338806623379	0
3.09	41.005015268104	0	1	0	1	0	41.005015268104	0
3.1	41.0769569806969	0	1	0	1	0	41.0769569806969	0
3.11	41.1497020985618	0	1	0	1	0	41.1497020985618	0
3.12	41.2232469676	0	1	0	1	0	41.2232469676	0
3.13	41.2975879804105	0	1	0	1	0	41.2975879804105	0
3.14	41.3727215755461	0	1	0	1	0	41.3727215755461	0
3.15	41.4486442367849	0	1	0	1	0	41.4486442367849	0
3.16	41.5253524924136	0	1	0	1	0	41.5253524924136	0
3.17	41.6028429145265	0	1	0	1	0	41.6028429145265	0
3.18	41.6811121183357	0	1	0	1	0	41.6811121183357	0
3.19	41.7601567614962	0	1	0	1	0	41.7601567614962	0
3.2	41.8399735434422	0	1	0	1	0	41.8399735434422	0
3.21	41.9205592047362	0	1	0	1	0	41.9205592047362	0
3.22	42.001910526431	0	1	0	1	0	42.001910526431	0
3.23	42.0840243294422	0	1	0	1	0	42.0840243294422	0
3.24	42.1668974739336	0	1	0	1	0	42.1668974739336	0
3.25	42.250526858713	0	1	0	1	0	42.250526858713	0
3.26	42.3349094206395	0	1	0	1	0	42.3349094206395	0
3.27	42.4200421340422	0	1	0	1	0	42.4200421340422	0
3.28	42.5059220101483	0	1	0	1	0	42.5059220101483	0
3.29	42.5925460965227	0	1	0	1	0	42.5925460965227	0
3.3	42.6799114765175	0	1	0	1	0	42.6799114765175	0
3.31	42.7680152687314	0	1	0	1	0	42.7680152687314	0
3.32	42.8568546264784	0	1	0	1	0	42.8568546264784	0
3.33	42.9464267372673	0	1	0	1	0	42.9464267372673	0
3.34	43.0367288222893	0	1	0	1	0	43.0367288222893	0
3.35	43.1277581359153	0	1	0	1	0	43.1277581359153	0
3.36	43.2195119652025	0	1	0	1	0	43.2195119652025	0
3.37	43.3119876294089	0	1	0	1	0	43.3119876294089	0
3.38	43.4051824795175	0	1	0	1	0	43.4051824795175	0
3.39	43.4990938977681	0	1	0	1	0	43.4990938977681	0
3.4	43.5937192971975	0	1	0	1	0	43.5937192971975	0
3.41	43.6890561211884	0	1	0	1	0	43.6890561211884	0
3.42	43.7851018430251	0	1	0	1	0	43.7851018430251	0
3.43	43.8818539654584	0	1	0	1	0	43.8818539654584	0
3.44	43.9793100202765	0	1	0	1	0	43.9793100202765	0
3.45	44.0774675678848	0	1	0	1	0	44.0774675678848	0
3.46	44.1763241968919	0	1	0	1	0	44.1763241968919	0
3.47	44.2758775237036	0	1	0	1	0	44.2758775237036	0
3.48	44.3761251921232	0	1	0	1	0	44.3761251921232	0
3.49	44.4770648729593	0	1	0	1	0	44.4770648729593	0
3.5	44.5786942636395	0	1	0	1	0	44.5786942636395	0
3.51	44.681011087832	0	1	0	1	0	44.681011087832	0
3.52	44.784013095072	0	1	0	1	0	44.784013095072	0
3.53	44.8876980603959	0	1	0	1	0	44.8876980603959	0
3.54	44.9920637839809	0	1	0	1	0	44.9920637839809	0
3.55	45.097108090791	0	1	0	1	0	45.097108090791	0
3.56	45.2028288302287	0	1	0	1	0	45.2028288302287	0
3.57	45.3092238757929	0	1	0	1	0	45.3092238757929	0
3.58	45.4162911247423	0	1	0	1	0	45.4162911247423	0
3.59	45.5240284977644	0	1	0	1	0	45.5240284977644	0
3.6	45.6324339386502	0	1	0	1	0	45.6324339386502	0
3.61	45.7415054139743	0	1	0	1	0	45.7415054139743	0
3.62	45.8512409127798	0	1	0	1	0	45.8512409127798	0
3.63	45.9616384462694	0	1	0	1	0	45.9616384462694	0
3.64	46.0726960475006	0	1	0	1	0	46.0726960475006	0
3.65	46.1844117710864	0	1	0	1	0	46.1844117710864	0
3.66	46.296783692901	0	1	0	1	0	46.296783692901	0
3.67	46.4098099097898	0	1	0	1	0	46.4098099097898	0
3.68	46.5234885392847	0	1	0	1	0	46.5234885392847	0
3.69	46.637817719324	0	1	0	1	0	46.637817719324	0
3.7	46.752795607976	0	1	0	1	0	46.752795607976	0
3.71	46.8684203831685	0	1	0	1	0	46.8684203831685	0
3.72	46.9846902424212	0	1	0	1	0	46.9846902424212	0
3.73	47.1016034025834	0	1	0	1	0	47.1016034025834	0
3.74	47.2191580995757	0	1	0	1	0	47.2191580995757	0
3.75	47.3373525881353	0	1	0	1	0	47.3373525881353	0
3.76	47.4561851415661	0	1	0	1	0	47.4561851415661	0
3.77	47.5756540514925	0	1	0	1	0	47.5756540514925	0
3.78	47.695757627617	0	1	0	1	0	47.695757627617	0
3.79	47.8164941974812	0	1	0	1	0	47.8164941974812	0
3.8	47.9378621062322	0	1	0	1	0	47.9378621062322	0
3.81	48.0598597163903	0	1	0	1	0	48.0598597163903	0
3.82	48.1824854076225	0	1	0	1	0	48.1824854076225	0
3.83	48.3057375765182	0	1	0	1	0	48.3057375765182	0
3.84	48.4296146363691	0	1	0	1	0	48.4296146363691	0
3.85	48.5541150169521	0	1	0	1	0	48.5541150169521	0
3.86	48.6792371643159	0	1	0	1	0	48.6792371643159	0
3.87	48.8049795405707	0	1	0	1	0	48.8049795405707	0
3.88	48.9313406236812	0	1	0	1	0	48.9313406236812	0
3.89	49.0583189072628	0	1	0	1	0	49.0583189072628	0
3.9	49.1859129003811	0	1	0	1	0	49.1859129003811	0
3.91	49.3141211273542	0	1	0	1	0	49.3141211273542	0
3.92	49.4429421275582	0	1	0	1	0	49.4429421275582	0
3.93	49.5723744552356	0	1	0	1	0	49.5723744552356	0
3.94	49.7024166793065	0	1	0	1	0	49.7024166793065	0
3.95	49.8330673831831	0	1	0	1	0	49.8330673831831	0
3.96	49.9643251645865	0	1	0	1	0	49.9643251645865	0
3.97	50.0961886353667	0	1	0	1	0	50.0961886353667	0
3.98	50.2286564213248	0	1	0	1	0	50.2286564213248	0
3.99	50.3617271620382	0	1	0	1	0	50.3617271620382	0
4	50.4953995106889	0	1	0	1	0	50.4953995106889	0
4.01	50.6296721338932	0	1	0	1	0	50.6296721338932	0
4.02	50.764543711535	0	1	0	1	0	50.764543711535	0
4.03	50.900012936601	0	1	0	1	0	50.900012936601	0
4.04	51.0360785150188	0	1	0	1	0	51.0360785150188	0
4.05	51.1727391654969	0	1	0	1	0	51.1727391654969	0
4.06	51.3099936193672	0	1	0	1	0	51.3099936193672	0
4.07	51.4478406204303	0	1	0	1	0	51.4478406204303	0
4.08	51.5862789248023	0	1	0	1	0	51.5862789248023	0
4.09	51.7253073007647	0	1	0	1	0	51.7253073007647	0
4.1	51.8649245286153	0	1	0	1	0	51.8649245286153	0
4.11	52.005129400523	0	1	0	1	0	52.005129400523	0
4.12	52.1459207203828	0	1	0	1	0	52.1459207203828	0
4.13	52.2872973036746	0	1	0	1	0	52.2872973036746	0
4.14	52.4292579773226	0	1	0	1	0	52.4292579773226	0
4.15	52.571801579558	0	1	0	1	0	52.571801579558	0
4.16	52.7149269597828	0	1	0	1	0	52.7149269597828	0
4.17	52.8586329784358	0	1	0	1	0	52.8586329784358	0
4.18	53.0029185068609	0	1	0	1	0	53.0029185068609	0
4.19	53.1477824271765	0	1	0	1	0	53.1477824271765	0
4.2	53.2932236321477	0	1	0	1	0	53.2932236321477	0
4.21	53.4392410250596	0	1	0	1	0	53.4392410250596	0
4.22	53.5858335195926	0	1	0	1	0	53.5858335195926	0
4.23	53.7330000396997	0	1	0	1	0	53.7330000396997	0
4.24	53.8807395194854	0	1	0	1	0	53.8807395194854	0
4.25	54.029050903086	0	1	0	1	0	54.029050903086	0
4.26	54.177933144552	0	1	0	1	0	54.177933144552	0
4.27	54.3273852077322	0	1	0	1	0	54.3273852077322	0
4.28	54.4774060661588	0	1	0	1	0	54.4774060661588	0
4.29	54.6279947029349	0	1	0	1	0	54.6279947029349	0
4.3	54.7791501106234	0	1	0	1	0	54.7791501106234	0
4.31	54.9308712911364	0	1	0	1	0	54.9308712911364	0
4.32	55.0831572556281	0	1	0	1	0	55.0831572556281	0
4.33	55.2360070243871	0	1	0	1	0	55.2360070243871	0
4.34	55.3894196267319	0	1	0	1	0	55.3894196267319	0
4.35	55.5433941009067	0	1	0	1	0	55.5433941009067	0
4.36	55.6979294939791	0	1	0	1	0	55.6979294939791	0
4.37	55.8530248617393	0	1	0	1	0	55.8530248617393	0
4.38	56.0086792686003	0	1	0	1	0	56.0086792686003	0
4.39	56.1648917874999	0	1	0	1	0	56.1648917874999	0
4.4	56.3216614998036	0	1	0	1	0	56.3216614998036	0
4.41	56.4789874952095	0	1	0	1	0	56.4789874952095	0
4.42	56.6368688716533	0	1	0	1	0	56.6368688716533	0
4.43	56.7953047352161	0	1	0	1	0	56.7953047352161	0
4.44	56.9542942000323	0	1	0	1	0	56.9542942000323	0
4.45	57.1138363881988	0	1	0	1	0	57.1138363881988	0
4.46	57.2739304296864	0	1	0	1	0	57.2739304296864	0
4.47	57.4345754622513	0	1	0	1	0	57.4345754622513	0
4.48	57.5957706313483	0	1	0	1	0	57.5957706313483	0
4.49	57.757515090045	0	1	0	1	0	57.757515090045	0
4.5	57.9198079989376	0	1	0	1	0	57.9198079989376	0
4.51	58.0826485260666	0	1	0	1	0	58.0826485260666	0
4.52	58.2460358468354	0	1	0	1	0	58.2460358468354	0
4.53	58.4099691439285	0	1	0	1	0	58.4099691439285	0
4.54	58.5744476072314	0	1	0	1	0	58.5744476072314	0
4.55	58.7394704337513	0	1	0	1	0	58.7394704337513	0
4.56	58.9050368275396	0	1	0	1	0	58.9050368275396	0
4.57	59.071145999614	0	1	0	1	0	59.071145999614	0
4.58	59.2377971678831	0	1	0	1	0	59.2377971678831	0
4.59	59.4049895570712	0	1	0	1	0	59.4049895570712	0
4.6	59.5727223986439	0	1	0	1	0	59.5727223986439	0
4.61	59.7409949307354	0	1	0	1	0	59.7409949307354	0
4.62	59.909806398076	0	1	0	1	0	59.909806398076	0
4.63	60.0791560519211	0	1	0	1	0	60.0791560519211	0
4.64	60.2490431499807	0	1	0	1	0	60.2490431499807	0
4.65	60.4194669563503	0	1	0	1	0	60.4194669563503	0
4.66	60.5904267414419	0	1	0	1	0	60.5904267414419	0
4.67	60.7619217819168	0	1	0	1	0	60.7619217819168	0
4.68	60.9339513606186	0	1	0	1	0	60.9339513606186	0
4.69	61.1065147665076	0	1	0	1	0	61.1065147665076	0
4.7	61.2796112945953	0	1	0	1	0	61.2796112945953	0
4.71	61.4532402458802	0	1	0	1	0	61.4532402458802	0
4.72	61.627400927285	0	1	0	1	0	61.627400927285	0
4.73	61.8020926515931	0	1	0	1	0	61.8020926515931	0
4.74	61.9773147373874	0	1	0	1	0	61.9773147373874	0
4.75	62.153066508989	0	1	0	1	0	62.153066508989	0
4.76	62.329347296397	0	1	0	1	0	62.329347296397	0
4.77	62.5061564352289	0	1	0	1	0	62.5061564352289	0
4.78	62.683493266662	0	1	0	1	0	62.683493266662	0
4.79	62.861357137375	0	1	0	1	0	62.861357137375	0
4.8	63.0397473994913	0	1	0	1	0	63.0397473994913	0
4.81	63.2186634105218	0	1	0	1	0	63.2186634105218	0
4.82	63.3981045333093	0	1	0	1	0	63.3981045333093	0
4.83	63.5780701359733	0	1	0	1	0	63.5780701359733	0
4.84	63.7585595918554	0	1	0	1	0	63.7585595918554	0
4.85	63.9395722794656	0	1	0	1	0	63.9395722794656	0
4.86	64.121107582429	0	1	0	1	0	64.121107582429	0
4.87	64.3031648894333	0	1	0	1	0	64.3031648894333	0
4.88	64.4857435941771	0	1	0	1	0	64.4857435941771	0
4.89	64.6688430953183	0	1	0	1	0	64.6688430953183	0
4.9	64.8524627964238	0	1	0	1	0	64.8524627964238	0
4.91	65.0366021059194	0	1	0	1	0	65.0366021059194	0
4.92	65.2212604370407	0	1	0	1	0	65.2212604370407	0
4.93	65.4064372077836	0	1	0	1	0	65.4064372077836	0
