# GHZ S RI R 50
1	53.966775560555	0	1	0	1	0	53.966775560555	0
1.01	53.5259154783255	0	1	0	1	0	53.5259154783255	0
1.02	53.0946577417228	0	1	0	1	0	53.0946577417228	0
1.03	52.6727320641339	0	1	0	1	0	52.6727320641339	0
1.04	52.2598785545848	0	1	0	1	0	52.2598785545848	0
1.05	51.8558472227099	0	1	0	1	0	51.8558472227099	0
1.06	51.4603975117423	0	1	0	1	0	51.4603975117423	0
1.07	51.0732978576916	0	1	0	1	0	51.0732978576916	0
1.08	50.6943252730112	0	1	0	1	0	50.6943252730112	0
1.09	50.3232649531842	0	1	0	1	0	50.3232649531842	0
1.1	49.9599099047665	0	1	0	1	0	49.9599099047665	0
1.11	49.6040605935375	0	1	0	1	0	49.6040605935375	0
1.12	49.2555246114989	0	1	0	1	0	49.2555246114989	0
1.13	48.9141163615547	0	1	0	1	0	48.9141163615547	0
1.14	48.5796567587878	0	1	0	1	0	48.5796567587878	0
1.15	48.2519729473218	0	1	0	1	0	48.2519729473218	0
1.16	47.9308980318276	0	1	0	1	0	47.9308980318276	0
1.17	47.6162708227996	0	1	0	1	0	47.6162708227996	0
1.18	47.3079355947828	0	1	0	1	0	47.3079355947828	0
1.19	47.0057418567916	0	1	0	1	0	47.0057418567916	0
1.2	46.7095441342066	0	1	0	1	0	46.7095441342066	0
1.21	46.4192017614866	0	1	0	1	0	46.4192017614866	0
1.22	46.1345786850753	0	1	0	1	0	46.1345786850753	0
1.23	45.8555432759224	0	1	0	1	0	45.8555432759224	0
1.24	45.5819681510761	0	1	0	1	0	45.5819681510761	0
1.25	45.3137300038388	0	1	0	1	0	45.3137300038388	0
1.26	45.0507094420115	0	1	0	1	0	45.0507094420115	0
1.27	44.7927908337793	0	1	0	1	0	44.7927908337793	0
1.28	44.5398621608213	0	1	0	1	0	44.5398621608213	0
1.29	44.2918148782534	0	1	0	1	0	44.2918148782534	0
1.3	44.0485437810336	0	1	0	1	0	44.0485437810336	0
1.31	43.8099468764879	0	1	0	1	0	43.8099468764879	0
1.32	43.5759252626293	0	1	0	1	0	43.5759252626293	0
1.33	43.3463830119666	0	1	0	1	0	43.3463830119666	0
1.34	43.1212270605159	0	1	0	1	0	43.1212270605159	0
1.35	42.9003671017446	0	1	0	1	0	42.9003671017446	0
1.36	42.6837154851945	0	1	0	1	0	42.6837154851945	0
1.37	42.4711871195451	0	1	0	1	0	42.4711871195451	0
1.38	42.2626993798908	0	1	0	1	0	42.2626993798908	0
1.39	42.0581720190212	0	1	0	1	0	42.0581720190212	0
1.4	41.8575270825033	0	1	0	1	0	41.8575270825033	0
1.41	41.6606888273775	0	1	0	1	0	41.6606888273775	0
1.42	41.4675836442885	0	1	0	1	0	41.4675836442885	0
1.43	41.278139982884	0	1	0	1	0	41.278139982884	0
1.44	41.0922882803216	0	1	0	1	0	41.0922882803216	0
1.45	40.9099608927338	0	1	0	1	0	40.9099608927338	0
1.46	40.7310920295097	0	1	0	1	0	40.7310920295097	0
1.47	40.5556176902592	0	1	0	1	0	40.5556176902592	0
1.48	40.3834756043323	0	1	0	1	0	40.3834756043323	0
1.49	40.2146051727745	0	1	0	1	0	40.2146051727745	0
1.5	40.0489474126034	0	1	0	1	0	40.0489474126034	0
1.51	39.8864449032994	0	1	0	1	0	39.8864449032994	0
1.52	39.7270417354097	0	1	0	1	0	39.7270417354097	0
1.53	39.5706834611662	0	1	0	1	0	39.5706834611662	0
1.54	39.4173170470286	0	1	0	1	0	39.4173170470286	0
1.55	39.2668908280642	0	1	0	1	0	39.2668908280642	0
1.56	39.119354464082	0	1	0	1	0	39.119354464082	0
1.57	38.9746588974437	0	1	0	1	0	38.9746588974437	0
1.58	38.8327563124767	0	1	0	1	0	38.8327563124767	0
1.59	38.6936000964182	0	1	0	1	0	38.6936000964182	0
1.6	38.5571448018244	0	1	0	1	0	38.5571448018244	0
1.61	38.4233461103809	0	1	0	1	0	38.4233461103809	0
1.62	38.2921607980522	0	1	0	1	0	38.2921607980522	0
1.63	38.1635467015156	0	1	0	1	0	38.1635467015156	0
1.64	38.0374626858222	0	1	0	1	0	38.0374626858222	0
1.65	37.9138686132338	0	1	0	1	0	37.9138686132338	0
1.66	37.7927253131866	0	1	0	1	0	37.7927253131866	0
1.67	37.6739945533341	0	1	0	1	0	37.6739945533341	0
1.68	37.5576390116236	0	1	0	1	0	37.5576390116236	0
1.69	37.4436222493647	0	1	0	1	0	37.4436222493647	0
1.7	37.3319086852477	0	1	0	1	0	37.3319086852477	0
1.71	37.2224635702746	0	1	0	1	0	37.2224635702746	0
1.72	37.1152529635634	0	1	0	1	0	37.1152529635634	0
1.73	37.0102437089924	0	1	0	1	0	37.0102437089924	0
1.74	36.9074034126496	0	1	0	1	0	36.9074034126496	0
1.75	36.8067004210554	0	1	0	1	0	36.8067004210554	0
1.76	36.7081038001274	0	1	0	1	0	36.7081038001274	0
1.77	36.6115833148583	0	1	0	1	0	36.6115833148583	0
1.78	36.5171094096795	0	1	0	1	0	36.5171094096795	0
1.79	36.4246531894818	0	1	0	1	0	36.4246531894818	0
1.8	36.3341864012696	0	1	0	1	0	36.3341864012696	0
1.81	36.2456814164229	0	1	0	1	0	36.2456814164229	0
1.82	36.1591112135442	0	1	0	1	0	36.1591112135442	0
1.83	36.0744493618675	0	1	0	1	0	36.0744493618675	0
1.84	35.9916700052088	0	1	0	1	0	35.9916700052088	0
1.85	35.9107478464366	0	1	0	1	0	35.9107478464366	0
1.86	35.8316581324437	0	1	0	1	0	35.8316581324437	0
1.87	35.7543766396014	0	1	0	1	0	35.7543766396014	0
1.88	35.6788796596771	0	1	0	1	0	35.6788796596771	0
1.89	35.6051439861997	0	1	0	1	0	35.6051439861997	0
1.9	35.5331469012557	0	1	0	1	0	35.5331469012557	0
1.91	35.4628661626991	0	1	0	1	0	35.4628661626991	0
1.92	35.3942799917621	0	1	0	1	0	35.3942799917621	0
1.93	35.3273670610503	0	1	0	1	0	35.3273670610503	0
1.94	35.2621064829094	0	1	0	1	0	35.2621064829094	0
1.95	35.1984777981496	0	1	0	1	0	35.1984777981496	0
1.96	35.136460965116	0	1	0	1	0	35.136460965116	0
1.97	35.0760363490905	0	1	0	1	0	35.0760363490905	0
1.98	35.0171847120162	0	1	0	1	0	35.0171847120162	0
1.99	34.9598872025306	0	1	0	1	0	34.9598872025306	0
2	34.9041253462986	0	1	0	1	0	34.9041253462986	0
2.01	34.8498810366335	0	1	0	1	0	34.8498810366335	0
2.02	34.7971365253968	0	1	0	1	0	34.7971365253968	0
2.03	34.7458744141673	0	1	0	1	0	34.7458744141673	0
2.04	34.6960776456688	0	1	0	1	0	34.6960776456688	0
2.05	34.6477294954506	0	1	0	1	0	34.6477294954506	0
2.06	34.6008135638081	0	1	0	1	0	34.6008135638081	0
2.07	34.5553137679395	0	1	0	1	0	34.5553137679395	0
2.08	34.5112143343275	0	1	0	1	0	34.5112143343275	0
2.09	34.4684997913405	0	1	0	1	0	34.4684997913405	0
2.1	34.4271549620444	0	1	0	1	0	34.4271549620444	0
2.11	34.3871649572197	0	1	0	1	0	34.3871649572197	0
2.12	34.3485151685753	0	1	0	1	0	34.3485151685753	0
2.13	34.3111912621545	0	1	0	1	0	34.3111912621545	0
2.14	34.2751791719249	0	1	0	1	0	34.2751791719249	0
2.15	34.2404650935477	0	1	0	1	0	34.2404650935477	0
2.16	34.2070354783201	0	1	0	1	0	34.2070354783201	0
2.17	34.1748770272848	0	1	0	1	0	34.1748770272848	0
2.18	34.1439766855022	0	1	0	1	0	34.1439766855022	0
2.19	34.1143216364791	0	1	0	1	0	34.1143216364791	0
2.2	34.0858992967494	0	1	0	1	0	34.0858992967494	0
2.21	34.0586973106019	0	1	0	1	0	34.0586973106019	0
2.22	34.0327035449512	0	1	0	1	0	34.0327035449512	0
2.23	34.0079060843454	0	1	0	1	0	34.0079060843454	0
2.24	33.9842932261085	0	1	0	1	0	33.9842932261085	0
2.25	33.9618534756124	0	1	0	1	0	33.9618534756124	0
2.26	33.9405755416734	0	1	0	1	0	33.9405755416734	0
2.27	33.9204483320716	0	1	0	1	0	33.9204483320716	0
2.28	33.9014609491873	0	1	0	1	0	33.9014609491873	0
2.29	33.8836026857523	0	1	0	1	0	33.8836026857523	0
2.3	33.8668630207119	0	1	0	1	0	33.8668630207119	0
2.31	33.8512316151939	0	1	0	1	0	33.8512316151939	0
2.32	33.8366983085828	0	1	0	1	0	33.8366983085828	0
2.33	33.8232531146939	0	1	0	1	0	33.8232531146939	0
2.34	33.810886218047	0	1	0	1	0	33.810886218047	0
2.35	33.7995879702335	0	1	0	1	0	33.7995879702335	0
2.36	33.7893488863772	0	1	0	1	0	33.7893488863772	0
2.37	33.7801596416845	0	1	0	1	0	33.7801596416845	0
2.38	33.7720110680806	0	1	0	1	0	33.7720110680806	0
2.39	33.7648941509316	0	1	0	1	0	33.7648941509316	0
2.4	33.7588000258474	0	1	0	1	0	33.7588000258474	0
2.41	33.7537199755646	0	1	0	1	0	33.7537199755646	0
2.42	33.7496454269069	0	1	0	1	0	33.7496454269069	0
2.43	33.7465679478204	0	1	0	1	0	33.7465679478204	0
2.44	33.7444792444812	0	1	0	1	0	33.7444792444812	0
2.45	33.7433711584752	0	1	0	1	0	33.7433711584752	0
2.46	33.7432356640451	0	1	0	1	0	33.7432356640451	0
2.47	33.7440648654055	0	1	0	1	0	33.7440648654055	0
2.48	33.7458509941225	0	1	0	1	0	33.7458509941225	0
2.49	33.7485864065561	0	1	0	1	0	33.7485864065561	0
2.5	33.7522635813648	0	1	0	1	0	33.7522635813648	0
2.51	33.7568751170688	0	1	0	1	0	33.7568751170688	0
2.52	33.7624137296724	0	1	0	1	0	33.7624137296724	0
2.53	33.7688722503416	0	1	0	1	0	33.7688722503416	0
2.54	33.7762436231378	0	1	0	1	0	33.7762436231378	0
2.55	33.7845209028034	0	1	0	1	0	33.7845209028034	0
2.56	33.7936972526007	0	1	0	1	0	33.7936972526007	0
2.57	33.8037659422003	0	1	0	1	0	33.8037659422003	0
2.58	33.814720345619	0	1	0	1	0	33.814720345619	0
2.59	33.8265539392053	0	1	0	1	0	33.8265539392053	0
2.6	33.8392602996717	0	1	0	1	0	33.8392602996717	0
2.61	33.8528331021718	0	1	0	1	0	33.8528331021718	0
2.62	33.8672661184217	0	1	0	1	0	33.8672661184217	0
2.63	33.8825532148645	0	1	0	1	0	33.8825532148645	0
2.64	33.8986883508756	0	1	0	1	0	33.8986883508756	0
2.65	33.91566557701	0	1	0	1	0	33.91566557701	0
2.66	33.9334790332878	0	1	0	1	0	33.9334790332878	0
2.67	33.9521229475192	0	1	0	1	0	33.9521229475192	0
2.68	33.9715916336663	0	1	0	1	0	33.9715916336663	0
2.69	33.9918794902422	0	1	0	1	0	33.9918794902422	0
2.7	34.0129809987449	0	1	0	1	0	34.0129809987449	0
2.71	34.0348907221261	0	1	0	1	0	34.0348907221261	0
2.72	34.0576033032944	0	1	0	1	0	34.0576033032944	0
2.73	34.0811134636503	0	1	0	1	0	34.0811134636503	0
2.74	34.1054160016545	0	1	0	1	0	34.1054160016545	0
2.75	34.1305057914261	0	1	0	1	0	34.1305057914261	0
2.76	34.1563777813725	0	1	0	1	0	34.1563777813725	0
2.77	34.1830269928483	0	1	0	1	0	34.1830269928483	0
2.78	34.2104485188433	0	1	0	1	0	34.2104485188433	0
2.79	34.2386375226985	0	1	0	1	0	34.2386375226985	0
2.8	34.2675892368502	0	1	0	1	0	34.2675892368502	0
2.81	34.2972989616004	0	1	0	1	0	34.2972989616004	0
2.82	34.3277620639134	0	1	0	1	0	34.3277620639134	0
2.83	34.3589739762382	0	1	0	1	0	34.3589739762382	0
2.84	34.3909301953554	0	1	0	1	0	34.3909301953554	0
2.85	34.4236262812487	0	1	0	1	0	34.4236262812487	0
2.86	34.457057856	0	1	0	1	0	34.457057856	0
2.87	34.4912206027074	0	1	0	1	0	34.4912206027074	0
2.88	34.526110264426	0	1	0	1	0	34.526110264426	0
2.89	34.5617226431305	0	1	0	1	0	34.5617226431305	0
2.9	34.5980535986996	0	1	0	1	0	34.5980535986996	0
2.91	34.6350990479206	0	1	0	1	0	34.6350990479206	0
2.92	34.6728549635153	0	1	0	1	0	34.6728549635153	0
2.93	34.7113173731857	0	1	0	1	0	34.7113173731857	0
2.94	34.7504823586782	0	1	0	1	0	34.7504823586782	0
2.95	34.7903460548685	0	1	0	1	0	34.7903460548685	0
2.96	34.8309046488633	0	1	0	1	0	34.8309046488633	0
2.97	34.8721543791217	0	1	0	1	0	34.8721543791217	0
2.98	34.9140915345932	0	1	0	1	0	34.9140915345932	0
2.99	34.9567124538734	0	1	0	1	0	34.9567124538734	0
3	35.0000135243767	0	1	0	1	0	35.0000135243767	0
3.01	35.0439911815253	0	1	0	1	0	35.0439911815253	0
3.02	35.0886419079542	0	1	0	1	0	35.0886419079542	0
3.03	35.1339622327325	0	1	0	1	0	35.1339622327325	0
3.04	35.1799487305992	0	1	0	1	0	35.1799487305992	0
3.05	35.2265980212148	0	1	0	1	0	35.2265980212148	0
3.06	35.2739067684275	0	1	0	1	0	35.2739067684275	0
3.07	35.321871679553	0	1	0	1	0	35.321871679553	0
3.08	35.3704895046692	0	1	0	1	0	35.3704895046692	0
3.09	35.4197570359242	0	1	0	1	0	35.4197570359242	0
3.1	35.4696711068577	0	1	0	1	0	35.4696711068577	0
3.11	35.5202285917358	0	1	0	1	0	35.5202285917358	0
3.12	35.5714264048977	0	1	0	1	0	35.5714264048977	0
3.13	35.6232615001164	0	1	0	1	0	35.6232615001164	0
3.14	35.67573086997	0	1	0	1	0	35.67573086997	0
3.15	35.7288315452263	0	1	0	1	0	35.7288315452263	0
3.16	35.7825605942383	0	1	0	1	0	35.7825605942383	0
3.17	35.8369151223512	0	1	0	1	0	35.8369151223512	0
3.18	35.8918922713211	0	1	0	1	0	35.8918922713211	0
3.19	35.9474892187442	0	1	0	1	0	35.9474892187442	0
3.2	36.0037031774967	0	1	0	1	0	36.0037031774967	0
3.21	36.0605313951851	0	1	0	1	0	36.0605313951851	0
3.22	36.1179711536076	0	1	0	1	0	36.1179711536076	0
3.23	36.1760197682239	0	1	0	1	0	36.1760197682239	0
3.24	36.2346745876363	0	1	0	1	0	36.2346745876363	0
3.25	36.2939329930798	0	1	0	1	0	36.2939329930798	0
3.26	36.3537923979215	0	1	0	1	0	36.3537923979215	0
3.27	36.4142502471689	0	1	0	1	0	36.4142502471689	0
3.28	36.4753040169885	0	1	0	1	0	36.4753040169885	0
3.29	36.5369512142312	0	1	0	1	0	36.5369512142312	0
3.3	36.5991893759683	0	1	0	1	0	36.5991893759683	0
3.31	36.6620160690344	0	1	0	1	0	36.6620160690344	0
3.32	36.7254288895791	0	1	0	1	0	36.7254288895791	0
3.33	36.7894254626277	0	1	0	1	0	36.7894254626277	0
3.34	36.8540034416476	0	1	0	1	0	36.8540034416476	0
3.35	36.9191605081251	0	1	0	1	0	36.9191605081251	0
3.36	36.9848943711474	0	1	0	1	0	36.9848943711474	0
3.37	37.0512027669939	0	1	0	1	0	37.0512027669939	0
3.38	37.1180834587333	0	1	0	1	0	37.1180834587333	0
3.39	37.185534235829	0	1	0	1	0	37.185534235829	0
3.4	37.2535529137505	0	1	0	1	0	37.2535529137505	0
3.41	37.3221373335926	0	1	0	1	0	37.3221373335926	0
3.42	37.3912853617	0	1	0	1	0	37.3912853617	0
3.43	37.4609948893001	0	1	0	1	0	37.4609948893001	0
3.44	37.5312638321408	0	1	0	1	0	37.5312638321408	0
3.45	37.602090130135	0	1	0	1	0	37.602090130135	0
3.46	37.6734717470119	0	1	0	1	0	37.6734717470119	0
3.47	37.7454066699736	0	1	0	1	0	37.7454066699736	0
3.48	37.8178929093576	0	1	0	1	0	37.8178929093576	0
3.49	37.8909284983056	0	1	0	1	0	37.8909284983056	0
3.5	37.9645114924378	0	1	0	1	0	37.9645114924378	0
3.51	38.0386399695326	0	1	0	1	0	38.0386399695326	0
3.52	38.1133120292115	0	1	0	1	0	38.1133120292115	0
3.53	38.1885257926304	0	1	0	1	0	38.1885257926304	0
3.54	38.264279402175	0	1	0	1	0	38.264279402175	0
3.55	38.3405710211617	0	1	0	1	0	38.3405710211617	0
3.56	38.4173988335439	0	1	0	1	0	38.4173988335439	0
3.57	38.4947610436229	0	1	0	1	0	38.4947610436229	0
3.58	38.5726558757637	0	1	0	1	0	38.5726558757637	0
3.59	38.6510815741154	0	1	0	1	0	38.6510815741154	0
3.6	38.7300364023366	0	1	0	1	0	38.7300364023366	0
3.61	38.8095186433252	0	1	0	1	0	38.8095186433252	0
3.62	38.8895265989526	0	1	0	1	0	38.8895265989526	0
3.63	38.9700585898023	0	1	0	1	0	38.9700585898023	0
3.64	39.0511129549129	0	1	0	1	0	39.0511129549129	0
3.65	39.1326880515254	0	1	0	1	0	39.1326880515254	0
3.66	39.2147822548345	0	1	0	1	0	39.2147822548345	0
3.67	39.2973939577438	0	1	0	1	0	39.2973939577438	0
3.68	39.3805215706254	0	1	0	1	0	39.3805215706254	0
3.69	39.4641635210832	0	1	0	1	0	39.4641635210832	0
3.7	39.5483182537199	0	1	0	1	0	39.5483182537199	0
3.71	39.6329842299081	0	1	0	1	0	39.6329842299081	0
3.72	39.7181599275645	0	1	0	1	0	39.7181599275645	0
3.73	39.8038438409287	0	1	0	1	0	39.8038438409287	0
3.74	39.8900344803446	0	1	0	1	0	39.8900344803446	0
3.75	39.9767303720458	0	1	0	1	0	39.9767303720458	0
3.76	40.0639300579441	0	1	0	1	0	40.0639300579441	0
3.77	40.1516320954219	0	1	0	1	0	40.1516320954219	0
3.78	40.2398350571274	0	1	0	1	0	40.2398350571274	0
3.79	40.328537530773	0	1	0	1	0	40.328537530773	0
3.8	40.4177381189376	0	1	0	1	0	40.4177381189376	0
3.81	40.507435438871	0	1	0	1	0	40.507435438871	0
3.82	40.5976281223019	0	1	0	1	0	40.5976281223019	0
3.83	40.6883148152494	0	1	0	1	0	40.6883148152494	0
3.84	40.7794941778364	0	1	0	1	0	40.7794941778364	0
3.85	40.8711648841064	0	1	0	1	0	40.8711648841064	0
3.86	40.9633256218437	0	1	0	1	0	40.9633256218437	0
3.87	41.0559750923954	0	1	0	1	0	41.0559750923954	0
3.88	41.1491120104968	0	1	0	1	0	41.1491120104968	0
3.89	41.2427351040993	0	1	0	1	0	41.2427351040993	0
3.9	41.3368431142009	0	1	0	1	0	41.3368431142009	0
3.91	41.4314347946794	0	1	0	1	0	41.4314347946794	0
3.92	41.5265089121283	0	1	0	1	0	41.5265089121283	0
3.93	41.6220642456947	0	1	0	1	0	41.6220642456947	0
3.94	41.7180995869202	0	1	0	1	0	41.7180995869202	0
3.95	41.8146137395838	0	1	0	1	0	41.8146137395838	0
3.96	41.9116055195479	0	1	0	1	0	41.9116055195479	0
3.97	42.0090737546054	0	1	0	1	0	42.0090737546054	0
3.98	42.1070172843303	0	1	0	1	0	42.1070172843303	0
3.99	42.2054349599301	0	1	0	1	0	42.2054349599301	0
4	42.3043256440999	0	1	0	1	0	42.3043256440999	0
4.01	42.4036882108798	0	1	0	1	0	42.4036882108798	0
4.02	42.5035215455132	0	1	0	1	0	42.5035215455132	0
4.03	42.6038245443084	0	1	0	1	0	42.6038245443084	0
4.04	42.7045961145011	0	1	0	1	0	42.7045961145011	0
4.05	42.8058351741198	0	1	0	1	0	42.8058351741198	0
4.06	42.9075406518529	0	1	0	1	0	42.9075406518529	0
4.07	43.0097114869175	0	1	0	1	0	43.0097114869175	0
4.08	43.1123466289306	0	1	0	1	0	43.1123466289306	0
4.09	43.2154450377819	0	1	0	1	0	43.2154450377819	0
4.1	43.3190056835086	0	1	0	1	0	43.3190056835086	0
4.11	43.4230275461718	0	1	0	1	0	43.4230275461718	0
4.12	43.5275096157349	0	1	0	1	0	43.5275096157349	0
4.13	43.6324508919438	0	1	0	1	0	43.6324508919438	0
4.14	43.7378503842085	0	1	0	1	0	43.7378503842085	0
4.15	43.8437071114871	0	1	0	1	0	43.8437071114871	0
4.16	43.9500201021707	0	1	0	1	0	43.9500201021707	0
4.17	44.0567883939704	0	1	0	1	0	44.0567883939704	0
4.18	44.1640110338057	0	1	0	1	0	44.1640110338057	0
4.19	44.2716870776949	0	1	0	1	0	44.2716870776949	0
4.2	44.3798155906465	0	1	0	1	0	44.3798155906465	0
4.21	44.4883956465525	0	1	0	1	0	44.4883956465525	0
4.22	44.5974263280833	0	1	0	1	0	44.5974263280833	0
4.23	44.7069067265837	0	1	0	1	0	44.7069067265837	0
4.24	44.8168359419707	0	1	0	1	0	44.8168359419707	0
4.25	44.9272130826327	0	1	0	1	0	44.9272130826327	0
4.26	45.0380372653301	0	1	0	1	0	45.0380372653301	0
4.27	45.1493076150972	0	1	0	1	0	45.1493076150972	0
4.28	45.2610232651455	0	1	0	1	0	45.2610232651455	0
4.29	45.3731833567684	0	1	0	1	0	45.3731833567684	0
4.3	45.4857870392474	0	1	0	1	0	45.4857870392474	0
4.31	45.5988334697591	0	1	0	1	0	45.5988334697591	0
4.32	45.7123218132844	0	1	0	1	0	45.7123218132844	0
4.33	45.8262512425175	0	1	0	1	0	45.8262512425175	0
4.34	45.9406209377779	0	1	0	1	0	45.9406209377779	0
4.35	46.0554300869222	0	1	0	1	0	46.0554300869222	0
4.36	46.170677885258	0	1	0	1	0	46.170677885258	0
4.37	46.2863635354585	0	1	0	1	0	46.2863635354585	0
4.38	46.4024862474783	0	1	0	1	0	46.4024862474783	0
4.39	46.5190452384706	0	1	0	1	0	46.5190452384706	0
4.4	46.6360397327056	0	1	0	1	0	46.6360397327056	0
4.41	46.7534689614892	0	1	0	1	0	46.7534689614892	0
4.42	46.8713321630843	0	1	0	1	0	46.8713321630843	0
4.43	46.9896285826314	0	1	0	1	0	46.9896285826314	0
4.44	47.1083574720717	0	1	0	1	0	47.1083574720717	0
4.45	47.2275180900706	0	1	0	1	0	47.2275180900706	0
4.46	47.3471097019419	0	1	0	1	0	47.3471097019419	0
4.47	47.4671315795743	0	1	0	1	0	47.4671315795743	0
4.48	47.587583001357	0	1	0	1	0	47.587583001357	0
4.49	47.7084632521081	0	1	0	1	0	47.7084632521081	0
4.5	47.8297716230027	0	1	0	1	0	47.8297716230027	0
4.51	47.9515074115028	0	1	0	1	0	47.9515074115028	0
4.52	48.0736699212873	0	1	0	1	0	48.0736699212873	0
4.53	48.1962584621838	0	1	0	1	0	48.1962584621838	0
4.54	48.3192723501008	0	1	0	1	0	48.3192723501008	0
4.55	48.4427109069605	0	1	0	1	0	48.4427109069605	0
4.56	48.5665734606334	0	1	0	1	0	48.5665734606334	0
4.57	48.6908593448729	0	1	0	1	0	48.6908593448729	0
4.58	48.8155678992511	0	1	0	1	0	48.8155678992511	0
4.59	48.9406984690954	0	1	0	1	0	48.9406984690954	0
4.6	49.0662504054262	0	1	0	1	0	49.0662504054262	0
4.61	49.192223064895	0	1	0	1	0	49.192223064895	0
4.62	49.318615809723	0	1	0	1	0	49.318615809723	0
4.63	49.4454280076419	0	1	0	1	0	49.4454280076419	0
4.64	49.5726590318335	0	1	0	1	0	49.5726590318335	0
4.65	49.700308260872	0	1	0	1	0	49.700308260872	0
4.66	49.8283750786655	0	1	0	1	0	49.8283750786655	0
4.67	49.9568588743992	0	1	0	1	0	49.9568588743992	0
4.68	50.0857590424788	0	1	0	1	0	50.0857590424788	0
4.69	50.2150749824751	0	1	0	1	0	50.2150749824751	0
4.7	50.3448060990691	0	1	0	1	0	50.3448060990691	0
4.71	50.4749518019972	0	1	0	1	0	50.4749518019972	0
4.72	50.6055115059984	0	1	0	1	0	50.6055115059984	0
4.73	50.7364846307608	0	1	0	1	0	50.7364846307608	0
4.74	50.8678706008697	0	1	0	1	0	50.8678706008697	0
4.75	50.9996688457562	0	1	0	1	0	50.9996688457562	0
4.76	51.1318787996458	0	1	0	1	0	51.1318787996458	0
4.77	51.2644999015087	0	1	0	1	0	51.2644999015087	0
4.78	51.3975315950097	0	1	0	1	0	51.3975315950097	0
4.79	51.5309733284595	0	1	0	1	0	51.5309733284595	0
4.8	51.6648245547663	0	1	0	1	0	51.6648245547663	0
4.81	51.7990847313877	0	1	0	1	0	51.7990847313877	0
4.82	51.9337533202839	0	1	0	1	0	51.9337533202839	0
4.83	52.0688297878709	0	1	0	1	0	52.0688297878709	0
4.84	52.2043136049745	0	1	0	1	0	52.2043136049745	0
4.85	52.3402042467846	0	1	0	1	0	52.3402042467846	0
4.86	52.4765011928109	0	1	0	1	0	52.4765011928109	0
4.87	52.6132039268378	0	1	0	1	0	52.6132039268378	0
4.88	52.7503119368813	0	1	0	1	0	52.7503119368813	0
4.89	52.8878247151452	0	1	0	1	0	52.8878247151452	0
4.9	53.0257417579787	0	1	0	1	0	53.0257417579787	0
4.91	53.1640625658338	0	1	0	1	0	53.1640625658338	0
4.92	53.3027866432243	0	1	0	1	0	53.3027866432243	0
