# GHZ S RI R 50
1	51.1657449994486	0	1	0	1	0	51.1657449994486	0
1.01	50.7475482069517	0	1	0	1	0	50.7475482069517	0
1.02	50.3388935883967	0	1	0	1	0	50.3388935883967	0
1.03	49.9395163768368	0	1	0	1	0	49.9395163768368	0
1.04	49.5491619886693	0	1	0	1	0	49.5491619886693	0
1.05	49.1675855387145	0	1	0	1	0	49.1675855387145	0
1.06	48.7945513827429	0	1	0	1	0	48.7945513827429	0
1.07	48.4298326856549	0	1	0	1	0	48.4298326856549	0
1.08	48.0732110136513	0	1	0	1	0	48.0732110136513	0
1.09	47.7244759488516	0	1	0	1	0	47.7244759488516	0
1.1	47.383424724935	0	1	0	1	0	47.383424724935	0
1.11	47.0498618824749	0	1	0	1	0	47.0498618824749	0
1.12	46.7235989427388	0	1	0	1	0	46.7235989427388	0
1.13	46.4044540988073	0	1	0	1	0	46.4044540988073	0
1.14	46.0922519229515	0	1	0	1	0	46.0922519229515	0
1.15	45.7868230892766	0	1	0	1	0	45.7868230892766	0
1.16	45.4880041107113	0	1	0	1	0	45.4880041107113	0
1.17	45.1956370894864	0	1	0	1	0	45.1956370894864	0
1.18	44.9095694802993	0	1	0	1	0	44.9095694802993	0
1.19	44.6296538654204	0	1	0	1	0	44.6296538654204	0
1.2	44.3557477410445	0	1	0	1	0	44.3557477410445	0
1.21	44.0877133142362	0	1	0	1	0	44.0877133142362	0
1.22	43.8254173098611	0	1	0	1	0	43.8254173098611	0
1.23	43.5687307869355	0	1	0	1	0	43.5687307869355	0
1.24	43.3175289638623	0	1	0	1	0	43.3175289638623	0
1.25	43.0716910520554	0	1	0	1	0	43.0716910520554	0
1.26	42.8311000974873	0	1	0	1	0	42.8311000974873	0
1.27	42.5956428297215	0	1	0	1	0	42.5956428297215	0
1.28	42.365209518023	0	1	0	1	0	42.365209518023	0
1.29	42.13969383416	0	1	0	1	0	42.13969383416	0
1.3	41.9189927215386	0	1	0	1	0	41.9189927215386	0
1.31	41.7030062703313	0	1	0	1	0	41.7030062703313	0
1.32	41.491637598281	0	1	0	1	0	41.491637598281	0
1.33	41.2847927368827	0	1	0	1	0	41.2847927368827	0
1.34	41.0823805226614	0	1	0	1	0	41.0823805226614	0
1.35	40.8843124932821	0	1	0	1	0	40.8843124932821	0
1.36	40.6905027882432	0	1	0	1	0	40.6905027882432	0
1.37	40.500868053919	0	1	0	1	0	40.500868053919	0
1.38	40.3153273527312	0	1	0	1	0	40.3153273527312	0
1.39	40.1338020762399	0	1	0	1	0	40.1338020762399	0
1.4	39.9562158619612	0	1	0	1	0	39.9562158619612	0
1.41	39.7824945137224	0	1	0	1	0	39.7824945137224	0
1.42	39.6125659253841	0	1	0	1	0	39.6125659253841	0
1.43	39.4463600077616	0	1	0	1	0	39.4463600077616	0
1.44	39.2838086185921	0	1	0	1	0	39.2838086185921	0
1.45	39.1248454953996	0	1	0	1	0	39.1248454953996	0
1.46	38.969406191118	0	1	0	1	0	38.969406191118	0
1.47	38.8174280123431	0	1	0	1	0	38.8174280123431	0
1.48	38.668849960087	0	1	0	1	0	38.668849960087	0
1.49	38.5236126729184	0	1	0	1	0	38.5236126729184	0
1.5	38.3816583723777	0	1	0	1	0	38.3816583723777	0
1.51	38.2429308105605	0	1	0	1	0	38.2429308105605	0
1.52	38.1073752197701	0	1	0	1	0	38.1073752197701	0
1.53	37.9749382641455	0	1	0	1	0	37.9749382641455	0
1.54	37.8455679931723	0	1	0	1	0	37.8455679931723	0
1.55	37.7192137969948	0	1	0	1	0	37.7192137969948	0
1.56	37.5958263634458	0	1	0	1	0	37.5958263634458	0
1.57	37.475357636719	0	1	0	1	0	37.475357636719	0
1.58	37.357760777611	0	1	0	1	0	37.357760777611	0
1.59	37.2429901252629	0	1	0	1	0	37.2429901252629	0
1.6	37.1310011603374	0	1	0	1	0	37.1310011603374	0
1.61	37.0217504695677	0	1	0	1	0	37.0217504695677	0
1.62	36.9151957116195	0	1	0	1	0	36.9151957116195	0
1.63	36.8112955842095	0	1	0	1	0	36.8112955842095	0
1.64	36.7100097924275	0	1	0	1	0	36.7100097924275	0
1.65	36.6112990182092	0	1	0	1	0	36.6112990182092	0
1.66	36.5151248909138	0	1	0	1	0	36.5151248909138	0
1.67	36.4214499589578	0	1	0	1	0	36.4214499589578	0
1.68	36.3302376624618	0	1	0	1	0	36.3302376624618	0
1.69	36.2414523068693	0	1	0	1	0	36.2414523068693	0
1.7	36.1550590374955	0	1	0	1	0	36.1550590374955	0
1.71	36.0710238149699	0	1	0	1	0	36.0710238149699	0
1.72	35.9893133915355	0	1	0	1	0	35.9893133915355	0
1.73	35.9098952881692	0	1	0	1	0	35.9098952881692	0
1.74	35.8327377724923	0	1	0	1	0	35.8327377724923	0
1.75	35.7578098374377	0	1	0	1	0	35.7578098374377	0
1.76	35.6850811806441	0	1	0	1	0	35.6850811806441	0
1.77	35.6145221845497	0	1	0	1	0	35.6145221845497	0
1.78	35.5461038971555	0	1	0	1	0	35.5461038971555	0
1.79	35.4797980134348	0	1	0	1	0	35.4797980134348	0
1.8	35.4155768573615	0	1	0	1	0	35.4155768573615	0
1.81	35.3534133645341	0	1	0	1	0	35.3534133645341	0
1.82	35.2932810653735	0	1	0	1	0	35.2932810653735	0
1.83	35.2351540688704	0	1	0	1	0	35.2351540688704	0
1.84	35.1790070468635	0	1	0	1	0	35.1790070468635	0
1.85	35.1248152188276	0	1	0	1	0	35.1248152188276	0
1.86	35.0725543371519	0	1	0	1	0	35.0725543371519	0
1.87	35.022200672891	0	1	0	1	0	35.022200672891	0
1.88	34.9737310019709	0	1	0	1	0	34.9737310019709	0
1.89	34.9271225918322	0	1	0	1	0	34.9271225918322	0
1.9	34.8823531884957	0	1	0	1	0	34.8823531884957	0
1.91	34.8394010040343	0	1	0	1	0	34.8394010040343	0
1.92	34.7982447044358	0	1	0	1	0	34.7982447044358	0
1.93	34.7588633978439	0	1	0	1	0	34.7588633978439	0
1.94	34.7212366231622	0	1	0	1	0	34.7212366231622	0
1.95	34.6853443390089	0	1	0	1	0	34.6853443390089	0
1.96	34.6511669130103	0	1	0	1	0	34.6511669130103	0
1.97	34.6186851114193	0	1	0	1	0	34.6186851114193	0
1.98	34.5878800890495	0	1	0	1	0	34.5878800890495	0
1.99	34.5587333795121	0	1	0	1	0	34.5587333795121	0
2	34.5312268857463	0	1	0	1	0	34.5312268857463	0
2.01	34.5053428708315	0	1	0	1	0	34.5053428708315	0
2.02	34.4810639490736	0	1	0	1	0	34.4810639490736	0
2.03	34.4583730773534	0	1	0	1	0	34.4583730773534	0
2.04	34.4372535467308	0	1	0	1	0	34.4372535467308	0
2.05	34.4176889742935	0	1	0	1	0	34.4176889742935	0
2.06	34.3996632952444	0	1	0	1	0	34.3996632952444	0
2.07	34.383160755217	0	1	0	1	0	34.383160755217	0
2.08	34.3681659028133	0	1	0	1	0	34.3681659028133	0
2.09	34.3546635823561	0	1	0	1	0	34.3546635823561	0
2.1	34.3426389268475	0	1	0	1	0	34.3426389268475	0
2.11	34.3320773511286	0	1	0	1	0	34.3320773511286	0
2.12	34.3229645452322	0	1	0	1	0	34.3229645452322	0
2.13	34.3152864679227	0	1	0	1	0	34.3152864679227	0
2.14	34.3090293404177	0	1	0	1	0	34.3090293404177	0
2.15	34.3041796402842	0	1	0	1	0	34.3041796402842	0
2.16	34.3007240955044	0	1	0	1	0	34.3007240955044	0
2.17	34.2986496787062	0	1	0	1	0	34.2986496787062	0
2.18	34.297943601552	0	1	0	1	0	34.297943601552	0
2.19	34.2985933092807	0	1	0	1	0	34.2985933092807	0
2.2	34.3005864754001	0	1	0	1	0	34.3005864754001	0
2.21	34.3039109965214	0	1	0	1	0	34.3039109965214	0
2.22	34.3085549873354	0	1	0	1	0	34.3085549873354	0
2.23	34.3145067757219	0	1	0	1	0	34.3145067757219	0
2.24	34.3217548979916	0	1	0	1	0	34.3217548979916	0
2.25	34.3302880942541	0	1	0	1	0	34.3302880942541	0
2.26	34.3400953039092	0	1	0	1	0	34.3400953039092	0
2.27	34.3511656612568	0	1	0	1	0	34.3511656612568	0
2.28	34.3634884912235	0	1	0	1	0	34.3634884912235	0
2.29	34.3770533051999	0	1	0	1	0	34.3770533051999	0
2.3	34.3918497969872	0	1	0	1	0	34.3918497969872	0
2.31	34.4078678388489	0	1	0	1	0	34.4078678388489	0
2.32	34.4250974776648	0	1	0	1	0	34.4250974776648	0
2.33	34.4435289311834	0	1	0	1	0	34.4435289311834	0
2.34	34.4631525843715	0	1	0	1	0	34.4631525843715	0
2.35	34.4839589858558	0	1	0	1	0	34.4839589858558	0
2.36	34.505938844456	0	1	0	1	0	34.505938844456	0
2.37	34.5290830258047	0	1	0	1	0	34.5290830258047	0
2.38	34.5533825490535	0	1	0	1	0	34.5533825490535	0
2.39	34.5788285836611	0	1	0	1	0	34.5788285836611	0
2.4	34.6054124462616	0	1	0	1	0	34.6054124462616	0
2.41	34.6331255976118	0	1	0	1	0	34.6331255976118	0
2.42	34.6619596396125	0	1	0	1	0	34.6619596396125	0
2.43	34.6919063124052	0	1	0	1	0	34.6919063124052	0
2.44	34.7229574915389	0	1	0	1	0	34.7229574915389	0
2.45	34.7551051852064	0	1	0	1	0	34.7551051852064	0
2.46	34.788341531549	0	1	0	1	0	34.788341531549	0
2.47	34.8226587960251	0	1	0	1	0	34.8226587960251	0
2.48	34.8580493688442	0	1	0	1	0	34.8580493688442	0
2.49	34.8945057624611	0	1	0	1	0	34.8945057624611	0
2.5	34.9320206091316	0	1	0	1	0	34.9320206091316	0
2.51	34.9705866585255	0	1	0	1	0	34.9705866585255	0
2.52	35.0101967753973	0	1	0	1	0	35.0101967753973	0
2.53	35.0508439373118	0	1	0	1	0	35.0508439373118	0
2.54	35.0925212324232	0	1	0	1	0	35.0925212324232	0
2.55	35.1352218573068	0	1	0	1	0	35.1352218573068	0
2.56	35.1789391148416	0	1	0	1	0	35.1789391148416	0
2.57	35.2236664121418	0	1	0	1	0	35.2236664121418	0
2.58	35.2693972585368	0	1	0	1	0	35.2693972585368	0
2.59	35.3161252635982	0	1	0	1	0	35.3161252635982	0
2.6	35.3638441352118	0	1	0	1	0	35.3638441352118	0
2.61	35.4125476776942	0	1	0	1	0	35.4125476776942	0
2.62	35.4622297899527	0	1	0	1	0	35.4622297899527	0
2.63	35.5128844636869	0	1	0	1	0	35.5128844636869	0
2.64	35.5645057816311	0	1	0	1	0	35.5645057816311	0
2.65	35.617087915837	0	1	0	1	0	35.617087915837	0
2.66	35.6706251259945	0	1	0	1	0	35.6706251259945	0
2.67	35.7251117577907	0	1	0	1	0	35.7251117577907	0
2.68	35.7805422413053	0	1	0	1	0	35.7805422413053	0
2.69	35.8369110894424	0	1	0	1	0	35.8369110894424	0
2.7	35.8942128963961	0	1	0	1	0	35.8942128963961	0
2.71	35.9524423361512	0	1	0	1	0	35.9524423361512	0
2.72	36.0115941610161	0	1	0	1	0	36.0115941610161	0
2.73	36.0716632001885	0	1	0	1	0	36.0716632001885	0
2.74	36.1326443583524	0	1	0	1	0	36.1326443583524	0
2.75	36.1945326143053	0	1	0	1	0	36.1945326143053	0
2.76	36.2573230196158	0	1	0	1	0	36.2573230196158	0
2.77	36.3210106973101	0	1	0	1	0	36.3210106973101	0
2.78	36.3855908405865	0	1	0	1	0	36.3855908405865	0
2.79	36.4510587115582	0	1	0	1	0	36.4510587115582	0
2.8	36.5174096400224	0	1	0	1	0	36.5174096400224	0
2.81	36.584639022256	0	1	0	1	0	36.584639022256	0
2.82	36.6527423198372	0	1	0	1	0	36.6527423198372	0
2.83	36.7217150584912	0	1	0	1	0	36.7217150584912	0
2.84	36.7915528269612	0	1	0	1	0	36.7915528269612	0
2.85	36.862251275903	0	1	0	1	0	36.862251275903	0
2.86	36.9338061168021	0	1	0	1	0	36.9338061168021	0
2.87	37.0062131209145	0	1	0	1	0	37.0062131209145	0
2.88	37.0794681182285	0	1	0	1	0	37.0794681182285	0
2.89	37.1535669964491	0	1	0	1	0	37.1535669964491	0
2.9	37.2285057000023	0	1	0	1	0	37.2285057000023	0
2.91	37.3042802290611	0	1	0	1	0	37.3042802290611	0
2.92	37.3808866385906	0	1	0	1	0	37.3808866385906	0
2.93	37.4583210374128	0	1	0	1	0	37.4583210374128	0
2.94	37.5365795872911	0	1	0	1	0	37.5365795872911	0
2.95	37.6156585020329	0	1	0	1	0	37.6156585020329	0
2.96	37.69555404661	0	1	0	1	0	37.69555404661	0
2.97	37.776262536298	0	1	0	1	0	37.776262536298	0
2.98	37.8577803358317	0	1	0	1	0	37.8577803358317	0
2.99	37.9401038585781	0	1	0	1	0	37.9401038585781	0
3	38.0232295657262	0	1	0	1	0	38.0232295657262	0
3.01	38.1071539654923	0	1	0	1	0	38.1071539654923	0
3.02	38.1918736123414	0	1	0	1	0	38.1918736123414	0
3.03	38.2773851062243	0	1	0	1	0	38.2773851062243	0
3.04	38.3636850918291	0	1	0	1	0	38.3636850918291	0
3.05	38.450770257848	0	1	0	1	0	38.450770257848	0
3.06	38.5386373362585	0	1	0	1	0	38.5386373362585	0
3.07	38.627283101618	0	1	0	1	0	38.627283101618	0
3.08	38.7167043703727	0	1	0	1	0	38.7167043703727	0
3.09	38.80689800018	0	1	0	1	0	38.80689800018	0
3.1	38.8978608892436	0	1	0	1	0	38.8978608892436	0
3.11	38.9895899756618	0	1	0	1	0	38.9895899756618	0
3.12	39.0820822367878	0	1	0	1	0	39.0820822367878	0
3.13	39.175334688603	0	1	0	1	0	39.175334688603	0
3.14	39.269344385102	0	1	0	1	0	39.269344385102	0
3.15	39.3641084176886	0	1	0	1	0	39.3641084176886	0
3.16	39.4596239145846	0	1	0	1	0	39.4596239145846	0
3.17	39.5558880402485	0	1	0	1	0	39.5558880402485	0
3.18	39.6528979948061	0	1	0	1	0	39.6528979948061	0
3.19	39.7506510134914	0	1	0	1	0	39.7506510134914	0
3.2	39.8491443660979	0	1	0	1	0	39.8491443660979	0
3.21	39.9483753564403	0	1	0	1	0	39.9483753564403	0
3.22	40.0483413218265	0	1	0	1	0	40.0483413218265	0
3.23	40.1490396325387	0	1	0	1	0	40.1490396325387	0
3.24	40.2504676913248	0	1	0	1	0	40.2504676913248	0
3.25	40.352622932899	0	1	0	1	0	40.352622932899	0
3.26	40.4555028234512	0	1	0	1	0	40.4555028234512	0
3.27	40.5591048601662	0	1	0	1	0	40.5591048601662	0
3.28	40.6634265707506	0	1	0	1	0	40.6634265707506	0
3.29	40.7684655129694	0	1	0	1	0	40.7684655129694	0
3.3	40.8742192741907	0	1	0	1	0	40.8742192741907	0
3.31	40.980685470938	0	1	0	1	0	40.980685470938	0
3.32	41.0878617484513	0	1	0	1	0	41.0878617484513	0
3.33	41.1957457802564	0	1	0	1	0	41.1957457802564	0
3.34	41.3043352677406	0	1	0	1	0	41.3043352677406	0
3.35	41.4136279397376	0	1	0	1	0	41.4136279397376	0
3.36	41.5236215521188	0	1	0	1	0	41.5236215521188	0
3.37	41.634313887392	0	1	0	1	0	41.634313887392	0
3.38	41.7457027543077	0	1	0	1	0	41.7457027543077	0
3.39	41.8577859874717	0	1	0	1	0	41.8577859874717	0
3.4	41.9705614469649	0	1	0	1	0	41.9705614469649	0
3.41	42.0840270179703	0	1	0	1	0	42.0840270179703	0
3.42	42.1981806104053	0	1	0	1	0	42.1981806104053	0
3.43	42.3130201585614	0	1	0	1	0	42.3130201585614	0
3.44	42.4285436207501	0	1	0	1	0	42.4285436207501	0
3.45	42.5447489789547	0	1	0	1	0	42.5447489789547	0
3.46	42.661634238488	0	1	0	1	0	42.661634238488	0
3.47	42.7791974276564	0	1	0	1	0	42.7791974276564	0
3.48	42.8974365974295	0	1	0	1	0	42.8974365974295	0
3.49	43.0163498211153	0	1	0	1	0	43.0163498211153	0
3.5	43.1359351940412	0	1	0	1	0	43.1359351940412	0
3.51	43.25619083324	0	1	0	1	0	43.25619083324	0
3.52	43.3771148771423	0	1	0	1	0	43.3771148771423	0
3.53	43.4987054852726	0	1	0	1	0	43.4987054852726	0
3.54	43.620960837952	0	1	0	1	0	43.620960837952	0
3.55	43.7438791360047	0	1	0	1	0	43.7438791360047	0
3.56	43.8674586004707	0	1	0	1	0	43.8674586004707	0
3.57	43.9916974723222	0	1	0	1	0	43.9916974723222	0
3.58	44.1165940121852	0	1	0	1	0	44.1165940121852	0
3.59	44.2421465000661	0	1	0	1	0	44.2421465000661	0
3.6	44.3683532350822	0	1	0	1	0	44.3683532350822	0
3.61	44.4952125351974	0	1	0	1	0	44.4952125351974	0
3.62	44.6227227369613	0	1	0	1	0	44.6227227369613	0
3.63	44.7508821952537	0	1	0	1	0	44.7508821952537	0
3.64	44.8796892830327	0	1	0	1	0	44.8796892830327	0
3.65	45.0091423910868	0	1	0	1	0	45.0091423910868	0
3.66	45.1392399277918	0	1	0	1	0	45.1392399277918	0
3.67	45.2699803188706	0	1	0	1	0	45.2699803188706	0
3.68	45.4013620071579	0	1	0	1	0	45.4013620071579	0
3.69	45.5333834523685	0	1	0	1	0	45.5333834523685	0
3.7	45.6660431308686	0	1	0	1	0	45.6660431308686	0
3.71	45.7993395354517	0	1	0	1	0	45.7993395354517	0
3.72	45.9332711751182	0	1	0	1	0	45.9332711751182	0
3.73	46.0678365748574	0	1	0	1	0	46.0678365748574	0
3.74	46.2030342754343	0	1	0	1	0	46.2030342754343	0
3.75	46.3388628331789	0	1	0	1	0	46.3388628331789	0
3.76	46.4753208197797	0	1	0	1	0	46.4753208197797	0
3.77	46.6124068220793	0	1	0	1	0	46.6124068220793	0
3.78	46.7501194418748	0	1	0	1	0	46.7501194418748	0
3.79	46.8884572957195	0	1	0	1	0	46.8884572957195	0
3.8	47.0274190147299	0	1	0	1	0	47.0274190147299	0
3.81	47.1670032443935	0	1	0	1	0	47.1670032443935	0
3.82	47.3072086443815	0	1	0	1	0	47.3072086443815	0
3.83	47.4480338883631	0	1	0	1	0	47.4480338883631	0
3.84	47.5894776638236	0	1	0	1	0	47.5894776638236	0
3.85	47.7315386718847	0	1	0	1	0	47.7315386718847	0
3.86	47.8742156271279	0	1	0	1	0	47.8742156271279	0
3.87	48.017507257421	0	1	0	1	0	48.017507257421	0
3.88	48.1614123037463	0	1	0	1	0	48.1614123037463	0
3.89	48.3059295200323	0	1	0	1	0	48.3059295200323	0
3.9	48.4510576729879	0	1	0	1	0	48.4510576729879	0
3.91	48.5967955419385	0	1	0	1	0	48.5967955419385	0
3.92	48.7431419186657	0	1	0	1	0	48.7431419186657	0
3.93	48.8900956072483	0	1	0	1	0	48.8900956072483	0
3.94	49.0376554239063	0	1	0	1	0	49.0376554239063	0
3.95	49.1858201968477	0	1	0	1	0	49.1858201968477	0
3.96	49.3345887661165	0	1	0	1	0	49.3345887661165	0
3.97	49.483959983444	0	1	0	1	0	49.483959983444	0
3.98	49.6339327121019	0	1	0	1	0	49.6339327121019	0
3.99	49.7845058267576	0	1	0	1	0	49.7845058267576	0
4	49.935678213332	0	1	0	1	0	49.935678213332	0
4.01	50.0874487688588	0	1	0	1	0	50.0874487688588	0
4.02	50.2398164013466	0	1	0	1	0	50.2398164013466	0
4.03	50.3927800296426	0	1	0	1	0	50.3927800296426	0
4.04	50.5463385832985	0	1	0	1	0	50.5463385832985	0
4.05	50.7004910024384	0	1	0	1	0	50.7004910024384	0
4.06	50.8552362376284	0	1	0	1	0	50.8552362376284	0
4.07	51.0105732497484	0	1	0	1	0	51.0105732497484	0
4.08	51.1665010098659	0	1	0	1	0	51.1665010098659	0
4.09	51.3230184991113	0	1	0	1	0	51.3230184991113	0
4.1	51.4801247085551	0	1	0	1	0	51.4801247085551	0
4.11	51.6378186390872	0	1	0	1	0	51.6378186390872	0
4.12	51.7960993012973	0	1	0	1	0	51.7960993012973	0
4.13	51.9549657153582	0	1	0	1	0	51.9549657153582	0
4.14	52.1144169109094	0	1	0	1	0	52.1144169109094	0
4.15	52.2744519269431	0	1	0	1	0	52.2744519269431	0
4.16	52.4350698116922	0	1	0	1	0	52.4350698116922	0
4.17	52.5962696225193	0	1	0	1	0	52.5962696225193	0
4.18	52.7580504258073	0	1	0	1	0	52.7580504258073	0
4.19	52.9204112968519	0	1	0	1	0	52.9204112968519	0
4.2	53.0833513197556	0	1	0	1	0	53.0833513197556	0
4.21	53.2468695873231	0	1	0	1	0	53.2468695873231	0
4.22	53.4109652009578	0	1	0	1	0	53.4109652009578	0
4.23	53.5756372705608	0	1	0	1	0	53.5756372705608	0
4.24	53.7408849144302	0	1	0	1	0	53.7408849144302	0
4.25	53.9067072591624	0	1	0	1	0	53.9067072591624	0
4.26	54.0731034395549	0	1	0	1	0	54.0731034395549	0
4.27	54.2400725985102	0	1	0	1	0	54.2400725985102	0
4.28	54.4076138869409	0	1	0	1	0	54.4076138869409	0
4.29	54.5757264636766	0	1	0	1	0	54.5757264636766	0
4.3	54.7444094953716	0	1	0	1	0	54.7444094953716	0
4.31	54.9136621564144	0	1	0	1	0	54.9136621564144	0
4.32	55.0834836288381	0	1	0	1	0	55.0834836288381	0
4.33	55.2538731022319	0	1	0	1	0	55.2538731022319	0
4.34	55.4248297736544	0	1	0	1	0	55.4248297736544	0
4.35	55.5963528475474	0	1	0	1	0	55.5963528475474	0
4.36	55.7684415356516	0	1	0	1	0	55.7684415356516	0
4.37	55.9410950569227	0	1	0	1	0	55.9410950569227	0
4.38	56.1143126374493	0	1	0	1	0	56.1143126374493	0
4.39	56.2880935103716	0	1	0	1	0	56.2880935103716	0
4.4	56.4624369158012	0	1	0	1	0	56.4624369158012	0
4.41	56.6373421007422	0	1	0	1	0	56.6373421007422	0
4.42	56.8128083190131	0	1	0	1	0	56.8128083190131	0
4.43	56.9888348311699	0	1	0	1	0	56.9888348311699	0
4.44	57.1654209044303	0	1	0	1	0	57.1654209044303	0
4.45	57.3425658125987	0	1	0	1	0	57.3425658125987	0
4.46	57.5202688359927	0	1	0	1	0	57.5202688359927	0
4.47	57.6985292613697	0	1	0	1	0	57.6985292613697	0
4.48	57.8773463818557	0	1	0	1	0	57.8773463818557	0
4.49	58.0567194968736	0	1	0	1	0	58.0567194968736	0
4.5	58.236647912074	0	1	0	1	0	58.236647912074	0
4.51	58.4171309392656	0	1	0	1	0	58.4171309392656	0
4.52	58.5981678963475	0	1	0	1	0	58.5981678963475	0
4.53	58.7797581072416	0	1	0	1	0	58.7797581072416	0
4.54	58.9619009018263	0	1	0	1	0	58.9619009018263	0
4.55	59.1445956158716	0	1	0	1	0	59.1445956158716	0
4.56	59.3278415909737	0	1	0	1	0	59.3278415909737	0
4.57	59.5116381744917	0	1	0	1	0	59.5116381744917	0
4.58	59.6959847194848	0	1	0	1	0	59.6959847194848	0
4.59	59.8808805846498	0	1	0	1	0	59.8808805846498	0
4.6	60.0663251342603	0	1	0	1	0	60.0663251342603	0
4.61	60.2523177381057	0	1	0	1	0	60.2523177381057	0
4.62	60.438857771432	0	1	0	1	0	60.438857771432	0
4.63	60.6259446148825	0	1	0	1	0	60.6259446148825	0
4.64	60.8135776544398	0	1	0	1	0	60.8135776544398	0
4.65	61.0017562813683	0	1	0	1	0	61.0017562813683	0
4.66	61.1904798921578	0	1	0	1	0	61.1904798921578	0
4.67	61.3797478884673	0	1	0	1	0	61.3797478884673	0
4.68	61.5695596770696	0	1	0	1	0	61.5695596770696	0
4.69	61.7599146697973	0	1	0	1	0	61.7599146697973	0
4.7	61.9508122834885	0	1	0	1	0	61.9508122834885	0
4.71	62.1422519399338	0	1	0	1	0	62.1422519399338	0
4.72	62.3342330658242	0	1	0	1	0	62.3342330658242	0
4.73	62.5267550926986	0	1	0	1	0	62.5267550926986	0
4.74	62.7198174568932	0	1	0	1	0	62.7198174568932	0
4.75	62.9134195994909	0	1	0	1	0	62.9134195994909	0
4.76	63.1075609662712	0	1	0	1	0	63.1075609662712	0
4.77	63.3022410076614	0	1	0	1	0	63.3022410076614	0
4.78	63.4974591786875	0	1	0	1	0	63.4974591786875	0
4.79	63.6932149389266	0	1	0	1	0	63.6932149389266	0
4.8	63.8895077524593	0	1	0	1	0	63.8895077524593	0
4.81	64.0863370878228	0	1	0	1	0	64.0863370878228	0
4.82	64.2837024179648	0	1	0	1	0	64.2837024179648	0
4.83	64.481603220198	0	1	0	1	0	64.481603220198	0
4.84	64.6800389761546	0	1	0	1	0	64.6800389761546	0
4.85	64.8790091717422	0	1	0	1	0	64.8790091717422	0
4.86	65.0785132970994	0	1	0	1	0	65.0785132970994	0
4.87	65.2785508465527	0	1	0	1	0	65.2785508465527	0
4.88	65.4791213185736	0	1	0	1	0	65.4791213185736	0
4.89	65.6802242157357	0	1	0	1	0	65.6802242157357	0
4.9	65.8818590446737	0	1	0	1	0	65.8818590446737	0
4.91	66.0840253160411	0	1	0	1	0	66.0840253160411	0
4.92	66.2867225444702	0	1	0	1	0	66.2867225444702	0
4.93	66.4899502485312	0	1	0	1	0	66.4899502485312	0
