# GHZ S RI R 50
1	58.4916806406693	0	1	0	1	0	58.4916806406693	0
1.01	58.0094896537567	0	1	0	1	0	58.0094896537567	0
1.02	57.5380051832943	0	1	0	1	0	57.5380051832943	0
1.03	57.07692766264	0	1	0	1	0	57.07692766264	0
1.04	56.6259690469452	0	1	0	1	0	56.6259690469452	0
1.05	56.1848522644986	0	1	0	1	0	56.1848522644986	0
1.06	55.7533106991253	0	1	0	1	0	55.7533106991253	0
1.07	55.3310877016099	0	1	0	1	0	55.3310877016099	0
1.08	54.9179361282637	0	1	0	1	0	54.9179361282637	0
1.09	54.5136179048912	0	1	0	1	0	54.5136179048912	0
1.1	54.1179036145402	0	1	0	1	0	54.1179036145402	0
1.11	53.7305721075361	0	1	0	1	0	53.7305721075361	0
1.12	53.3514101324071	0	1	0	1	0	53.3514101324071	0
1.13	52.980211986406	0	1	0	1	0	52.980211986406	0
1.14	52.6167791844258	0	1	0	1	0	52.6167791844258	0
1.15	52.2609201451893	0	1	0	1	0	52.2609201451893	0
1.16	51.9124498936703	0	1	0	1	0	51.9124498936703	0
1.17	51.5711897787751	0	1	0	1	0	51.5711897787751	0
1.18	51.2369672053792	0	1	0	1	0	51.2369672053792	0
1.19	50.9096153798751	0	1	0	1	0	50.9096153798751	0
1.2	50.5889730684421	0	1	0	1	0	50.5889730684421	0
1.21	50.274884367303	0	1	0	1	0	50.274884367303	0
1.22	49.96719848428	0	1	0	1	0	49.96719848428	0
1.23	49.6657695310061	0	1	0	1	0	49.6657695310061	0
1.24	49.3704563251903	0	1	0	1	0	49.3704563251903	0
1.25	49.0811222023753	0	1	0	1	0	49.0811222023753	0
1.26	48.7976348366578	0	1	0	1	0	48.7976348366578	0
1.27	48.5198660698794	0	1	0	1	0	48.5198660698794	0
1.28	48.2476917488244	0	1	0	1	0	48.2476917488244	0
1.29	47.9809915699889	0	1	0	1	0	47.9809915699889	0
1.3	47.7196489315156	0	1	0	1	0	47.7196489315156	0
1.31	47.463550791909	0	1	0	1	0	47.463550791909	0
1.32	47.2125875351736	0	1	0	1	0	47.2125875351736	0
1.33	46.9666528420355	0	1	0	1	0	46.9666528420355	0
1.34	46.7256435669305	0	1	0	1	0	46.7256435669305	0
1.35	46.4894596204594	0	1	0	1	0	46.4894596204594	0
1.36	46.2580038570285	0	1	0	1	0	46.2580038570285	0
1.37	46.0311819674122	0	1	0	1	0	46.0311819674122	0
1.38	45.8089023759854	0	1	0	1	0	45.8089023759854	0
1.39	45.5910761423929	0	1	0	1	0	45.5910761423929	0
1.4	45.3776168674324	0	1	0	1	0	45.3776168674324	0
1.41	45.1684406029429	0	1	0	1	0	45.1684406029429	0
1.42	44.9634657655002	0	1	0	1	0	44.9634657655002	0
1.43	44.7626130537342	0	1	0	1	0	44.7626130537342	0
1.44	44.5658053690902	0	1	0	1	0	44.5658053690902	0
1.45	44.3729677398707	0	1	0	1	0	44.3729677398707	0
1.46	44.1840272483968	0	1	0	1	0	44.1840272483968	0
1.47	43.9989129611445	0	1	0	1	0	43.9989129611445	0
1.48	43.8175558617119	0	1	0	1	0	43.8175558617119	0
1.49	43.6398887864864	0	1	0	1	0	43.6398887864864	0
1.5	43.4658463628852	0	1	0	1	0	43.4658463628852	0
1.51	43.2953649500495	0	1	0	1	0	43.2953649500495	0
1.52	43.1283825818798	0	1	0	1	0	43.1283825818798	0
1.53	42.9648389123055	0	1	0	1	0	42.9648389123055	0
1.54	42.8046751626864	0	1	0	1	0	42.8046751626864	0
1.55	42.6478340712504	0	1	0	1	0	42.6478340712504	0
1.56	42.4942598444759	0	1	0	1	0	42.4942598444759	0
1.57	42.3438981103323	0	1	0	1	0	42.3438981103323	0
1.58	42.1966958732963	0	1	0	1	0	42.1966958732963	0
1.59	42.0526014710651	0	1	0	1	0	42.0526014710651	0
1.6	41.9115645328935	0	1	0	1	0	41.9115645328935	0
1.61	41.7735359394836	0	1	0	1	0	41.7735359394836	0
1.62	41.6384677843593	0	1	0	1	0	41.6384677843593	0
1.63	41.5063133366638	0	1	0	1	0	41.5063133366638	0
1.64	41.3770270053173	0	1	0	1	0	41.3770270053173	0
1.65	41.2505643044782	0	1	0	1	0	41.2505643044782	0
1.66	41.1268818202529	0	1	0	1	0	41.1268818202529	0
1.67	41.0059371786016	0	1	0	1	0	41.0059371786016	0
1.68	40.8876890143902	0	1	0	1	0	40.8876890143902	0
1.69	40.772096941541	0	1	0	1	0	40.772096941541	0
1.7	40.6591215242369	0	1	0	1	0	40.6591215242369	0
1.71	40.5487242491361	0	1	0	1	0	40.5487242491361	0
1.72	40.440867498556	0	1	0	1	0	40.440867498556	0
1.73	40.3355145245869	0	1	0	1	0	40.3355145245869	0
1.74	40.2326294240986	0	1	0	1	0	40.2326294240986	0
1.75	40.1321771146041	0	1	0	1	0	40.1321771146041	0
1.76	40.0341233109453	0	1	0	1	0	40.0341233109453	0
1.77	39.9384345027702	0	1	0	1	0	39.9384345027702	0
1.78	39.8450779327684	0	1	0	1	0	39.8450779327684	0
1.79	39.7540215756363	0	1	0	1	0	39.7540215756363	0
1.8	39.6652341177439	0	1	0	1	0	39.6652341177439	0
1.81	39.5786849374748	0	1	0	1	0	39.5786849374748	0
1.82	39.4943440862155	0	1	0	1	0	39.4943440862155	0
1.83	39.4121822699669	0	1	0	1	0	39.4121822699669	0
1.84	39.3321708315559	0	1	0	1	0	39.3321708315559	0
1.85	39.254281733424	0	1	0	1	0	39.254281733424	0
1.86	39.178487540971	0	1	0	1	0	39.178487540971	0
1.87	39.1047614064329	0	1	0	1	0	39.1047614064329	0
1.88	39.0330770532749	0	1	0	1	0	39.0330770532749	0
1.89	38.9634087610792	0	1	0	1	0	38.9634087610792	0
1.9	38.8957313509107	0	1	0	1	0	38.8957313509107	0
1.91	38.8300201711415	0	1	0	1	0	38.8300201711415	0
1.92	38.7662510837196	0	1	0	1	0	38.7662510837196	0
1.93	38.7044004508634	0	1	0	1	0	38.7044004508634	0
1.94	38.6444451221681	0	1	0	1	0	38.6444451221681	0
1.95	38.5863624221092	0	1	0	1	0	38.5863624221092	0
1.96	38.5301301379279	0	1	0	1	0	38.5301301379279	0
1.97	38.4757265078859	0	1	0	1	0	38.4757265078859	0
1.98	38.423130209876	0	1	0	1	0	38.423130209876	0
1.99	38.3723203503761	0	1	0	1	0	38.3723203503761	0
2	38.3232764537344	0	1	0	1	0	38.3232764537344	0
2.01	38.2759784517749	0	1	0	1	0	38.2759784517749	0
2.02	38.2304066737112	0	1	0	1	0	38.2304066737112	0
2.03	38.1865418363586	0	1	0	1	0	38.1865418363586	0
2.04	38.1443650346339	0	1	0	1	0	38.1443650346339	0
2.05	38.1038577323339	0	1	0	1	0	38.1038577323339	0
2.06	38.0650017531814	0	1	0	1	0	38.0650017531814	0
2.07	38.0277792721316	0	1	0	1	0	38.0277792721316	0
2.08	37.9921728069293	0	1	0	1	0	37.9921728069293	0
2.09	37.9581652099076	0	1	0	1	0	37.9581652099076	0
2.1	37.9257396600221	0	1	0	1	0	37.9257396600221	0
2.11	37.8948796551105	0	1	0	1	0	37.8948796551105	0
2.12	37.8655690043722	0	1	0	1	0	37.8655690043722	0
2.13	37.8377918210592	0	1	0	1	0	37.8377918210592	0
2.14	37.811532515372	0	1	0	1	0	37.811532515372	0
2.15	37.786775787554	0	1	0	1	0	37.786775787554	0
2.16	37.7635066211772	0	1	0	1	0	37.7635066211772	0
2.17	37.7417102766143	0	1	0	1	0	37.7417102766143	0
2.18	37.7213722846899	0	1	0	1	0	37.7213722846899	0
2.19	37.7024784405056	0	1	0	1	0	37.7024784405056	0
2.2	37.6850147974341	0	1	0	1	0	37.6850147974341	0
2.21	37.6689676612755	0	1	0	1	0	37.6689676612755	0
2.22	37.6543235845725	0	1	0	1	0	37.6543235845725	0
2.23	37.6410693610776	0	1	0	1	0	37.6410693610776	0
2.24	37.6291920203692	0	1	0	1	0	37.6291920203692	0
2.25	37.618678822611	0	1	0	1	0	37.618678822611	0
2.26	37.6095172534505	0	1	0	1	0	37.6095172534505	0
2.27	37.6016950190525	0	1	0	1	0	37.6016950190525	0
2.28	37.595200041263	0	1	0	1	0	37.595200041263	0
2.29	37.5900204529002	0	1	0	1	0	37.5900204529002	0
2.3	37.5861445931681	0	1	0	1	0	37.5861445931681	0
2.31	37.5835610031891	0	1	0	1	0	37.5835610031891	0
2.32	37.5822584216526	0	1	0	1	0	37.5822584216526	0
2.33	37.5822257805753	0	1	0	1	0	37.5822257805753	0
2.34	37.5834522011698	0	1	0	1	0	37.5834522011698	0
2.35	37.5859269898201	0	1	0	1	0	37.5859269898201	0
2.36	37.5896396341574	0	1	0	1	0	37.5896396341574	0
2.37	37.5945797992373	0	1	0	1	0	37.5945797992373	0
2.38	37.6007373238117	0	1	0	1	0	37.6007373238117	0
2.39	37.6081022166951	0	1	0	1	0	37.6081022166951	0
2.4	37.6166646532221	0	1	0	1	0	37.6166646532221	0
2.41	37.6264149717921	0	1	0	1	0	37.6264149717921	0
2.42	37.6373436705003	0	1	0	1	0	37.6373436705003	0
2.43	37.649441403852	0	1	0	1	0	37.649441403852	0
2.44	37.6626989795572	0	1	0	1	0	37.6626989795572	0
2.45	37.6771073554043	0	1	0	1	0	37.6771073554043	0
2.46	37.6926576362094	0	1	0	1	0	37.6926576362094	0
2.47	37.7093410708401	0	1	0	1	0	37.7093410708401	0
2.48	37.7271490493114	0	1	0	1	0	37.7271490493114	0
2.49	37.7460730999513	0	1	0	1	0	37.7460730999513	0
2.5	37.7661048866346	0	1	0	1	0	37.7661048866346	0
2.51	37.7872362060825	0	1	0	1	0	37.7872362060825	0
2.52	37.8094589852271	0	1	0	1	0	37.8094589852271	0
2.53	37.8327652786382	0	1	0	1	0	37.8327652786382	0
2.54	37.85714726601	0	1	0	1	0	37.85714726601	0
2.55	37.8825972497086	0	1	0	1	0	37.8825972497086	0
2.56	37.9091076523753	0	1	0	1	0	37.9091076523753	0
2.57	37.9366710145872	0	1	0	1	0	37.9366710145872	0
2.58	37.9652799925711	0	1	0	1	0	37.9652799925711	0
2.59	37.9949273559714	0	1	0	1	0	37.9949273559714	0
2.6	38.0256059856687	0	1	0	1	0	38.0256059856687	0
2.61	38.0573088716487	0	1	0	1	0	38.0573088716487	0
2.62	38.0900291109204	0	1	0	1	0	38.0900291109204	0
2.63	38.1237599054811	0	1	0	1	0	38.1237599054811	0
2.64	38.1584945603284	0	1	0	1	0	38.1584945603284	0
2.65	38.1942264815162	0	1	0	1	0	38.1942264815162	0
2.66	38.2309491742558	0	1	0	1	0	38.2309491742558	0
2.67	38.2686562410585	0	1	0	1	0	38.2686562410585	0
2.68	38.3073413799205	0	1	0	1	0	38.3073413799205	0
2.69	38.3469983825482	0	1	0	1	0	38.3469983825482	0
2.7	38.3876211326228	0	1	0	1	0	38.3876211326228	0
2.71	38.429203604103	0	1	0	1	0	38.429203604103	0
2.72	38.471739859566	0	1	0	1	0	38.471739859566	0
2.73	38.5152240485841	0	1	0	1	0	38.5152240485841	0
2.74	38.5596504061372	0	1	0	1	0	38.5596504061372	0
2.75	38.6050132510603	0	1	0	1	0	38.6050132510603	0
2.76	38.6513069845239	0	1	0	1	0	38.6513069845239	0
2.77	38.6985260885481	0	1	0	1	0	38.6985260885481	0
2.78	38.7466651245485	0	1	0	1	0	38.7466651245485	0
2.79	38.7957187319129	0	1	0	1	0	38.7957187319129	0
2.8	38.8456816266097	0	1	0	1	0	38.8456816266097	0
2.81	38.8965485998246	0	1	0	1	0	38.8965485998246	0
2.82	38.9483145166272	0	1	0	1	0	38.9483145166272	0
2.83	39.0009743146657	0	1	0	1	0	39.0009743146657	0
2.84	39.0545230028889	0	1	0	1	0	39.0545230028889	0
2.85	39.1089556602956	0	1	0	1	0	39.1089556602956	0
2.86	39.1642674347096	0	1	0	1	0	39.1642674347096	0
2.87	39.2204535415811	0	1	0	1	0	39.2204535415811	0
2.88	39.2775092628121	0	1	0	1	0	39.2775092628121	0
2.89	39.3354299456072	0	1	0	1	0	39.3354299456072	0
2.9	39.3942110013475	0	1	0	1	0	39.3942110013475	0
2.91	39.4538479044877	0	1	0	1	0	39.4538479044877	0
2.92	39.5143361914764	0	1	0	1	0	39.5143361914764	0
2.93	39.5756714596982	0	1	0	1	0	39.5756714596982	0
2.94	39.6378493664369	0	1	0	1	0	39.6378493664369	0
2.95	39.7008656278609	0	1	0	1	0	39.7008656278609	0
2.96	39.764716018028	0	1	0	1	0	39.764716018028	0
2.97	39.8293963679111	0	1	0	1	0	39.8293963679111	0
2.98	39.8949025644433	0	1	0	1	0	39.8949025644433	0
2.99	39.961230549582	0	1	0	1	0	39.961230549582	0
3	40.0283763193916	0	1	0	1	0	40.0283763193916	0
3.01	40.0963359231452	0	1	0	1	0	40.0963359231452	0
3.02	40.1651054624433	0	1	0	1	0	40.1651054624433	0
3.03	40.2346810903504	0	1	0	1	0	40.2346810903504	0
3.04	40.3050590105487	0	1	0	1	0	40.3050590105487	0
3.05	40.376235476508	0	1	0	1	0	40.376235476508	0
3.06	40.4482067906725	0	1	0	1	0	40.4482067906725	0
3.07	40.520969303663	0	1	0	1	0	40.520969303663	0
3.08	40.5945194134947	0	1	0	1	0	40.5945194134947	0
3.09	40.6688535648106	0	1	0	1	0	40.6688535648106	0
3.1	40.7439682481292	0	1	0	1	0	40.7439682481292	0
3.11	40.8198599991069	0	1	0	1	0	40.8198599991069	0
3.12	40.8965253978151	0	1	0	1	0	40.8965253978151	0
3.13	40.97396106803	0	1	0	1	0	40.97396106803	0
3.14	41.0521636765372	0	1	0	1	0	41.0521636765372	0
3.15	41.1311299324489	0	1	0	1	0	41.1311299324489	0
3.16	41.2108565865338	0	1	0	1	0	41.2108565865338	0
3.17	41.2913404305608	0	1	0	1	0	41.2913404305608	0
3.18	41.3725782966536	0	1	0	1	0	41.3725782966536	0
3.19	41.4545670566585	0	1	0	1	0	41.4545670566585	0
3.2	41.5373036215239	0	1	0	1	0	41.5373036215239	0
3.21	41.6207849406909	0	1	0	1	0	41.6207849406909	0
3.22	41.7050080014958	0	1	0	1	0	41.7050080014958	0
3.23	41.7899698285833	0	1	0	1	0	41.7899698285833	0
3.24	41.8756674833312	0	1	0	1	0	41.8756674833312	0
3.25	41.9620980632846	0	1	0	1	0	41.9620980632846	0
3.26	42.0492587016017	0	1	0	1	0	42.0492587016017	0
3.27	42.1371465665092	0	1	0	1	0	42.1371465665092	0
3.28	42.2257588607675	0	1	0	1	0	42.2257588607675	0
3.29	42.3150928211459	0	1	0	1	0	42.3150928211459	0
3.3	42.4051457179077	0	1	0	1	0	42.4051457179077	0
3.31	42.4959148543036	0	1	0	1	0	42.4959148543036	0
3.32	42.5873975660755	0	1	0	1	0	42.5873975660755	0
3.33	42.6795912209683	0	1	0	1	0	42.6795912209683	0
3.34	42.772493218251	0	1	0	1	0	42.772493218251	0
3.35	42.866100988246	0	1	0	1	0	42.866100988246	0
3.36	42.9604119918672	0	1	0	1	0	42.9604119918672	0
3.37	43.055423720166	0	1	0	1	0	43.055423720166	0
3.38	43.1511336938853	0	1	0	1	0	43.1511336938853	0
3.39	43.247539463022	0	1	0	1	0	43.247539463022	0
3.4	43.3446386063966	0	1	0	1	0	43.3446386063966	0
3.41	43.4424287312303	0	1	0	1	0	43.4424287312303	0
3.42	43.5409074727303	0	1	0	1	0	43.5409074727303	0
3.43	43.6400724936813	0	1	0	1	0	43.6400724936813	0
3.44	43.7399214840451	0	1	0	1	0	43.7399214840451	0
3.45	43.8404521605664	0	1	0	1	0	43.8404521605664	0
3.46	43.9416622663861	0	1	0	1	0	43.9416622663861	0
3.47	44.0435495706606	0	1	0	1	0	44.0435495706606	0
3.48	44.1461118681883	0	1	0	1	0	44.1461118681883	0
3.49	44.2493469790419	0	1	0	1	0	44.2493469790419	0
3.5	44.353252748208	0	1	0	1	0	44.353252748208	0
3.51	44.4578270452313	0	1	0	1	0	44.4578270452313	0
3.52	44.5630677638663	0	1	0	1	0	44.5630677638663	0
3.53	44.6689728217347	0	1	0	1	0	44.6689728217347	0
3.54	44.7755401599873	0	1	0	1	0	44.7755401599873	0
3.55	44.8827677429736	0	1	0	1	0	44.8827677429736	0
3.56	44.9906535579156	0	1	0	1	0	44.9906535579156	0
3.57	45.0991956145871	0	1	0	1	0	45.0991956145871	0
3.58	45.2083919449994	0	1	0	1	0	45.2083919449994	0
3.59	45.3182406030912	0	1	0	1	0	45.3182406030912	0
3.6	45.4287396644239	0	1	0	1	0	45.4287396644239	0
3.61	45.5398872258824	0	1	0	1	0	45.5398872258824	0
3.62	45.6516814053807	0	1	0	1	0	45.6516814053807	0
3.63	45.7641203415718	0	1	0	1	0	45.7641203415718	0
3.64	45.8772021935632	0	1	0	1	0	45.8772021935632	0
3.65	45.9909251406364	0	1	0	1	0	45.9909251406364	0
3.66	46.1052873819717	0	1	0	1	0	46.1052873819717	0
3.67	46.2202871363767	0	1	0	1	0	46.2202871363767	0
3.68	46.3359226420198	0	1	0	1	0	46.3359226420198	0
3.69	46.4521921561679	0	1	0	1	0	46.4521921561679	0
3.7	46.5690939549281	0	1	0	1	0	46.5690939549281	0
3.71	46.6866263329943	0	1	0	1	0	46.6866263329943	0
3.72	46.8047876033966	0	1	0	1	0	46.8047876033966	0
3.73	46.9235760972563	0	1	0	1	0	46.9235760972563	0
3.74	47.0429901635433	0	1	0	1	0	47.0429901635433	0
3.75	47.1630281688389	0	1	0	1	0	47.1630281688389	0
3.76	47.2836884971008	0	1	0	1	0	47.2836884971008	0
3.77	47.4049695494333	0	1	0	1	0	47.4049695494333	0
3.78	47.5268697438602	0	1	0	1	0	47.5268697438602	0
3.79	47.6493875151015	0	1	0	1	0	47.6493875151015	0
3.8	47.7725213143538	0	1	0	1	0	47.7725213143538	0
3.81	47.8962696090744	0	1	0	1	0	47.8962696090744	0
3.82	48.0206308827679	0	1	0	1	0	48.0206308827679	0
3.83	48.145603634777	0	1	0	1	0	48.145603634777	0
3.84	48.2711863800764	0	1	0	1	0	48.2711863800764	0
3.85	48.3973776490693	0	1	0	1	0	48.3973776490693	0
3.86	48.5241759873884	0	1	0	1	0	48.5241759873884	0
3.87	48.651579955698	0	1	0	1	0	48.651579955698	0
3.88	48.7795881295016	0	1	0	1	0	48.7795881295016	0
3.89	48.9081990989498	0	1	0	1	0	48.9081990989498	0
3.9	49.0374114686537	0	1	0	1	0	49.0374114686537	0
3.91	49.1672238574992	0	1	0	1	0	49.1672238574992	0
3.92	49.2976348984653	0	1	0	1	0	49.2976348984653	0
3.93	49.4286432384448	0	1	0	1	0	49.4286432384448	0
3.94	49.5602475380674	0	1	0	1	0	49.5602475380674	0
3.95	49.6924464715261	0	1	0	1	0	49.6924464715261	0
3.96	49.8252387264062	0	1	0	1	0	49.8252387264062	0
3.97	49.9586230035158	0	1	0	1	0	49.9586230035158	0
3.98	50.0925980167207	0	1	0	1	0	50.0925980167207	0
3.99	50.2271624927799	0	1	0	1	0	50.2271624927799	0
4	50.3623151711851	0	1	0	1	0	50.3623151711851	0
4.01	50.4980548040013	0	1	0	1	0	50.4980548040013	0
4.02	50.6343801557112	0	1	0	1	0	50.6343801557112	0
4.03	50.7712900030605	0	1	0	1	0	50.7712900030605	0
4.04	50.9087831349061	0	1	0	1	0	50.9087831349061	0
4.05	51.0468583520671	0	1	0	1	0	51.0468583520671	0
4.06	51.1855144671771	0	1	0	1	0	51.1855144671771	0
4.07	51.3247503045393	0	1	0	1	0	51.3247503045393	0
4.08	51.4645646999829	0	1	0	1	0	51.4645646999829	0
4.09	51.6049565007232	0	1	0	1	0	51.6049565007232	0
4.1	51.7459245652218	0	1	0	1	0	51.7459245652218	0
4.11	51.8874677630502	0	1	0	1	0	51.8874677630502	0
4.12	52.0295849747551	0	1	0	1	0	52.0295849747551	0
4.13	52.1722750917252	0	1	0	1	0	52.1722750917252	0
4.14	52.3155370160605	0	1	0	1	0	52.3155370160605	0
4.15	52.4593696604432	0	1	0	1	0	52.4593696604432	0
4.16	52.6037719480104	0	1	0	1	0	52.6037719480104	0
4.17	52.7487428122288	0	1	0	1	0	52.7487428122288	0
4.18	52.8942811967713	0	1	0	1	0	52.8942811967713	0
4.19	53.040386055395	0	1	0	1	0	53.040386055395	0
4.2	53.187056351821	0	1	0	1	0	53.187056351821	0
4.21	53.3342910596167	0	1	0	1	0	53.3342910596167	0
4.22	53.4820891620785	0	1	0	1	0	53.4820891620785	0
4.23	53.6304496521168	0	1	0	1	0	53.6304496521168	0
4.24	53.7793715321433	0	1	0	1	0	53.7793715321433	0
4.25	53.9288538139583	0	1	0	1	0	53.9288538139583	0
4.26	54.0788955186414	0	1	0	1	0	54.0788955186414	0
4.27	54.2294956764422	0	1	0	1	0	54.2294956764422	0
4.28	54.3806533266732	0	1	0	1	0	54.3806533266732	0
4.29	54.5323675176048	0	1	0	1	0	54.5323675176048	0
4.3	54.6846373063604	0	1	0	1	0	54.6846373063604	0
4.31	54.8374617588139	0	1	0	1	0	54.8374617588139	0
4.32	54.9908399494888	0	1	0	1	0	54.9908399494888	0
4.33	55.1447709614579	0	1	0	1	0	55.1447709614579	0
4.34	55.299253886245	0	1	0	1	0	55.299253886245	0
4.35	55.4542878237275	0	1	0	1	0	55.4542878237275	0
4.36	55.6098718820411	0	1	0	1	0	55.6098718820411	0
4.37	55.7660051774848	0	1	0	1	0	55.7660051774848	0
4.38	55.922686834428	0	1	0	1	0	55.922686834428	0
4.39	56.0799159852185	0	1	0	1	0	56.0799159852185	0
4.4	56.237691770092	0	1	0	1	0	56.237691770092	0
4.41	56.3960133370822	0	1	0	1	0	56.3960133370822	0
4.42	56.5548798419332	0	1	0	1	0	56.5548798419332	0
4.43	56.714290448012	0	1	0	1	0	56.714290448012	0
4.44	56.8742443262229	0	1	0	1	0	56.8742443262229	0
4.45	57.0347406549227	0	1	0	1	0	57.0347406549227	0
4.46	57.1957786198374	0	1	0	1	0	57.1957786198374	0
4.47	57.3573574139792	0	1	0	1	0	57.3573574139792	0
4.48	57.5194762375659	0	1	0	1	0	57.5194762375659	0
4.49	57.68213429794	0	1	0	1	0	57.68213429794	0
4.5	57.8453308094902	0	1	0	1	0	57.8453308094902	0
4.51	58.0090649935726	0	1	0	1	0	58.0090649935726	0
4.52	58.173336078434	0	1	0	1	0	58.173336078434	0
4.53	58.3381432991362	0	1	0	1	0	58.3381432991362	0
4.54	58.5034858974799	0	1	0	1	0	58.5034858974799	0
4.55	58.6693631219318	0	1	0	1	0	58.6693631219318	0
4.56	58.8357742275508	0	1	0	1	0	58.8357742275508	0
4.57	59.002718475916	0	1	0	1	0	59.002718475916	0
4.58	59.1701951350557	0	1	0	1	0	59.1701951350557	0
4.59	59.338203479377	0	1	0	1	0	59.338203479377	0
4.6	59.5067427895967	0	1	0	1	0	59.5067427895967	0
4.61	59.6758123526722	0	1	0	1	0	59.6758123526722	0
4.62	59.845411461735	0	1	0	1	0	59.845411461735	0
4.63	60.0155394160229	0	1	0	1	0	60.0155394160229	0
4.64	60.1861955208152	0	1	0	1	0	60.1861955208152	0
4.65	60.3573790873671	0	1	0	1	0	60.3573790873671	0
4.66	60.5290894328458	0	1	0	1	0	60.5290894328458	0
4.67	60.701325880267	0	1	0	1	0	60.701325880267	0
4.68	60.874087758433	0	1	0	1	0	60.874087758433	0
4.69	61.0473744018702	0	1	0	1	0	61.0473744018702	0
4.7	61.2211851507688	0	1	0	1	0	61.2211851507688	0
4.71	61.3955193509225	0	1	0	1	0	61.3955193509225	0
4.72	61.5703763536689	0	1	0	1	0	61.5703763536689	0
4.73	61.7457555158315	0	1	0	1	0	61.7457555158315	0
4.74	61.921656199661	0	1	0	1	0	61.921656199661	0
4.75	62.098077772779	0	1	0	1	0	62.098077772779	0
4.76	62.275019608121	0	1	0	1	0	62.275019608121	0
4.77	62.452481083881	0	1	0	1	0	62.452481083881	0
4.78	62.6304615834564	0	1	0	1	0	62.6304615834564	0
4.79	62.8089604953935	0	1	0	1	0	62.8089604953935	0
4.8	62.9879772133342	0	1	0	1	0	62.9879772133342	0
4.81	63.1675111359629	0	1	0	1	0	63.1675111359629	0
4.82	63.3475616669542	0	1	0	1	0	63.3475616669542	0
4.83	63.5281282149211	0	1	0	1	0	63.5281282149211	0
4.84	63.7092101933641	0	1	0	1	0	63.7092101933641	0
4.85	63.8908070206209	0	1	0	1	0	63.8908070206209	0
4.86	64.0729181198165	0	1	0	1	0	64.0729181198165	0
4.87	64.255542918814	0	1	0	1	0	64.255542918814	0
4.88	64.4386808501663	0	1	0	1	0	64.4386808501663	0
4.89	64.622331351068	0	1	0	1	0	64.622331351068	0
4.9	64.8064938633079	0	1	0	1	0	64.8064938633079	0
4.91	64.9911678332223	0	1	0	1	0	64.9911678332223	0
4.92	65.1763527116491	0	1	0	1	0	65.1763527116491	0
4.93	65.3620479538816	0	1	0	1	0	65.3620479538816	0
