# GHZ S RI R 50
1	55.2953771096667	0	1	0	1	0	55.2953771096667	0
1.01	54.8421625369247	0	1	0	1	0	54.8421625369247	0
1.02	54.3990210288957	0	1	0	1	0	54.3990210288957	0
1.03	53.9656708288603	0	1	0	1	0	53.9656708288603	0
1.04	53.5418410168959	0	1	0	1	0	53.5418410168959	0
1.05	53.1272709938388	0	1	0	1	0	53.1272709938388	0
1.06	52.7217099944562	0	1	0	1	0	52.7217099944562	0
1.07	52.3249166279164	0	1	0	1	0	52.3249166279164	0
1.08	51.9366584437888	0	1	0	1	0	51.9366584437888	0
1.09	51.556711521934	0	1	0	1	0	51.556711521934	0
1.1	51.1848600847629	0	1	0	1	0	51.1848600847629	0
1.11	50.8208961304556	0	1	0	1	0	50.8208961304556	0
1.12	50.4646190858286	0	1	0	1	0	50.4646190858286	0
1.13	50.1158354776339	0	1	0	1	0	50.1158354776339	0
1.14	49.7743586211587	0	1	0	1	0	49.7743586211587	0
1.15	49.4400083250715	0	1	0	1	0	49.4400083250715	0
1.16	49.1126106115349	0	1	0	1	0	49.1126106115349	0
1.17	48.7919974506719	0	1	0	1	0	48.7919974506719	0
1.18	48.4780065085333	0	1	0	1	0	48.4780065085333	0
1.19	48.1704809077735	0	1	0	1	0	48.1704809077735	0
1.2	47.8692690002916	0	1	0	1	0	47.8692690002916	0
1.21	47.5742241511471	0	1	0	1	0	47.5742241511471	0
1.22	47.2852045331025	0	1	0	1	0	47.2852045331025	0
1.23	47.002072931188	0	1	0	1	0	47.002072931188	0
1.24	46.7246965567234	0	1	0	1	0	46.7246965567234	0
1.25	46.4529468702662	0	1	0	1	0	46.4529468702662	0
1.26	46.186699412991	0	1	0	1	0	46.186699412991	0
1.27	45.9258336460355	0	1	0	1	0	45.9258336460355	0
1.28	45.6702327973768	0	1	0	1	0	45.6702327973768	0
1.29	45.4197837158301	0	1	0	1	0	45.4197837158301	0
1.3	45.1743767317852	0	1	0	1	0	45.1743767317852	0
1.31	44.9339055243225	0	1	0	1	0	44.9339055243225	0
1.32	44.6982669943685	0	1	0	1	0	44.6982669943685	0
1.33	44.4673611435735	0	1	0	1	0	44.4673611435735	0
1.34	44.2410909586134	0	1	0	1	0	44.2410909586134	0
1.35	44.0193623006327	0	1	0	1	0	44.0193623006327	0
1.36	43.8020837995661	0	1	0	1	0	43.8020837995661	0
1.37	43.589166753087	0	1	0	1	0	43.589166753087	0
1.38	43.3805250299513	0	1	0	1	0	43.3805250299513	0
1.39	43.1760749775112	0	1	0	1	0	43.1760749775112	0
1.4	42.9757353331951	0	1	0	1	0	42.9757353331951	0
1.41	42.7794271397524	0	1	0	1	0	42.7794271397524	0
1.42	42.5870736640801	0	1	0	1	0	42.5870736640801	0
1.43	42.3986003194563	0	1	0	1	0	42.3986003194563	0
1.44	42.2139345910119	0	1	0	1	0	42.2139345910119	0
1.45	42.0330059642883	0	1	0	1	0	42.0330059642883	0
1.46	41.8557458567299	0	1	0	1	0	41.8557458567299	0
1.47	41.682087551973	0	1	0	1	0	41.682087551973	0
1.48	41.5119661367987	0	1	0	1	0	41.5119661367987	0
1.49	41.3453184406252	0	1	0	1	0	41.3453184406252	0
1.5	41.1820829774193	0	1	0	1	0	41.1820829774193	0
1.51	41.022199889917	0	1	0	1	0	41.022199889917	0
1.52	40.8656108960453	0	1	0	1	0	40.8656108960453	0
1.53	40.7122592374457	0	1	0	1	0	40.7122592374457	0
1.54	40.5620896300028	0	1	0	1	0	40.5620896300028	0
1.55	40.4150482162878	0	1	0	1	0	40.4150482162878	0
1.56	40.2710825198319	0	1	0	1	0	40.2710825198319	0
1.57	40.1301414011463	0	1	0	1	0	40.1301414011463	0
1.58	39.9921750154127	0	1	0	1	0	39.9921750154127	0
1.59	39.8571347717707	0	1	0	1	0	39.8571347717707	0
1.6	39.7249732941311	0	1	0	1	0	39.7249732941311	0
1.61	39.5956443834507	0	1	0	1	0	39.5956443834507	0
1.62	39.4691029814032	0	1	0	1	0	39.4691029814032	0
1.63	39.3453051353883	0	1	0	1	0	39.3453051353883	0
1.64	39.2242079648202	0	1	0	1	0	39.2242079648202	0
1.65	39.1057696286424	0	1	0	1	0	39.1057696286424	0
1.66	38.9899492940169	0	1	0	1	0	38.9899492940169	0
1.67	38.8767071061374	0	1	0	1	0	38.8767071061374	0
1.68	38.7660041591217	0	1	0	1	0	38.7660041591217	0
1.69	38.6578024679371	0	1	0	1	0	38.6578024679371	0
1.7	38.552064941316	0	1	0	1	0	38.552064941316	0
1.71	38.448755355623	0	1	0	1	0	38.448755355623	0
1.72	38.3478383296329	0	1	0	1	0	38.3478383296329	0
1.73	38.2492793001833	0	1	0	1	0	38.2492793001833	0
1.74	38.1530444986674	0	1	0	1	0	38.1530444986674	0
1.75	38.0591009283322	0	1	0	1	0	38.0591009283322	0
1.76	37.967416342351	0	1	0	1	0	37.967416342351	0
1.77	37.8779592226389	0	1	0	1	0	37.8779592226389	0
1.78	37.7906987593825	0	1	0	1	0	37.7906987593825	0
1.79	37.7056048312559	0	1	0	1	0	37.7056048312559	0
1.8	37.6226479862961	0	1	0	1	0	37.6226479862961	0
1.81	37.5417994234119	0	1	0	1	0	37.5417994234119	0
1.82	37.4630309745036	0	1	0	1	0	37.4630309745036	0
1.83	37.3863150871672	0	1	0	1	0	37.3863150871672	0
1.84	37.3116248079643	0	1	0	1	0	37.3116248079643	0
1.85	37.2389337662335	0	1	0	1	0	37.2389337662335	0
1.86	37.1682161584242	0	1	0	1	0	37.1682161584242	0
1.87	37.0994467329336	0	1	0	1	0	37.0994467329336	0
1.88	37.032600775427	0	1	0	1	0	37.032600775427	0
1.89	36.9676540946245	0	1	0	1	0	36.9676540946245	0
1.9	36.9045830085361	0	1	0	1	0	36.9045830085361	0
1.91	36.8433643311299	0	1	0	1	0	36.8433643311299	0
1.92	36.7839753594161	0	1	0	1	0	36.7839753594161	0
1.93	36.7263938609334	0	1	0	1	0	36.7263938609334	0
1.94	36.6705980616218	0	1	0	1	0	36.6705980616218	0
1.95	36.6165666340684	0	1	0	1	0	36.6165666340684	0
1.96	36.5642786861138	0	1	0	1	0	36.5642786861138	0
1.97	36.5137137498051	0	1	0	1	0	36.5137137498051	0
1.98	36.4648517706829	0	1	0	1	0	36.4648517706829	0
1.99	36.417673097393	0	1	0	1	0	36.417673097393	0
2	36.372158471608	0	1	0	1	0	36.372158471608	0
2.01	36.3282890182509	0	1	0	1	0	36.3282890182509	0
2.02	36.2860462360085	0	1	0	1	0	36.2860462360085	0
2.03	36.2454119881257	0	1	0	1	0	36.2454119881257	0
2.04	36.2063684934698	0	1	0	1	0	36.2063684934698	0
2.05	36.1688983178571	0	1	0	1	0	36.1688983178571	0
2.06	36.132984365632	0	1	0	1	0	36.132984365632	0
2.07	36.0986098714893	0	1	0	1	0	36.0986098714893	0
2.08	36.0657583925339	0	1	0	1	0	36.0657583925339	0
2.09	36.034413800567	0	1	0	1	0	36.034413800567	0
2.1	36.0045602745937	0	1	0	1	0	36.0045602745937	0
2.11	35.9761822935432	0	1	0	1	0	35.9761822935432	0
2.12	35.9492646291949	0	1	0	1	0	35.9492646291949	0
2.13	35.9237923393045	0	1	0	1	0	35.9237923393045	0
2.14	35.8997507609217	0	1	0	1	0	35.8997507609217	0
2.15	35.8771255038954	0	1	0	1	0	35.8771255038954	0
2.16	35.8559024445588	0	1	0	1	0	35.8559024445588	0
2.17	35.8360677195891	0	1	0	1	0	35.8360677195891	0
2.18	35.8176077200365	0	1	0	1	0	35.8176077200365	0
2.19	35.8005090855163	0	1	0	1	0	35.8005090855163	0
2.2	35.7847586985602	0	1	0	1	0	35.7847586985602	0
2.21	35.7703436791199	0	1	0	1	0	35.7703436791199	0
2.22	35.7572513792201	0	1	0	1	0	35.7572513792201	0
2.23	35.745469377755	0	1	0	1	0	35.745469377755	0
2.24	35.7349854754242	0	1	0	1	0	35.7349854754242	0
2.25	35.725787689804	0	1	0	1	0	35.725787689804	0
2.26	35.7178642505487	0	1	0	1	0	35.7178642505487	0
2.27	35.7112035947198	0	1	0	1	0	35.7112035947198	0
2.28	35.7057943622372	0	1	0	1	0	35.7057943622372	0
2.29	35.7016253914502	0	1	0	1	0	35.7016253914502	0
2.3	35.6986857148239	0	1	0	1	0	35.6986857148239	0
2.31	35.6969645547371	0	1	0	1	0	35.6969645547371	0
2.32	35.69645131939	0	1	0	1	0	35.69645131939	0
2.33	35.6971355988162	0	1	0	1	0	35.6971355988162	0
2.34	35.6990071609972	0	1	0	1	0	35.6990071609972	0
2.35	35.7020559480768	0	1	0	1	0	35.7020559480768	0
2.36	35.7062720726707	0	1	0	1	0	35.7062720726707	0
2.37	35.7116458142706	0	1	0	1	0	35.7116458142706	0
2.38	35.7181676157379	0	1	0	1	0	35.7181676157379	0
2.39	35.725828079886	0	1	0	1	0	35.725828079886	0
2.4	35.7346179661482	0	1	0	1	0	35.7346179661482	0
2.41	35.7445281873282	0	1	0	1	0	35.7445281873282	0
2.42	35.7555498064313	0	1	0	1	0	35.7555498064313	0
2.43	35.7676740335739	0	1	0	1	0	35.7676740335739	0
2.44	35.7808922229686	0	1	0	1	0	35.7808922229686	0
2.45	35.795195869984	0	1	0	1	0	35.795195869984	0
2.46	35.8105766082752	0	1	0	1	0	35.8105766082752	0
2.47	35.8270262069848	0	1	0	1	0	35.8270262069848	0
2.48	35.8445365680109	0	1	0	1	0	35.8445365680109	0
2.49	35.863099723342	0	1	0	1	0	35.863099723342	0
2.5	35.8827078324545	0	1	0	1	0	35.8827078324545	0
2.51	35.9033531797735	0	1	0	1	0	35.9033531797735	0
2.52	35.9250281721933	0	1	0	1	0	35.9250281721933	0
2.53	35.9477253366577	0	1	0	1	0	35.9477253366577	0
2.54	35.9714373177962	0	1	0	1	0	35.9714373177962	0
2.55	35.9961568756165	0	1	0	1	0	35.9961568756165	0
2.56	36.0218768832516	0	1	0	1	0	36.0218768832516	0
2.57	36.0485903247582	0	1	0	1	0	36.0485903247582	0
2.58	36.0762902929672	0	1	0	1	0	36.0762902929672	0
2.59	36.1049699873843	0	1	0	1	0	36.1049699873843	0
2.6	36.1346227121379	0	1	0	1	0	36.1346227121379	0
2.61	36.1652418739753	0	1	0	1	0	36.1652418739753	0
2.62	36.196820980304	0	1	0	1	0	36.196820980304	0
2.63	36.2293536372782	0	1	0	1	0	36.2293536372782	0
2.64	36.2628335479285	0	1	0	1	0	36.2628335479285	0
2.65	36.2972545103343	0	1	0	1	0	36.2972545103343	0
2.66	36.3326104158368	0	1	0	1	0	36.3326104158368	0
2.67	36.3688952472926	0	1	0	1	0	36.3688952472926	0
2.68	36.4061030773667	0	1	0	1	0	36.4061030773667	0
2.69	36.4442280668626	0	1	0	1	0	36.4442280668626	0
2.7	36.4832644630905	0	1	0	1	0	36.4832644630905	0
2.71	36.5232065982713	0	1	0	1	0	36.5232065982713	0
2.72	36.5640488879755	0	1	0	1	0	36.5640488879755	0
2.73	36.6057858295967	0	1	0	1	0	36.6057858295967	0
2.74	36.6484120008585	0	1	0	1	0	36.6484120008585	0
2.75	36.6919220583542	0	1	0	1	0	36.6919220583542	0
2.76	36.7363107361174	0	1	0	1	0	36.7363107361174	0
2.77	36.7815728442248	0	1	0	1	0	36.7815728442248	0
2.78	36.8277032674283	0	1	0	1	0	36.8277032674283	0
2.79	36.8746969638165	0	1	0	1	0	36.8746969638165	0
2.8	36.9225489635054	0	1	0	1	0	36.9225489635054	0
2.81	36.9712543673566	0	1	0	1	0	36.9712543673566	0
2.82	37.0208083457233	0	1	0	1	0	37.0208083457233	0
2.83	37.0712061372219	0	1	0	1	0	37.0712061372219	0
2.84	37.1224430475307	0	1	0	1	0	37.1224430475307	0
2.85	37.1745144482133	0	1	0	1	0	37.1745144482133	0
2.86	37.2274157755664	0	1	0	1	0	37.2274157755664	0
2.87	37.2811425294928	0	1	0	1	0	37.2811425294928	0
2.88	37.3356902723962	0	1	0	1	0	37.3356902723962	0
2.89	37.3910546281004	0	1	0	1	0	37.3910546281004	0
2.9	37.4472312807905	0	1	0	1	0	37.4472312807905	0
2.91	37.5042159739752	0	1	0	1	0	37.5042159739752	0
2.92	37.5620045094716	0	1	0	1	0	37.5620045094716	0
2.93	37.6205927464095	0	1	0	1	0	37.6205927464095	0
2.94	37.6799766002576	0	1	0	1	0	37.6799766002576	0
2.95	37.7401520418675	0	1	0	1	0	37.7401520418675	0
2.96	37.8011150965391	0	1	0	1	0	37.8011150965391	0
2.97	37.8628618431036	0	1	0	1	0	37.8628618431036	0
2.98	37.9253884130252	0	1	0	1	0	37.9253884130252	0
2.99	37.9886909895212	0	1	0	1	0	37.9886909895212	0
3	38.0527658066993	0	1	0	1	0	38.0527658066993	0
3.01	38.1176091487123	0	1	0	1	0	38.1176091487123	0
3.02	38.1832173489294	0	1	0	1	0	38.1832173489294	0
3.03	38.2495867891244	0	1	0	1	0	38.2495867891244	0
3.04	38.316713898679	0	1	0	1	0	38.316713898679	0
3.05	38.3845951538031	0	1	0	1	0	38.3845951538031	0
3.06	38.4532270767689	0	1	0	1	0	38.4532270767689	0
3.07	38.5226062351611	0	1	0	1	0	38.5226062351611	0
3.08	38.5927292411413	0	1	0	1	0	38.5927292411413	0
3.09	38.6635927507264	0	1	0	1	0	38.6635927507264	0
3.1	38.7351934630818	0	1	0	1	0	38.7351934630818	0
3.11	38.8075281198271	0	1	0	1	0	38.8075281198271	0
3.12	38.8805935043561	0	1	0	1	0	38.8805935043561	0
3.13	38.9543864411694	0	1	0	1	0	38.9543864411694	0
3.14	39.0289037952197	0	1	0	1	0	39.0289037952197	0
3.15	39.1041424712701	0	1	0	1	0	39.1041424712701	0
3.16	39.1800994132636	0	1	0	1	0	39.1800994132636	0
3.17	39.2567716037056	0	1	0	1	0	39.2567716037056	0
3.18	39.3341560630573	0	1	0	1	0	39.3341560630573	0
3.19	39.4122498491412	0	1	0	1	0	39.4122498491412	0
3.2	39.4910500565566	0	1	0	1	0	39.4910500565566	0
3.21	39.5705538161073	0	1	0	1	0	39.5705538161073	0
3.22	39.6507582942395	0	1	0	1	0	39.6507582942395	0
3.23	39.7316606924897	0	1	0	1	0	39.7316606924897	0
3.24	39.8132582469432	0	1	0	1	0	39.8132582469432	0
3.25	39.8955482277029	0	1	0	1	0	39.8955482277029	0
3.26	39.9785279383674	0	1	0	1	0	39.9785279383674	0
3.27	40.0621947155185	0	1	0	1	0	40.0621947155185	0
3.28	40.1465459282191	0	1	0	1	0	40.1465459282191	0
3.29	40.2315789775189	0	1	0	1	0	40.2315789775189	0
3.3	40.3172912959702	0	1	0	1	0	40.3172912959702	0
3.31	40.4036803471517	0	1	0	1	0	40.4036803471517	0
3.32	40.4907436252016	0	1	0	1	0	40.4907436252016	0
3.33	40.5784786543583	0	1	0	1	0	40.5784786543583	0
3.34	40.6668829885102	0	1	0	1	0	40.6668829885102	0
3.35	40.755954210753	0	1	0	1	0	40.755954210753	0
3.36	40.8456899329549	0	1	0	1	0	40.8456899329549	0
3.37	40.9360877953302	0	1	0	1	0	40.9360877953302	0
3.38	41.0271454660194	0	1	0	1	0	41.0271454660194	0
3.39	41.1188606406775	0	1	0	1	0	41.1188606406775	0
3.4	41.2112310420698	0	1	0	1	0	41.2112310420698	0
3.41	41.3042544196736	0	1	0	1	0	41.3042544196736	0
3.42	41.3979285492884	0	1	0	1	0	41.3979285492884	0
3.43	41.4922512326519	0	1	0	1	0	41.4922512326519	0
3.44	41.5872202970627	0	1	0	1	0	41.5872202970627	0
3.45	41.6828335950105	0	1	0	1	0	41.6828335950105	0
3.46	41.7790890038114	0	1	0	1	0	41.7790890038114	0
3.47	41.8759844252508	0	1	0	1	0	41.8759844252508	0
3.48	41.9735177852312	0	1	0	1	0	41.9735177852312	0
3.49	42.0716870334272	0	1	0	1	0	42.0716870334272	0
3.5	42.1704901429456	0	1	0	1	0	42.1704901429456	0
3.51	42.2699251099916	0	1	0	1	0	42.2699251099916	0
3.52	42.3699899535411	0	1	0	1	0	42.3699899535411	0
3.53	42.4706827150175	0	1	0	1	0	42.4706827150175	0
3.54	42.5720014579753	0	1	0	1	0	42.5720014579753	0
3.55	42.673944267788	0	1	0	1	0	42.673944267788	0
3.56	42.7765092513416	0	1	0	1	0	42.7765092513416	0
3.57	42.8796945367338	0	1	0	1	0	42.8796945367338	0
3.58	42.9834982729771	0	1	0	1	0	42.9834982729771	0
3.59	43.0879186297079	0	1	0	1	0	43.0879186297079	0
3.6	43.1929537969	0	1	0	1	0	43.1929537969	0
3.61	43.298601984583	0	1	0	1	0	43.298601984583	0
3.62	43.404861422565	0	1	0	1	0	43.404861422565	0
3.63	43.5117303601605	0	1	0	1	0	43.5117303601605	0
3.64	43.6192070659222	0	1	0	1	0	43.6192070659222	0
3.65	43.7272898273775	0	1	0	1	0	43.7272898273775	0
3.66	43.8359769507695	0	1	0	1	0	43.8359769507695	0
3.67	43.9452667608018	0	1	0	1	0	43.9452667608018	0
3.68	44.0551576003877	0	1	0	1	0	44.0551576003877	0
3.69	44.1656478304036	0	1	0	1	0	44.1656478304036	0
3.7	44.2767358294461	0	1	0	1	0	44.2767358294461	0
3.71	44.3884199935933	0	1	0	1	0	44.3884199935933	0
3.72	44.5006987361695	0	1	0	1	0	44.5006987361695	0
3.73	44.6135704875147	0	1	0	1	0	44.6135704875147	0
3.74	44.7270336947565	0	1	0	1	0	44.7270336947565	0
3.75	44.8410868215864	0	1	0	1	0	44.8410868215864	0
3.76	44.9557283480397	0	1	0	1	0	44.9557283480397	0
3.77	45.0709567702786	0	1	0	1	0	45.0709567702786	0
3.78	45.1867706003791	0	1	0	1	0	45.1867706003791	0
3.79	45.3031683661206	0	1	0	1	0	45.3031683661206	0
3.8	45.4201486107797	0	1	0	1	0	45.4201486107797	0
3.81	45.5377098929268	0	1	0	1	0	45.5377098929268	0
3.82	45.6558507862256	0	1	0	1	0	45.6558507862256	0
3.83	45.7745698792364	0	1	0	1	0	45.7745698792364	0
3.84	45.8938657752219	0	1	0	1	0	45.8938657752219	0
3.85	46.0137370919565	0	1	0	1	0	46.0137370919565	0
3.86	46.134182461538	0	1	0	1	0	46.134182461538	0
3.87	46.2552005302029	0	1	0	1	0	46.2552005302029	0
3.88	46.3767899581438	0	1	0	1	0	46.3767899581438	0
3.89	46.4989494193305	0	1	0	1	0	46.4989494193305	0
3.9	46.6216776013329	0	1	0	1	0	46.6216776013329	0
3.91	46.7449732051475	0	1	0	1	0	46.7449732051475	0
3.92	46.8688349450257	0	1	0	1	0	46.8688349450257	0
3.93	46.9932615483055	0	1	0	1	0	46.9932615483055	0
3.94	47.1182517552455	0	1	0	1	0	47.1182517552455	0
3.95	47.2438043188609	0	1	0	1	0	47.2438043188609	0
3.96	47.3699180047628	0	1	0	1	0	47.3699180047628	0
3.97	47.4965915909996	0	1	0	1	0	47.4965915909996	0
3.98	47.6238238679005	0	1	0	1	0	47.6238238679005	0
3.99	47.7516136379216	0	1	0	1	0	47.7516136379216	0
4	47.8799597154947	0	1	0	1	0	47.8799597154947	0
4.01	48.0088609268776	0	1	0	1	0	48.0088609268776	0
4.02	48.1383161100071	0	1	0	1	0	48.1383161100071	0
4.03	48.2683241143542	0	1	0	1	0	48.2683241143542	0
4.04	48.3988838007811	0	1	0	1	0	48.3988838007811	0
4.05	48.529994041401	0	1	0	1	0	48.529994041401	0
4.06	48.6616537194391	0	1	0	1	0	48.6616537194391	0
4.07	48.7938617290963	0	1	0	1	0	48.7938617290963	0
4.08	48.9266169754147	0	1	0	1	0	48.9266169754147	0
4.09	49.059918374145	0	1	0	1	0	49.059918374145	0
4.1	49.1937648516161	0	1	0	1	0	49.1937648516161	0
4.11	49.3281553446061	0	1	0	1	0	49.3281553446061	0
4.12	49.4630888002155	0	1	0	1	0	49.4630888002155	0
4.13	49.5985641757427	0	1	0	1	0	49.5985641757427	0
4.14	49.7345804385603	0	1	0	1	0	49.7345804385603	0
4.15	49.871136565994	0	1	0	1	0	49.871136565994	0
4.16	50.008231545203	0	1	0	1	0	50.008231545203	0
4.17	50.1458643730616	0	1	0	1	0	50.1458643730616	0
4.18	50.284034056044	0	1	0	1	0	50.284034056044	0
4.19	50.4227396101087	0	1	0	1	0	50.4227396101087	0
4.2	50.5619800605861	0	1	0	1	0	50.5619800605861	0
4.21	50.7017544420672	0	1	0	1	0	50.7017544420672	0
4.22	50.8420617982938	0	1	0	1	0	50.8420617982938	0
4.23	50.9829011820502	0	1	0	1	0	50.9829011820502	0
4.24	51.1242716550568	0	1	0	1	0	51.1242716550568	0
4.25	51.2661722878648	0	1	0	1	0	51.2661722878648	0
4.26	51.4086021597529	0	1	0	1	0	51.4086021597529	0
4.27	51.5515603586243	0	1	0	1	0	51.5515603586243	0
4.28	51.695045980907	0	1	0	1	0	51.695045980907	0
4.29	51.8390581314535	0	1	0	1	0	51.8390581314535	0
4.3	51.9835959234435	0	1	0	1	0	51.9835959234435	0
4.31	52.128658478287	0	1	0	1	0	52.128658478287	0
4.32	52.2742449255291	0	1	0	1	0	52.2742449255291	0
4.33	52.420354402756	0	1	0	1	0	52.420354402756	0
4.34	52.5669860555023	0	1	0	1	0	52.5669860555023	0
4.35	52.7141390371601	0	1	0	1	0	52.7141390371601	0
4.36	52.8618125088883	0	1	0	1	0	52.8618125088883	0
4.37	53.010005639524	0	1	0	1	0	53.010005639524	0
4.38	53.1587176054947	0	1	0	1	0	53.1587176054947	0
4.39	53.3079475907323	0	1	0	1	0	53.3079475907323	0
4.4	53.4576947865873	0	1	0	1	0	53.4576947865873	0
4.41	53.6079583917449	0	1	0	1	0	53.6079583917449	0
4.42	53.758737612142	0	1	0	1	0	53.758737612142	0
4.43	53.9100316608855	0	1	0	1	0	53.9100316608855	0
4.44	54.0618397581712	0	1	0	1	0	54.0618397581712	0
4.45	54.2141611312046	0	1	0	1	0	54.2141611312046	0
4.46	54.3669950141219	0	1	0	1	0	54.3669950141219	0
4.47	54.5203406479128	0	1	0	1	0	54.5203406479128	0
4.48	54.674197280344	0	1	0	1	0	54.674197280344	0
4.49	54.8285641658832	0	1	0	1	0	54.8285641658832	0
4.5	54.9834405656255	0	1	0	1	0	54.9834405656255	0
4.51	55.1388257472192	0	1	0	1	0	55.1388257472192	0
4.52	55.2947189847937	0	1	0	1	0	55.2947189847937	0
4.53	55.4511195588878	0	1	0	1	0	55.4511195588878	0
4.54	55.6080267563793	0	1	0	1	0	55.6080267563793	0
4.55	55.765439870415	0	1	0	1	0	55.765439870415	0
4.56	55.9233582003422	0	1	0	1	0	55.9233582003422	0
4.57	56.081781051641	0	1	0	1	0	56.081781051641	0
4.58	56.2407077358571	0	1	0	1	0	56.2407077358571	0
4.59	56.4001375705358	0	1	0	1	0	56.4001375705358	0
4.6	56.5600698791566	0	1	0	1	0	56.5600698791566	0
4.61	56.7205039910692	0	1	0	1	0	56.7205039910692	0
4.62	56.88143924143	0	1	0	1	0	56.88143924143	0
4.63	57.0428749711388	0	1	0	1	0	57.0428749711388	0
4.64	57.2048105267775	0	1	0	1	0	57.2048105267775	0
4.65	57.3672452605487	0	1	0	1	0	57.3672452605487	0
4.66	57.5301785302157	0	1	0	1	0	57.5301785302157	0
4.67	57.6936096990426	0	1	0	1	0	57.6936096990426	0
4.68	57.8575381357356	0	1	0	1	0	57.8575381357356	0
4.69	58.0219632143853	0	1	0	1	0	58.0219632143853	0
4.7	58.186884314409	0	1	0	1	0	58.186884314409	0
4.71	58.3523008204944	0	1	0	1	0	58.3523008204944	0
4.72	58.5182121225438	0	1	0	1	0	58.5182121225438	0
4.73	58.6846176156187	0	1	0	1	0	58.6846176156187	0
4.74	58.8515166998857	0	1	0	1	0	58.8515166998857	0
4.75	59.0189087805627	0	1	0	1	0	59.0189087805627	0
4.76	59.1867932678655	0	1	0	1	0	59.1867932678655	0
4.77	59.355169576956	0	1	0	1	0	59.355169576956	0
4.78	59.5240371278899	0	1	0	1	0	59.5240371278899	0
4.79	59.693395345566	0	1	0	1	0	59.693395345566	0
4.8	59.8632436596756	0	1	0	1	0	59.8632436596756	0
4.81	60.0335815046525	0	1	0	1	0	60.0335815046525	0
4.82	60.2044083196243	0	1	0	1	0	60.2044083196243	0
4.83	60.3757235483634	0	1	0	1	0	60.3757235483634	0
4.84	60.5475266392389	0	1	0	1	0	60.5475266392389	0
4.85	60.7198170451697	0	1	0	1	0	60.7198170451697	0
4.86	60.8925942235773	0	1	0	1	0	60.8925942235773	0
4.87	61.0658576363398	0	1	0	1	0	61.0658576363398	0
4.88	61.239606749746	0	1	0	1	0	61.239606749746	0
4.89	61.4138410344505	0	1	0	1	0	61.4138410344505	0
4.9	61.5885599654292	0	1	0	1	0	61.5885599654292	0
4.91	61.763763021935	0	1	0	1	0	61.763763021935	0
4.92	61.9394496874545	0	1	0	1	0	61.9394496874545	0
4.93	62.1156194496653	0	1	0	1	0	62.1156194496653	0
