# GHZ S RI R 50
1	57.9972514356103	0	1	0	1	0	57.9972514356103	0
1.01	57.510007545314	0	1	0	1	0	57.510007545314	0
1.02	57.0335248850839	0	1	0	1	0	57.0335248850839	0
1.03	56.5675018597047	0	1	0	1	0	56.5675018597047	0
1.04	56.1116484737773	0	1	0	1	0	56.1116484737773	0
1.05	55.6656857793461	0	1	0	1	0	55.6656857793461	0
1.06	55.2293453547937	0	1	0	1	0	55.2293453547937	0
1.07	54.8023688129555	0	1	0	1	0	54.8023688129555	0
1.08	54.3845073365619	0	1	0	1	0	54.3845073365619	0
1.09	53.9755212392525	0	1	0	1	0	53.9755212392525	0
1.1	53.5751795505341	0	1	0	1	0	53.5751795505341	0
1.11	53.1832596231751	0	1	0	1	0	53.1832596231751	0
1.12	52.7995467616302	0	1	0	1	0	52.7995467616302	0
1.13	52.4238338701968	0	1	0	1	0	52.4238338701968	0
1.14	52.0559211196879	0	1	0	1	0	52.0559211196879	0
1.15	51.6956156314972	0	1	0	1	0	51.6956156314972	0
1.16	51.3427311780046	0	1	0	1	0	51.3427311780046	0
1.17	50.9970878983462	0	1	0	1	0	50.9970878983462	0
1.18	50.6585120286368	0	1	0	1	0	50.6585120286368	0
1.19	50.3268356457939	0	1	0	1	0	50.3268356457939	0
1.2	50.001896424171	0	1	0	1	0	50.001896424171	0
1.21	49.6835374042589	0	1	0	1	0	49.6835374042589	0
1.22	49.3716067727616	0	1	0	1	0	49.3716067727616	0
1.23	49.0659576534009	0	1	0	1	0	49.0659576534009	0
1.24	48.7664479078432	0	1	0	1	0	48.7664479078432	0
1.25	48.4729399461815	0	1	0	1	0	48.4729399461815	0
1.26	48.1853005464423	0	1	0	1	0	48.1853005464423	0
1.27	47.9034006826197	0	1	0	1	0	47.9034006826197	0
1.28	47.6271153607707	0	1	0	1	0	47.6271153607707	0
1.29	47.3563234627334	0	1	0	1	0	47.3563234627334	0
1.3	47.0909075970584	0	1	0	1	0	47.0909075970584	0
1.31	46.8307539567683	0	1	0	1	0	46.8307539567683	0
1.32	46.5757521835818	0	1	0	1	0	46.5757521835818	0
1.33	46.3257952382638	0	1	0	1	0	46.3257952382638	0
1.34	46.08077927678	0	1	0	1	0	46.08077927678	0
1.35	45.8406035319567	0	1	0	1	0	45.8406035319567	0
1.36	45.6051702003603	0	1	0	1	0	45.6051702003603	0
1.37	45.3743843341322	0	1	0	1	0	45.3743843341322	0
1.38	45.1481537375254	0	1	0	1	0	45.1481537375254	0
1.39	44.926388867908	0	1	0	1	0	44.926388867908	0
1.4	44.7090027410091	0	1	0	1	0	44.7090027410091	0
1.41	44.4959108401965	0	1	0	1	0	44.4959108401965	0
1.42	44.2870310295883	0	1	0	1	0	44.2870310295883	0
1.43	44.08228347081	0	1	0	1	0	44.08228347081	0
1.44	43.8815905432193	0	1	0	1	0	43.8815905432193	0
1.45	43.6848767674334	0	1	0	1	0	43.6848767674334	0
1.46	43.4920687319976	0	1	0	1	0	43.4920687319976	0
1.47	43.3030950230477	0	1	0	1	0	43.3030950230477	0
1.48	43.1178861568241	0	1	0	1	0	43.1178861568241	0
1.49	42.936374514903	0	1	0	1	0	42.936374514903	0
1.5	42.7584942820187	0	1	0	1	0	42.7584942820187	0
1.51	42.5841813863559	0	1	0	1	0	42.5841813863559	0
1.52	42.4133734422	0	1	0	1	0	42.4133734422	0
1.53	42.2460096948354	0	1	0	1	0	42.2460096948354	0
1.54	42.0820309675911	0	1	0	1	0	42.0820309675911	0
1.55	41.9213796109358	0	1	0	1	0	41.9213796109358	0
1.56	41.7639994535315	0	1	0	1	0	41.7639994535315	0
1.57	41.6098357551571	0	1	0	1	0	41.6098357551571	0
1.58	41.4588351614197	0	1	0	1	0	41.4588351614197	0
1.59	41.3109456601755	0	1	0	1	0	41.3109456601755	0
1.6	41.1661165395843	0	1	0	1	0	41.1661165395843	0
1.61	41.0242983477271	0	1	0	1	0	41.0242983477271	0
1.62	40.8854428537202	0	1	0	1	0	40.8854428537202	0
1.63	40.7495030102598	0	1	0	1	0	40.7495030102598	0
1.64	40.6164329175373	0	1	0	1	0	40.6164329175373	0
1.65	40.4861877884668	0	1	0	1	0	40.4861877884668	0
1.66	40.3587239151692	0	1	0	1	0	40.3587239151692	0
1.67	40.2339986366608	0	1	0	1	0	40.2339986366608	0
1.68	40.1119703076954	0	1	0	1	0	40.1119703076954	0
1.69	39.9925982687134	0	1	0	1	0	39.9925982687134	0
1.7	39.8758428168505	0	1	0	1	0	39.8758428168505	0
1.71	39.7616651779644	0	1	0	1	0	39.7616651779644	0
1.72	39.6500274796372	0	1	0	1	0	39.6500274796372	0
1.73	39.5408927251137	0	1	0	1	0	39.5408927251137	0
1.74	39.4342247681388	0	1	0	1	0	39.4342247681388	0
1.75	39.3299882886575	0	1	0	1	0	39.3299882886575	0
1.76	39.2281487693435	0	1	0	1	0	39.2281487693435	0
1.77	39.1286724729229	0	1	0	1	0	39.1286724729229	0
1.78	39.0315264202628	0	1	0	1	0	39.0315264202628	0
1.79	38.9366783691943	0	1	0	1	0	38.9366783691943	0
1.8	38.844096794041	0	1	0	1	0	38.844096794041	0
1.81	38.7537508658265	0	1	0	1	0	38.7537508658265	0
1.82	38.6656104331346	0	1	0	1	0	38.6656104331346	0
1.83	38.579646003596	0	1	0	1	0	38.579646003596	0
1.84	38.4958287259803	0	1	0	1	0	38.4958287259803	0
1.85	38.4141303728672	0	1	0	1	0	38.4141303728672	0
1.86	38.3345233238778	0	1	0	1	0	38.3345233238778	0
1.87	38.2569805494435	0	1	0	1	0	38.2569805494435	0
1.88	38.1814755950928	0	1	0	1	0	38.1814755950928	0
1.89	38.1079825662372	0	1	0	1	0	38.1079825662372	0
1.9	38.0364761134376	0	1	0	1	0	38.0364761134376	0
1.91	37.9669314181329	0	1	0	1	0	37.9669314181329	0
1.92	37.8993241788156	0	1	0	1	0	37.8993241788156	0
1.93	37.8336305976364	0	1	0	1	0	37.8336305976364	0
1.94	37.7698273674231	0	1	0	1	0	37.7698273674231	0
1.95	37.7078916590996	0	1	0	1	0	37.7078916590996	0
1.96	37.647801109489	0	1	0	1	0	37.647801109489	0
1.97	37.5895338094893	0	1	0	1	0	37.5895338094893	0
1.98	37.5330682926066	0	1	0	1	0	37.5330682926066	0
1.99	37.4783835238343	0	1	0	1	0	37.4783835238343	0
2	37.4254588888658	0	1	0	1	0	37.4254588888658	0
2.01	37.3742741836296	0	1	0	1	0	37.3742741836296	0
2.02	37.3248096041348	0	1	0	1	0	37.3248096041348	0
2.03	37.2770457366168	0	1	0	1	0	37.2770457366168	0
2.04	37.2309635479733	0	1	0	1	0	37.2309635479733	0
2.05	37.1865443764794	0	1	0	1	0	37.1865443764794	0
2.06	37.1437699227739	0	1	0	1	0	37.1437699227739	0
2.07	37.1026222411062	0	1	0	1	0	37.1026222411062	0
2.08	37.0630837308368	0	1	0	1	0	37.0630837308368	0
2.09	37.0251371281799	0	1	0	1	0	37.0251371281799	0
2.1	36.9887654981843	0	1	0	1	0	36.9887654981843	0
2.11	36.9539522269401	0	1	0	1	0	36.9539522269401	0
2.12	36.9206810140076	0	1	0	1	0	36.9206810140076	0
2.13	36.8889358650587	0	1	0	1	0	36.8889358650587	0
2.14	36.8587010847246	0	1	0	1	0	36.8587010847246	0
2.15	36.8299612696433	0	1	0	1	0	36.8299612696433	0
2.16	36.8027013017004	0	1	0	1	0	36.8027013017004	0
2.17	36.7769063414563	0	1	0	1	0	36.7769063414563	0
2.18	36.7525618217547	0	1	0	1	0	36.7525618217547	0
2.19	36.7296534415062	0	1	0	1	0	36.7296534415062	0
2.2	36.7081671596411	0	1	0	1	0	36.7081671596411	0
2.21	36.6880891892267	0	1	0	1	0	36.6880891892267	0
2.22	36.6694059917436	0	1	0	1	0	36.6694059917436	0
2.23	36.6521042715156	0	1	0	1	0	36.6521042715156	0
2.24	36.6361709702896	0	1	0	1	0	36.6361709702896	0
2.25	36.621593261959	0	1	0	1	0	36.621593261959	0
2.26	36.6083585474279	0	1	0	1	0	36.6083585474279	0
2.27	36.5964544496111	0	1	0	1	0	36.5964544496111	0
2.28	36.585868808565	0	1	0	1	0	36.585868808565	0
2.29	36.576589676747	0	1	0	1	0	36.576589676747	0
2.3	36.5686053143976	0	1	0	1	0	36.5686053143976	0
2.31	36.5619041850435	0	1	0	1	0	36.5619041850435	0
2.32	36.5564749511158	0	1	0	1	0	36.5564749511158	0
2.33	36.5523064696821	0	1	0	1	0	36.5523064696821	0
2.34	36.5493877882875	0	1	0	1	0	36.5493877882875	0
2.35	36.547708140902	0	1	0	1	0	36.547708140902	0
2.36	36.5472569439703	0	1	0	1	0	36.5472569439703	0
2.37	36.5480237925629	0	1	0	1	0	36.5480237925629	0
2.38	36.5499984566228	0	1	0	1	0	36.5499984566228	0
2.39	36.5531708773075	0	1	0	1	0	36.5531708773075	0
2.4	36.5575311634218	0	1	0	1	0	36.5575311634218	0
2.41	36.5630695879397	0	1	0	1	0	36.5630695879397	0
2.42	36.5697765846126	0	1	0	1	0	36.5697765846126	0
2.43	36.5776427446609	0	1	0	1	0	36.5776427446609	0
2.44	36.5866588135474	0	1	0	1	0	36.5866588135474	0
2.45	36.5968156878291	0	1	0	1	0	36.5968156878291	0
2.46	36.6081044120869	0	1	0	1	0	36.6081044120869	0
2.47	36.6205161759284	0	1	0	1	0	36.6205161759284	0
2.48	36.6340423110645	0	1	0	1	0	36.6340423110645	0
2.49	36.6486742884555	0	1	0	1	0	36.6486742884555	0
2.5	36.6644037155265	0	1	0	1	0	36.6644037155265	0
2.51	36.6812223334488	0	1	0	1	0	36.6812223334488	0
2.52	36.6991220144862	0	1	0	1	0	36.6991220144862	0
2.53	36.7180947594043	0	1	0	1	0	36.7180947594043	0
2.54	36.7381326949408	0	1	0	1	0	36.7381326949408	0
2.55	36.7592280713356	0	1	0	1	0	36.7592280713356	0
2.56	36.7813732599186	0	1	0	1	0	36.7813732599186	0
2.57	36.804560750754	0	1	0	1	0	36.804560750754	0
2.58	36.8287831503388	0	1	0	1	0	36.8287831503388	0
2.59	36.8540331793557	0	1	0	1	0	36.8540331793557	0
2.6	36.8803036704766	0	1	0	1	0	36.8803036704766	0
2.61	36.9075875662179	0	1	0	1	0	36.9075875662179	0
2.62	36.9358779168434	0	1	0	1	0	36.9358779168434	0
2.63	36.9651678783166	0	1	0	1	0	36.9651678783166	0
2.64	36.9954507102984	0	1	0	1	0	36.9954507102984	0
2.65	37.0267197741908	0	1	0	1	0	37.0267197741908	0
2.66	37.0589685312242	0	1	0	1	0	37.0589685312242	0
2.67	37.0921905405881	0	1	0	1	0	37.0921905405881	0
2.68	37.1263794576036	0	1	0	1	0	37.1263794576036	0
2.69	37.1615290319363	0	1	0	1	0	37.1615290319363	0
2.7	37.1976331058497	0	1	0	1	0	37.1976331058497	0
2.71	37.2346856124959	0	1	0	1	0	37.2346856124959	0
2.72	37.2726805742457	0	1	0	1	0	37.2726805742457	0
2.73	37.3116121010542	0	1	0	1	0	37.3116121010542	0
2.74	37.3514743888624	0	1	0	1	0	37.3514743888624	0
2.75	37.3922617180341	0	1	0	1	0	37.3922617180341	0
2.76	37.4339684518262	0	1	0	1	0	37.4339684518262	0
2.77	37.4765890348929	0	1	0	1	0	37.4765890348929	0
2.78	37.5201179918213	0	1	0	1	0	37.5201179918213	0
2.79	37.5645499256988	0	1	0	1	0	37.5645499256988	0
2.8	37.609879516712	0	1	0	1	0	37.609879516712	0
2.81	37.656101520774	0	1	0	1	0	37.656101520774	0
2.82	37.7032107681824	0	1	0	1	0	37.7032107681824	0
2.83	37.7512021623045	0	1	0	1	0	37.7512021623045	0
2.84	37.8000706782915	0	1	0	1	0	37.8000706782915	0
2.85	37.8498113618185	0	1	0	1	0	37.8498113618185	0
2.86	37.900419327852	0	1	0	1	0	37.900419327852	0
2.87	37.9518897594426	0	1	0	1	0	37.9518897594426	0
2.88	38.0042179065428	0	1	0	1	0	38.0042179065428	0
2.89	38.0573990848501	0	1	0	1	0	38.0573990848501	0
2.9	38.1114286746725	0	1	0	1	0	38.1114286746725	0
2.91	38.1663021198195	0	1	0	1	0	38.1663021198195	0
2.92	38.2220149265137	0	1	0	1	0	38.2220149265137	0
2.93	38.2785626623266	0	1	0	1	0	38.2785626623266	0
2.94	38.3359409551344	0	1	0	1	0	38.3359409551344	0
2.95	38.3941454920968	0	1	0	1	0	38.3941454920968	0
2.96	38.4531720186547	0	1	0	1	0	38.4531720186547	0
2.97	38.5130163375499	0	1	0	1	0	38.5130163375499	0
2.98	38.5736743078628	0	1	0	1	0	38.5736743078628	0
2.99	38.6351418440711	0	1	0	1	0	38.6351418440711	0
3	38.6974149151257	0	1	0	1	0	38.6974149151257	0
3.01	38.7604895435468	0	1	0	1	0	38.7604895435468	0
3.02	38.8243618045359	0	1	0	1	0	38.8243618045359	0
3.03	38.8890278251075	0	1	0	1	0	38.8890278251075	0
3.04	38.9544837832361	0	1	0	1	0	38.9544837832361	0
3.05	39.0207259070212	0	1	0	1	0	39.0207259070212	0
3.06	39.0877504738683	0	1	0	1	0	39.0877504738683	0
3.07	39.1555538096857	0	1	0	1	0	39.1555538096857	0
3.08	39.2241322880972	0	1	0	1	0	39.2241322880972	0
3.09	39.2934823296699	0	1	0	1	0	39.2934823296699	0
3.1	39.3636004011571	0	1	0	1	0	39.3636004011571	0
3.11	39.434483014756	0	1	0	1	0	39.434483014756	0
3.12	39.506126727379	0	1	0	1	0	39.506126727379	0
3.13	39.5785281399397	0	1	0	1	0	39.5785281399397	0
3.14	39.6516838966523	0	1	0	1	0	39.6516838966523	0
3.15	39.7255906843439	0	1	0	1	0	39.7255906843439	0
3.16	39.8002452317806	0	1	0	1	0	39.8002452317806	0
3.17	39.875644309006	0	1	0	1	0	39.875644309006	0
3.18	39.951784726692	0	1	0	1	0	39.951784726692	0
3.19	40.0286633355021	0	1	0	1	0	40.0286633355021	0
3.2	40.1062770254664	0	1	0	1	0	40.1062770254664	0
3.21	40.1846227253686	0	1	0	1	0	40.1846227253686	0
3.22	40.2636974021442	0	1	0	1	0	40.2636974021442	0
3.23	40.3434980602899	0	1	0	1	0	40.3434980602899	0
3.24	40.4240217412837	0	1	0	1	0	40.4240217412837	0
3.25	40.5052655230165	0	1	0	1	0	40.5052655230165	0
3.26	40.587226519233	0	1	0	1	0	40.587226519233	0
3.27	40.6699018789839	0	1	0	1	0	40.6699018789839	0
3.28	40.7532887860877	0	1	0	1	0	40.7532887860877	0
3.29	40.837384458602	0	1	0	1	0	40.837384458602	0
3.3	40.9221861483049	0	1	0	1	0	40.9221861483049	0
3.31	41.0076911401858	0	1	0	1	0	41.0076911401858	0
3.32	41.093896751945	0	1	0	1	0	41.093896751945	0
3.33	41.1808003335026	0	1	0	1	0	41.1808003335026	0
3.34	41.2683992665162	0	1	0	1	0	41.2683992665162	0
3.35	41.3566909639071	0	1	0	1	0	41.3566909639071	0
3.36	41.4456728693954	0	1	0	1	0	41.4456728693954	0
3.37	41.5353424570425	0	1	0	1	0	41.5353424570425	0
3.38	41.6256972308028	0	1	0	1	0	41.6256972308028	0
3.39	41.7167347240824	0	1	0	1	0	41.7167347240824	0
3.4	41.8084524993062	0	1	0	1	0	41.8084524993062	0
3.41	41.9008481474924	0	1	0	1	0	41.9008481474924	0
3.42	41.9939192878345	0	1	0	1	0	41.9939192878345	0
3.43	42.0876635672903	0	1	0	1	0	42.0876635672903	0
3.44	42.1820786601788	0	1	0	1	0	42.1820786601788	0
3.45	42.2771622677831	0	1	0	1	0	42.2771622677831	0
3.46	42.3729121179613	0	1	0	1	0	42.3729121179613	0
3.47	42.4693259647634	0	1	0	1	0	42.4693259647634	0
3.48	42.5664015880547	0	1	0	1	0	42.5664015880547	0
3.49	42.6641367931463	0	1	0	1	0	42.6641367931463	0
3.5	42.7625294104314	0	1	0	1	0	42.7625294104314	0
3.51	42.8615772950281	0	1	0	1	0	42.8615772950281	0
3.52	42.9612783264282	0	1	0	1	0	42.9612783264282	0
3.53	43.0616304081518	0	1	0	1	0	43.0616304081518	0
3.54	43.1626314674082	0	1	0	1	0	43.1626314674082	0
3.55	43.2642794547619	0	1	0	1	0	43.2642794547619	0
3.56	43.3665723438049	0	1	0	1	0	43.3665723438049	0
3.57	43.4695081308341	0	1	0	1	0	43.4695081308341	0
3.58	43.573084834534	0	1	0	1	0	43.573084834534	0
3.59	43.677300495665	0	1	0	1	0	43.677300495665	0
3.6	43.7821531767571	0	1	0	1	0	43.7821531767571	0
3.61	43.8876409618078	0	1	0	1	0	43.8876409618078	0
3.62	43.9937619559861	0	1	0	1	0	43.9937619559861	0
3.63	44.1005142853406	0	1	0	1	0	44.1005142853406	0
3.64	44.2078960965128	0	1	0	1	0	44.2078960965128	0
3.65	44.315905556455	0	1	0	1	0	44.315905556455	0
3.66	44.4245408521528	0	1	0	1	0	44.4245408521528	0
3.67	44.533800190352	0	1	0	1	0	44.533800190352	0
3.68	44.6436817972906	0	1	0	1	0	44.6436817972906	0
3.69	44.7541839184342	0	1	0	1	0	44.7541839184342	0
3.7	44.8653048182163	0	1	0	1	0	44.8653048182163	0
3.71	44.9770427797828	0	1	0	1	0	44.9770427797828	0
3.72	45.0893961047403	0	1	0	1	0	45.0893961047403	0
3.73	45.2023631129089	0	1	0	1	0	45.2023631129089	0
3.74	45.3159421420783	0	1	0	1	0	45.3159421420783	0
3.75	45.4301315477688	0	1	0	1	0	45.4301315477688	0
3.76	45.5449297029947	0	1	0	1	0	45.5449297029947	0
3.77	45.6603349980331	0	1	0	1	0	45.6603349980331	0
3.78	45.776345840195	0	1	0	1	0	45.776345840195	0
3.79	45.8929606536011	0	1	0	1	0	45.8929606536011	0
3.8	46.0101778789599	0	1	0	1	0	46.0101778789599	0
3.81	46.1279959733506	0	1	0	1	0	46.1279959733506	0
3.82	46.2464134100087	0	1	0	1	0	46.2464134100087	0
3.83	46.3654286781149	0	1	0	1	0	46.3654286781149	0
3.84	46.4850402825877	0	1	0	1	0	46.4850402825877	0
3.85	46.6052467438788	0	1	0	1	0	46.6052467438788	0
3.86	46.7260465977722	0	1	0	1	0	46.7260465977722	0
3.87	46.8474383951856	0	1	0	1	0	46.8474383951856	0
3.88	46.9694207019761	0	1	0	1	0	46.9694207019761	0
3.89	47.0919920987475	0	1	0	1	0	47.0919920987475	0
3.9	47.2151511806614	0	1	0	1	0	47.2151511806614	0
3.91	47.3388965572515	0	1	0	1	0	47.3388965572515	0
3.92	47.4632268522397	0	1	0	1	0	47.4632268522397	0
3.93	47.5881407033559	0	1	0	1	0	47.5881407033559	0
3.94	47.71363676216	0	1	0	1	0	47.71363676216	0
3.95	47.8397136938672	0	1	0	1	0	47.8397136938672	0
3.96	47.9663701771752	0	1	0	1	0	47.9663701771752	0
3.97	48.0936049040947	0	1	0	1	0	48.0936049040947	0
3.98	48.2214165797821	0	1	0	1	0	48.2214165797821	0
3.99	48.3498039223743	0	1	0	1	0	48.3498039223743	0
4	48.4787656628274	0	1	0	1	0	48.4787656628274	0
4.01	48.6083005447557	0	1	0	1	0	48.6083005447557	0
4.02	48.7384073242753	0	1	0	1	0	48.7384073242753	0
4.03	48.8690847698483	0	1	0	1	0	48.8690847698483	0
4.04	49.0003316621304	0	1	0	1	0	49.0003316621304	0
4.05	49.1321467938201	0	1	0	1	0	49.1321467938201	0
4.06	49.2645289695104	0	1	0	1	0	49.2645289695104	0
4.07	49.3974770055431	0	1	0	1	0	49.3974770055431	0
4.08	49.5309897298642	0	1	0	1	0	49.5309897298642	0
4.09	49.6650659818824	0	1	0	1	0	49.6650659818824	0
4.1	49.7997046123292	0	1	0	1	0	49.7997046123292	0
4.11	49.9349044831214	0	1	0	1	0	49.9349044831214	0
4.12	50.0706644672249	0	1	0	1	0	50.0706644672249	0
4.13	50.2069834485213	0	1	0	1	0	50.2069834485213	0
4.14	50.3438603216761	0	1	0	1	0	50.3438603216761	0
4.15	50.4812939920082	0	1	0	1	0	50.4812939920082	0
4.16	50.6192833753628	0	1	0	1	0	50.6192833753628	0
4.17	50.7578273979842	0	1	0	1	0	50.7578273979842	0
4.18	50.8969249963923	0	1	0	1	0	50.8969249963923	0
4.19	51.0365751172592	0	1	0	1	0	51.0365751172592	0
4.2	51.1767767172889	0	1	0	1	0	51.1767767172889	0
4.21	51.3175287630979	0	1	0	1	0	51.3175287630979	0
4.22	51.4588302310977	0	1	0	1	0	51.4588302310977	0
4.23	51.6006801073794	0	1	0	1	0	51.6006801073794	0
4.24	51.7430773875989	0	1	0	1	0	51.7430773875989	0
4.25	51.8860210768651	0	1	0	1	0	51.8860210768651	0
4.26	52.0295101896283	0	1	0	1	0	52.0295101896283	0
4.27	52.1735437495715	0	1	0	1	0	52.1735437495715	0
4.28	52.3181207895017	0	1	0	1	0	52.3181207895017	0
4.29	52.4632403512443	0	1	0	1	0	52.4632403512443	0
4.3	52.6089014855379	0	1	0	1	0	52.6089014855379	0
4.31	52.755103251931	0	1	0	1	0	52.755103251931	0
4.32	52.9018447186798	0	1	0	1	0	52.9018447186798	0
4.33	53.0491249626481	0	1	0	1	0	53.0491249626481	0
4.34	53.1969430692076	0	1	0	1	0	53.1969430692076	0
4.35	53.3452981321406	0	1	0	1	0	53.3452981321406	0
4.36	53.4941892535431	0	1	0	1	0	53.4941892535431	0
4.37	53.6436155437302	0	1	0	1	0	53.6436155437302	0
4.38	53.7935761211417	0	1	0	1	0	53.7935761211417	0
4.39	53.94407011225	0	1	0	1	0	53.94407011225	0
4.4	54.0950966514685	0	1	0	1	0	54.0950966514685	0
4.41	54.2466548810619	0	1	0	1	0	54.2466548810619	0
4.42	54.3987439510571	0	1	0	1	0	54.3987439510571	0
4.43	54.5513630191558	0	1	0	1	0	54.5513630191558	0
4.44	54.7045112506478	0	1	0	1	0	54.7045112506478	0
4.45	54.8581878183262	0	1	0	1	0	54.8581878183262	0
4.46	55.0123919024027	0	1	0	1	0	55.0123919024027	0
4.47	55.167122690425	0	1	0	1	0	55.167122690425	0
4.48	55.3223793771949	0	1	0	1	0	55.3223793771949	0
4.49	55.4781611646875	0	1	0	1	0	55.4781611646875	0
4.5	55.6344672619714	0	1	0	1	0	55.6344672619714	0
4.51	55.79129688513	0	1	0	1	0	55.79129688513	0
4.52	55.9486492571841	0	1	0	1	0	55.9486492571841	0
4.53	56.1065236080153	0	1	0	1	0	56.1065236080153	0
4.54	56.2649191742904	0	1	0	1	0	56.2649191742904	0
4.55	56.4238351993867	0	1	0	1	0	56.4238351993867	0
4.56	56.5832709333186	0	1	0	1	0	56.5832709333186	0
4.57	56.7432256326649	0	1	0	1	0	56.7432256326649	0
4.58	56.9036985604973	0	1	0	1	0	56.9036985604973	0
4.59	57.0646889863093	0	1	0	1	0	57.0646889863093	0
4.6	57.2261961859468	0	1	0	1	0	57.2261961859468	0
4.61	57.388219441539	0	1	0	1	0	57.388219441539	0
4.62	57.5507580414305	0	1	0	1	0	57.5507580414305	0
4.63	57.7138112801138	0	1	0	1	0	57.7138112801138	0
4.64	57.8773784581638	0	1	0	1	0	57.8773784581638	0
4.65	58.0414588821716	0	1	0	1	0	58.0414588821716	0
4.66	58.2060518646806	0	1	0	1	0	58.2060518646806	0
4.67	58.3711567241223	0	1	0	1	0	58.3711567241223	0
4.68	58.5367727847535	0	1	0	1	0	58.5367727847535	0
4.69	58.7028993765945	0	1	0	1	0	58.7028993765945	0
4.7	58.8695358353674	0	1	0	1	0	58.8695358353674	0
4.71	59.0366815024357	0	1	0	1	0	59.0366815024357	0
4.72	59.2043357247447	0	1	0	1	0	59.2043357247447	0
4.73	59.3724978547622	0	1	0	1	0	59.3724978547622	0
4.74	59.5411672504206	0	1	0	1	0	59.5411672504206	0
4.75	59.710343275059	0	1	0	1	0	59.710343275059	0
4.76	59.8800252973667	0	1	0	1	0	59.8800252973667	0
4.77	60.0502126913269	0	1	0	1	0	60.0502126913269	0
4.78	60.2209048361616	0	1	0	1	0	60.2209048361616	0
4.79	60.3921011162767	0	1	0	1	0	60.3921011162767	0
4.8	60.5638009212079	0	1	0	1	0	60.5638009212079	0
4.81	60.7360036455677	0	1	0	1	0	60.7360036455677	0
4.82	60.9087086889924	0	1	0	1	0	60.9087086889924	0
4.83	61.0819154560905	0	1	0	1	0	61.0819154560905	0
4.84	61.255623356391	0	1	0	1	0	61.255623356391	0
4.85	61.4298318042925	0	1	0	1	0	61.4298318042925	0
4.86	61.6045402190137	0	1	0	1	0	61.6045402190137	0
4.87	61.7797480245434	0	1	0	1	0	61.7797480245434	0
4.88	61.955454649592	0	1	0	1	0	61.955454649592	0
4.89	62.1316595275427	0	1	0	1	0	62.1316595275427	0
4.9	62.3083620964044	0	1	0	1	0	62.3083620964044	0
4.91	62.4855617987643	0	1	0	1	0	62.4855617987643	0
4.92	62.6632580817413	0	1	0	1	0	62.6632580817413	0
4.93	62.8414503969403	0	1	0	1	0	62.8414503969403	0
