# GHZ S RI R 50
1	52.1972513408979	0	1	0	1	0	52.1972513408979	0
1.01	51.7463632297644	0	1	0	1	0	51.7463632297644	0
1.02	51.3052283541395	0	1	0	1	0	51.3052283541395	0
1.03	50.8735715841031	0	1	0	1	0	50.8735715841031	0
1.04	50.451128371655	0	1	0	1	0	50.451128371655	0
1.05	50.0376442468141	0	1	0	1	0	50.0376442468141	0
1.06	49.63287434224	0	1	0	1	0	49.63287434224	0
1.07	49.2365829445119	0	1	0	1	0	49.2365829445119	0
1.08	48.8485430703352	0	1	0	1	0	48.8485430703352	0
1.09	48.4685360660779	0	1	0	1	0	48.4685360660779	0
1.1	48.096351229149	0	1	0	1	0	48.096351229149	0
1.11	47.7317854498435	0	1	0	1	0	47.7317854498435	0
1.12	47.3746428723748	0	1	0	1	0	47.3746428723748	0
1.13	47.0247345739042	0	1	0	1	0	47.0247345739042	0
1.14	46.6818782604647	0	1	0	1	0	46.6818782604647	0
1.15	46.3458979787488	0	1	0	1	0	46.3458979787488	0
1.16	46.0166238428047	0	1	0	1	0	46.0166238428047	0
1.17	45.6938917747473	0	1	0	1	0	45.6938917747473	0
1.18	45.3775432586535	0	1	0	1	0	45.3775432586535	0
1.19	45.0674251068666	0	1	0	1	0	45.0674251068666	0
1.2	44.7633892379853	0	1	0	1	0	44.7633892379853	0
1.21	44.465292465861	0	1	0	1	0	44.465292465861	0
1.22	44.1729962989731	0	1	0	1	0	44.1729962989731	0
1.23	43.8863667495901	0	1	0	1	0	43.8863667495901	0
1.24	43.6052741521657	0	1	0	1	0	43.6052741521657	0
1.25	43.3295929904507	0	1	0	1	0	43.3295929904507	0
1.26	43.0592017328389	0	1	0	1	0	43.0592017328389	0
1.27	42.7939826754914	0	1	0	1	0	42.7939826754914	0
1.28	42.533821792814	0	1	0	1	0	42.533821792814	0
1.29	42.2786085948899	0	1	0	1	0	42.2786085948899	0
1.3	42.0282359914923	0	1	0	1	0	42.0282359914923	0
1.31	41.7826001623245	0	1	0	1	0	41.7826001623245	0
1.32	41.5416004331598	0	1	0	1	0	41.5416004331598	0
1.33	41.3051391575677	0	1	0	1	0	41.3051391575677	0
1.34	41.0731216039365	0	1	0	1	0	41.0731216039365	0
1.35	40.845455847517	0	1	0	1	0	40.845455847517	0
1.36	40.6220526672292	0	1	0	1	0	40.6220526672292	0
1.37	40.402825446988	0	1	0	1	0	40.402825446988	0
1.38	40.1876900813197	0	1	0	1	0	40.1876900813197	0
1.39	39.9765648850517	0	1	0	1	0	39.9765648850517	0
1.4	39.7693705068737	0	1	0	1	0	39.7693705068737	0
1.41	39.5660298465764	0	1	0	1	0	39.5660298465764	0
1.42	39.3664679757872	0	1	0	1	0	39.3664679757872	0
1.43	39.1706120620322	0	1	0	1	0	39.1706120620322	0
1.44	38.9783912959616	0	1	0	1	0	38.9783912959616	0
1.45	38.7897368215873	0	1	0	1	0	38.7897368215873	0
1.46	38.6045816693863	0	1	0	1	0	38.6045816693863	0
1.47	38.4228606921357	0	1	0	1	0	38.4228606921357	0
1.48	38.2445105033482	0	1	0	1	0	38.2445105033482	0
1.49	38.0694694181875	0	1	0	1	0	38.0694694181875	0
1.5	37.8976773967459	0	1	0	1	0	37.8976773967459	0
1.51	37.729075989577	0	1	0	1	0	37.729075989577	0
1.52	37.5636082853778	0	1	0	1	0	37.5636082853778	0
1.53	37.4012188607223	0	1	0	1	0	37.4012188607223	0
1.54	37.2418537317542	0	1	0	1	0	37.2418537317542	0
1.55	37.0854603077489	0	1	0	1	0	37.0854603077489	0
1.56	36.9319873464619	0	1	0	1	0	36.9319873464619	0
1.57	36.7813849111836	0	1	0	1	0	36.7813849111836	0
1.58	36.6336043294248	0	1	0	1	0	36.6336043294248	0
1.59	36.4885981531617	0	1	0	1	0	36.4885981531617	0
1.6	36.3463201205709	0	1	0	1	0	36.3463201205709	0
1.61	36.206725119191	0	1	0	1	0	36.206725119191	0
1.62	36.0697691504487	0	1	0	1	0	36.0697691504487	0
1.63	35.9354092954903	0	1	0	1	0	35.9354092954903	0
1.64	35.8036036822633	0	1	0	1	0	35.8036036822633	0
1.65	35.6743114537953	0	1	0	1	0	35.6743114537953	0
1.66	35.5474927376193	0	1	0	1	0	35.5474927376193	0
1.67	35.4231086162973	0	1	0	1	0	35.4231086162973	0
1.68	35.3011210989971	0	1	0	1	0	35.3011210989971	0
1.69	35.1814930940779	0	1	0	1	0	35.1814930940779	0
1.7	35.0641883826432	0	1	0	1	0	35.0641883826432	0
1.71	34.9491715930221	0	1	0	1	0	34.9491715930221	0
1.72	34.836408176141	0	1	0	1	0	34.836408176141	0
1.73	34.7258643817485	0	1	0	1	0	34.7258643817485	0
1.74	34.6175072354611	0	1	0	1	0	34.6175072354611	0
1.75	34.5113045165957	0	1	0	1	0	34.5113045165957	0
1.76	34.4072247367573	0	1	0	1	0	34.4072247367573	0
1.77	34.305237119153	0	1	0	1	0	34.305237119153	0
1.78	34.2053115786034	0	1	0	1	0	34.2053115786034	0
1.79	34.1074187022233	0	1	0	1	0	34.1074187022233	0
1.8	34.0115297307475	0	1	0	1	0	34.0115297307475	0
1.81	33.9176165404745	0	1	0	1	0	33.9176165404745	0
1.82	33.8256516258063	0	1	0	1	0	33.8256516258063	0
1.83	33.7356080823598	0	1	0	1	0	33.7356080823598	0
1.84	33.6474595906302	0	1	0	1	0	33.6474595906302	0
1.85	33.5611804001828	0	1	0	1	0	33.5611804001828	0
1.86	33.4767453143558	0	1	0	1	0	33.4767453143558	0
1.87	33.3941296754535	0	1	0	1	0	33.3941296754535	0
1.88	33.3133093504118	0	1	0	1	0	33.3133093504118	0
1.89	33.2342607169194	0	1	0	1	0	33.2342607169194	0
1.9	33.156960649977	0	1	0	1	0	33.156960649977	0
1.91	33.0813865088782	0	1	0	1	0	33.0813865088782	0
1.92	33.0075161245981	0	1	0	1	0	33.0075161245981	0
1.93	32.9353277875734	0	1	0	1	0	32.9353277875734	0
1.94	32.8648002358609	0	1	0	1	0	32.8648002358609	0
1.95	32.7959126436594	0	1	0	1	0	32.7959126436594	0
1.96	32.7286446101844	0	1	0	1	0	32.7286446101844	0
1.97	32.6629761488804	0	1	0	1	0	32.6629761488804	0
1.98	32.5988876769607	0	1	0	1	0	32.5988876769607	0
1.99	32.5363600052625	0	1	0	1	0	32.5363600052625	0
2	32.4753743284062	0	1	0	1	0	32.4753743284062	0
2.01	32.4159122152486	0	1	0	1	0	32.4159122152486	0
2.02	32.3579555996197	0	1	0	1	0	32.3579555996197	0
2.03	32.3014867713332	0	1	0	1	0	32.3014867713332	0
2.04	32.246488367461	0	1	0	1	0	32.246488367461	0
2.05	32.1929433638644	0	1	0	1	0	32.1929433638644	0
2.06	32.14083506697	0	1	0	1	0	32.14083506697	0
2.07	32.0901471057858	0	1	0	1	0	32.0901471057858	0
2.08	32.0408634241466	0	1	0	1	0	32.0408634241466	0
2.09	31.9929682731819	0	1	0	1	0	31.9929682731819	0
2.1	31.9464462040002	0	1	0	1	0	31.9464462040002	0
2.11	31.9012820605795	0	1	0	1	0	31.9012820605795	0
2.12	31.8574609728607	0	1	0	1	0	31.8574609728607	0
2.13	31.8149683500346	0	1	0	1	0	31.8149683500346	0
2.14	31.7737898740175	0	1	0	1	0	31.7737898740175	0
2.15	31.7339114931085	0	1	0	1	0	31.7339114931085	0
2.16	31.6953194158236	0	1	0	1	0	31.6953194158236	0
2.17	31.6580001048993	0	1	0	1	0	31.6580001048993	0
2.18	31.6219402714627	0	1	0	1	0	31.6219402714627	0
2.19	31.5871268693598	0	1	0	1	0	31.5871268693598	0
2.2	31.5535470896395	0	1	0	1	0	31.5535470896395	0
2.21	31.5211883551867	0	1	0	1	0	31.5211883551867	0
2.22	31.4900383155014	0	1	0	1	0	31.4900383155014	0
2.23	31.4600848416169	0	1	0	1	0	31.4600848416169	0
2.24	31.4313160211552	0	1	0	1	0	31.4313160211552	0
2.25	31.403720153514	0	1	0	1	0	31.403720153514	0
2.26	31.3772857451814	0	1	0	1	0	31.3772857451814	0
2.27	31.3520015051742	0	1	0	1	0	31.3520015051742	0
2.28	31.3278563405966	0	1	0	1	0	31.3278563405966	0
2.29	31.3048393523153	0	1	0	1	0	31.3048393523153	0
2.3	31.2829398307471	0	1	0	1	0	31.2829398307471	0
2.31	31.262147251756	0	1	0	1	0	31.262147251756	0
2.32	31.2424512726569	0	1	0	1	0	31.2424512726569	0
2.33	31.2238417283212	0	1	0	1	0	31.2238417283212	0
2.34	31.2063086273835	0	1	0	1	0	31.2063086273835	0
2.35	31.1898421485438	0	1	0	1	0	31.1898421485438	0
2.36	31.1744326369653	0	1	0	1	0	31.1744326369653	0
2.37	31.1600706007616	0	1	0	1	0	31.1600706007616	0
2.38	31.146746707574	0	1	0	1	0	31.146746707574	0
2.39	31.134451781234	0	1	0	1	0	31.134451781234	0
2.4	31.1231767985089	0	1	0	1	0	31.1231767985089	0
2.41	31.1129128859297	0	1	0	1	0	31.1129128859297	0
2.42	31.1036513166958	0	1	0	1	0	31.1036513166958	0
2.43	31.095383507658	0	1	0	1	0	31.095383507658	0
2.44	31.0881010163743	0	1	0	1	0	31.0881010163743	0
2.45	31.0817955382386	0	1	0	1	0	31.0817955382386	0
2.46	31.0764589036788	0	1	0	1	0	31.0764589036788	0
2.47	31.0720830754238	0	1	0	1	0	31.0720830754238	0
2.48	31.0686601458359	0	1	0	1	0	31.0686601458359	0
2.49	31.0661823343076	0	1	0	1	0	31.0661823343076	0
2.5	31.0646419847211	0	1	0	1	0	31.0646419847211	0
2.51	31.0640315629687	0	1	0	1	0	31.0640315629687	0
2.52	31.0643436545315	0	1	0	1	0	31.0643436545315	0
2.53	31.0655709621161	0	1	0	1	0	31.0655709621161	0
2.54	31.0677063033474	0	1	0	1	0	31.0677063033474	0
2.55	31.0707426085147	0	1	0	1	0	31.0707426085147	0
2.56	31.0746729183718	0	1	0	1	0	31.0746729183718	0
2.57	31.0794903819873	0	1	0	1	0	31.0794903819873	0
2.58	31.0851882546462	0	1	0	1	0	31.0851882546462	0
2.59	31.0917598957987	0	1	0	1	0	31.0917598957987	0
2.6	31.0991987670574	0	1	0	1	0	31.0991987670574	0
2.61	31.1074984302399	0	1	0	1	0	31.1074984302399	0
2.62	31.1166525454569	0	1	0	1	0	31.1166525454569	0
2.63	31.1266548692431	0	1	0	1	0	31.1266548692431	0
2.64	31.1374992527313	0	1	0	1	0	31.1374992527313	0
2.65	31.1491796398674	0	1	0	1	0	31.1491796398674	0
2.66	31.1616900656656	0	1	0	1	0	31.1616900656656	0
2.67	31.1750246545032	0	1	0	1	0	31.1750246545032	0
2.68	31.1891776184537	0	1	0	1	0	31.1891776184537	0
2.69	31.2041432556559	0	1	0	1	0	31.2041432556559	0
2.7	31.219915948721	0	1	0	1	0	31.219915948721	0
2.71	31.2364901631737	0	1	0	1	0	31.2364901631737	0
2.72	31.2538604459277	0	1	0	1	0	31.2538604459277	0
2.73	31.2720214237957	0	1	0	1	0	31.2720214237957	0
2.74	31.2909678020311	0	1	0	1	0	31.2909678020311	0
2.75	31.3106943629016	0	1	0	1	0	31.3106943629016	0
2.76	31.3311959642944	0	1	0	1	0	31.3311959642944	0
2.77	31.3524675383508	0	1	0	1	0	31.3524675383508	0
2.78	31.3745040901313	0	1	0	1	0	31.3745040901313	0
2.79	31.397300696308	0	1	0	1	0	31.397300696308	0
2.8	31.4208525038866	0	1	0	1	0	31.4208525038866	0
2.81	31.4451547289544	0	1	0	1	0	31.4451547289544	0
2.82	31.4702026554557	0	1	0	1	0	31.4702026554557	0
2.83	31.4959916339927	0	1	0	1	0	31.4959916339927	0
2.84	31.5225170806523	0	1	0	1	0	31.5225170806523	0
2.85	31.5497744758567	0	1	0	1	0	31.5497744758567	0
2.86	31.5777593632394	0	1	0	1	0	31.5777593632394	0
2.87	31.6064673485431	0	1	0	1	0	31.6064673485431	0
2.88	31.6358940985422	0	1	0	1	0	31.6358940985422	0
2.89	31.6660353399863	0	1	0	1	0	31.6660353399863	0
2.9	31.6968868585665	0	1	0	1	0	31.6968868585665	0
2.91	31.7284444979026	0	1	0	1	0	31.7284444979026	0
2.92	31.7607041585509	0	1	0	1	0	31.7607041585509	0
2.93	31.7936617970331	0	1	0	1	0	31.7936617970331	0
2.94	31.827313424884	0	1	0	1	0	31.827313424884	0
2.95	31.8616551077193	0	1	0	1	0	31.8616551077193	0
2.96	31.8966829643221	0	1	0	1	0	31.8966829643221	0
2.97	31.9323931657478	0	1	0	1	0	31.9323931657478	0
2.98	31.9687819344469	0	1	0	1	0	31.9687819344469	0
2.99	32.005845543406	0	1	0	1	0	32.005845543406	0
3	32.0435803153048	0	1	0	1	0	32.0435803153048	0
3.01	32.0819826216913	0	1	0	1	0	32.0819826216913	0
3.02	32.1210488821725	0	1	0	1	0	32.1210488821725	0
3.03	32.1607755636211	0	1	0	1	0	32.1607755636211	0
3.04	32.2011591793984	0	1	0	1	0	32.2011591793984	0
3.05	32.2421962885923	0	1	0	1	0	32.2421962885923	0
3.06	32.2838834952697	0	1	0	1	0	32.2838834952697	0
3.07	32.3262174477442	0	1	0	1	0	32.3262174477442	0
3.08	32.369194837858	0	1	0	1	0	32.369194837858	0
3.09	32.4128124002772	0	1	0	1	0	32.4128124002772	0
3.1	32.4570669118012	0	1	0	1	0	32.4570669118012	0
3.11	32.5019551906855	0	1	0	1	0	32.5019551906855	0
3.12	32.547474095977	0	1	0	1	0	32.547474095977	0
3.13	32.5936205268628	0	1	0	1	0	32.5936205268628	0
3.14	32.6403914220306	0	1	0	1	0	32.6403914220306	0
3.15	32.687783759042	0	1	0	1	0	32.687783759042	0
3.16	32.7357945537173	0	1	0	1	0	32.7357945537173	0
3.17	32.7844208595322	0	1	0	1	0	32.7844208595322	0
3.18	32.8336597670254	0	1	0	1	0	32.8336597670254	0
3.19	32.8835084032179	0	1	0	1	0	32.8835084032179	0
3.2	32.933963931043	0	1	0	1	0	32.933963931043	0
3.21	32.9850235487869	0	1	0	1	0	32.9850235487869	0
3.22	33.0366844895395	0	1	0	1	0	33.0366844895395	0
3.23	33.0889440206562	0	1	0	1	0	33.0889440206562	0
3.24	33.1417994432283	0	1	0	1	0	33.1417994432283	0
3.25	33.1952480915648	0	1	0	1	0	33.1952480915648	0
3.26	33.2492873326825	0	1	0	1	0	33.2492873326825	0
3.27	33.3039145658057	0	1	0	1	0	33.3039145658057	0
3.28	33.3591272218757	0	1	0	1	0	33.3591272218757	0
3.29	33.4149227630686	0	1	0	1	0	33.4149227630686	0
3.3	33.4712986823219	0	1	0	1	0	33.4712986823219	0
3.31	33.5282525028699	0	1	0	1	0	33.5282525028699	0
3.32	33.5857817777876	0	1	0	1	0	33.5857817777876	0
3.33	33.6438840895422	0	1	0	1	0	33.6438840895422	0
3.34	33.7025570495536	0	1	0	1	0	33.7025570495536	0
3.35	33.7617982977622	0	1	0	1	0	33.7617982977622	0
3.36	33.8216055022041	0	1	0	1	0	33.8216055022041	0
3.37	33.8819763585945	0	1	0	1	0	33.8819763585945	0
3.38	33.9429085899184	0	1	0	1	0	33.9429085899184	0
3.39	34.0043999460282	0	1	0	1	0	34.0043999460282	0
3.4	34.0664482032485	0	1	0	1	0	34.0664482032485	0
3.41	34.1290511639881	0	1	0	1	0	34.1290511639881	0
3.42	34.1922066563588	0	1	0	1	0	34.1922066563588	0
3.43	34.2559125338003	0	1	0	1	0	34.2559125338003	0
3.44	34.3201666747125	0	1	0	1	0	34.3201666747125	0
3.45	34.3849669820934	0	1	0	1	0	34.3849669820934	0
3.46	34.4503113831839	0	1	0	1	0	34.4503113831839	0
3.47	34.5161978291184	0	1	0	1	0	34.5161978291184	0
3.48	34.5826242945814	0	1	0	1	0	34.5826242945814	0
3.49	34.6495887774702	0	1	0	1	0	34.6495887774702	0
3.5	34.7170892985632	0	1	0	1	0	34.7170892985632	0
3.51	34.7851239011944	0	1	0	1	0	34.7851239011944	0
3.52	34.853690650932	0	1	0	1	0	34.853690650932	0
3.53	34.9227876352648	0	1	0	1	0	34.9227876352648	0
3.54	34.9924129632913	0	1	0	1	0	34.9924129632913	0
3.55	35.0625647654164	0	1	0	1	0	35.0625647654164	0
3.56	35.1332411930514	0	1	0	1	0	35.1332411930514	0
3.57	35.2044404183201	0	1	0	1	0	35.2044404183201	0
3.58	35.2761606337697	0	1	0	1	0	35.2761606337697	0
3.59	35.3484000520859	0	1	0	1	0	35.3484000520859	0
3.6	35.4211569058135	0	1	0	1	0	35.4211569058135	0
3.61	35.4944294470815	0	1	0	1	0	35.4944294470815	0
3.62	35.5682159473322	0	1	0	1	0	35.5682159473322	0
3.63	35.6425146970554	0	1	0	1	0	35.6425146970554	0
3.64	35.7173240055267	0	1	0	1	0	35.7173240055267	0
3.65	35.7926422005503	0	1	0	1	0	35.7926422005503	0
3.66	35.8684676282055	0	1	0	1	0	35.8684676282055	0
3.67	35.9447986525984	0	1	0	1	0	35.9447986525984	0
3.68	36.0216336556162	0	1	0	1	0	36.0216336556162	0
3.69	36.0989710366868	0	1	0	1	0	36.0989710366868	0
3.7	36.1768092125415	0	1	0	1	0	36.1768092125415	0
3.71	36.2551466169818	0	1	0	1	0	36.2551466169818	0
3.72	36.3339817006503	0	1	0	1	0	36.3339817006503	0
3.73	36.4133129308046	0	1	0	1	0	36.4133129308046	0
3.74	36.493138791095	0	1	0	1	0	36.493138791095	0
3.75	36.5734577813465	0	1	0	1	0	36.5734577813465	0
3.76	36.6542684173434	0	1	0	1	0	36.6542684173434	0
3.77	36.7355692306174	0	1	0	1	0	36.7355692306174	0
3.78	36.8173587682399	0	1	0	1	0	36.8173587682399	0
3.79	36.8996355926163	0	1	0	1	0	36.8996355926163	0
3.8	36.9823982812848	0	1	0	1	0	36.9823982812848	0
3.81	37.0656454267174	0	1	0	1	0	37.0656454267174	0
3.82	37.1493756361249	0	1	0	1	0	37.1493756361249	0
3.83	37.2335875312639	0	1	0	1	0	37.2335875312639	0
3.84	37.3182797482478	0	1	0	1	0	37.3182797482478	0
3.85	37.4034509373604	0	1	0	1	0	37.4034509373604	0
3.86	37.4890997628719	0	1	0	1	0	37.4890997628719	0
3.87	37.5752249028588	0	1	0	1	0	37.5752249028588	0
3.88	37.6618250490255	0	1	0	1	0	37.6618250490255	0
3.89	37.7488989065293	0	1	0	1	0	37.7488989065293	0
3.9	37.836445193808	0	1	0	1	0	37.836445193808	0
3.91	37.9244626424101	0	1	0	1	0	37.9244626424101	0
3.92	38.0129499968273	0	1	0	1	0	38.0129499968273	0
3.93	38.10190601433	0	1	0	1	0	38.10190601433	0
3.94	38.1913294648054	0	1	0	1	0	38.1913294648054	0
3.95	38.2812191305974	0	1	0	1	0	38.2812191305974	0
3.96	38.3715738063492	0	1	0	1	0	38.3715738063492	0
3.97	38.4623922988491	0	1	0	1	0	38.4623922988491	0
3.98	38.5536734268771	0	1	0	1	0	38.5536734268771	0
3.99	38.6454160210553	0	1	0	1	0	38.6454160210553	0
4	38.7376189236994	0	1	0	1	0	38.7376189236994	0
4.01	38.8302809886732	0	1	0	1	0	38.8302809886732	0
4.02	38.9234010812446	0	1	0	1	0	38.9234010812446	0
4.03	39.0169780779445	0	1	0	1	0	39.0169780779445	0
4.04	39.1110108664275	0	1	0	1	0	39.1110108664275	0
4.05	39.2054983453338	0	1	0	1	0	39.2054983453338	0
4.06	39.300439424155	0	1	0	1	0	39.300439424155	0
4.07	39.3958330230997	0	1	0	1	0	39.3958330230997	0
4.08	39.4916780729631	0	1	0	1	0	39.4916780729631	0
4.09	39.587973514997	0	1	0	1	0	39.587973514997	0
4.1	39.6847183007824	0	1	0	1	0	39.6847183007824	0
4.11	39.7819113921041	0	1	0	1	0	39.7819113921041	0
4.12	39.8795517608263	0	1	0	1	0	39.8795517608263	0
4.13	39.9776383887714	0	1	0	1	0	39.9776383887714	0
4.14	40.0761702675988	0	1	0	1	0	40.0761702675988	0
4.15	40.1751463986871	0	1	0	1	0	40.1751463986871	0
4.16	40.2745657930171	0	1	0	1	0	40.2745657930171	0
4.17	40.3744274710564	0	1	0	1	0	40.3744274710564	0
4.18	40.4747304626462	0	1	0	1	0	40.4747304626462	0
4.19	40.5754738068893	0	1	0	1	0	40.5754738068893	0
4.2	40.6766565520401	0	1	0	1	0	40.6766565520401	0
4.21	40.7782777553955	0	1	0	1	0	40.7782777553955	0
4.22	40.880336483188	0	1	0	1	0	40.880336483188	0
4.23	40.9828318104802	0	1	0	1	0	40.9828318104802	0
4.24	41.0857628210603	0	1	0	1	0	41.0857628210603	0
4.25	41.1891286073399	0	1	0	1	0	41.1891286073399	0
4.26	41.2929282702524	0	1	0	1	0	41.2929282702524	0
4.27	41.3971609191535	0	1	0	1	0	41.3971609191535	0
4.28	41.5018256717225	0	1	0	1	0	41.5018256717225	0
4.29	41.6069216538655	0	1	0	1	0	41.6069216538655	0
4.3	41.71244799962	0	1	0	1	0	41.71244799962	0
4.31	41.8184038510598	0	1	0	1	0	41.8184038510598	0
4.32	41.9247883582029	0	1	0	1	0	41.9247883582029	0
4.33	42.0316006789191	0	1	0	1	0	42.0316006789191	0
4.34	42.1388399788397	0	1	0	1	0	42.1388399788397	0
4.35	42.2465054312685	0	1	0	1	0	42.2465054312685	0
4.36	42.3545962170937	0	1	0	1	0	42.3545962170937	0
4.37	42.463111524701	0	1	0	1	0	42.463111524701	0
4.38	42.572050549888	0	1	0	1	0	42.572050549888	0
4.39	42.6814124957802	0	1	0	1	0	42.6814124957802	0
4.4	42.791196572747	0	1	0	1	0	42.791196572747	0
4.41	42.9014019983204	0	1	0	1	0	42.9014019983204	0
4.42	43.0120279971133	0	1	0	1	0	43.0120279971133	0
4.43	43.1230738007398	0	1	0	1	0	43.1230738007398	0
4.44	43.2345386477367	0	1	0	1	0	43.2345386477367	0
4.45	43.346421783485	0	1	0	1	0	43.346421783485	0
4.46	43.4587224601339	0	1	0	1	0	43.4587224601339	0
4.47	43.5714399365247	0	1	0	1	0	43.5714399365247	0
4.48	43.684573478116	0	1	0	1	0	43.684573478116	0
4.49	43.7981223569105	0	1	0	1	0	43.7981223569105	0
4.5	43.9120858513818	0	1	0	1	0	43.9120858513818	0
4.51	44.0264632464029	0	1	0	1	0	44.0264632464029	0
4.52	44.1412538331753	0	1	0	1	0	44.1412538331753	0
4.53	44.2564569091593	0	1	0	1	0	44.2564569091593	0
4.54	44.3720717780049	0	1	0	1	0	44.3720717780049	0
4.55	44.4880977494839	0	1	0	1	0	44.4880977494839	0
4.56	44.6045341394228	0	1	0	1	0	44.6045341394228	0
4.57	44.7213802696363	0	1	0	1	0	44.7213802696363	0
4.58	44.8386354678623	0	1	0	1	0	44.8386354678623	0
4.59	44.956299067697	0	1	0	1	0	44.956299067697	0
4.6	45.0743704085317	0	1	0	1	0	45.0743704085317	0
4.61	45.1928488354894	0	1	0	1	0	45.1928488354894	0
4.62	45.3117336993632	0	1	0	1	0	45.3117336993632	0
4.63	45.4310243565547	0	1	0	1	0	45.4310243565547	0
4.64	45.550720169014	0	1	0	1	0	45.550720169014	0
4.65	45.6708205041797	0	1	0	1	0	45.6708205041797	0
4.66	45.79132473492	0	1	0	1	0	45.79132473492	0
4.67	45.9122322394749	0	1	0	1	0	45.9122322394749	0
4.68	46.0335424013984	0	1	0	1	0	46.0335424013984	0
4.69	46.1552546095022	0	1	0	1	0	46.1552546095022	0
4.7	46.2773682577994	0	1	0	1	0	46.2773682577994	0
4.71	46.3998827454496	0	1	0	1	0	46.3998827454496	0
4.72	46.5227974767042	0	1	0	1	0	46.5227974767042	0
4.73	46.6461118608529	0	1	0	1	0	46.6461118608529	0
4.74	46.76982531217	0	1	0	1	0	46.76982531217	0
4.75	46.8939372498623	0	1	0	1	0	46.8939372498623	0
4.76	47.0184470980172	0	1	0	1	0	47.0184470980172	0
4.77	47.1433542855518	0	1	0	1	0	47.1433542855518	0
4.78	47.2686582461617	0	1	0	1	0	47.2686582461617	0
4.79	47.3943584182719	0	1	0	1	0	47.3943584182719	0
4.8	47.5204542449871	0	1	0	1	0	47.5204542449871	0
4.81	47.6469451740431	0	1	0	1	0	47.6469451740431	0
4.82	47.7738306577588	0	1	0	1	0	47.7738306577588	0
4.83	47.9011101529889	0	1	0	1	0	47.9011101529889	0
4.84	48.0287831210767	0	1	0	1	0	48.0287831210767	0
4.85	48.1568490278081	0	1	0	1	0	48.1568490278081	0
4.86	48.285307343366	0	1	0	1	0	48.285307343366	0
4.87	48.4141575422847	0	1	0	1	0	48.4141575422847	0
4.88	48.5433991034058	0	1	0	1	0	48.5433991034058	0
4.89	48.6730315098338	0	1	0	1	0	48.6730315098338	0
4.9	48.803054248893	0	1	0	1	0	48.803054248893	0
4.91	48.933466812084	0	1	0	1	0	48.933466812084	0
4.92	49.0642686950416	0	1	0	1	0	49.0642686950416	0
4.93	49.195459397493	0	1	0	1	0	49.195459397493	0
