# GHZ S RI R 50
1	59.6741229859844	0	1	0	1	0	59.6741229859844	0
1.01	59.1629958738116	0	1	0	1	0	59.1629958738116	0
1.02	58.663029289363	0	1	0	1	0	58.663029289363	0
1.03	58.1739093308511	0	1	0	1	0	58.1739093308511	0
1.04	57.6953341696339	0	1	0	1	0	57.6953341696339	0
1.05	57.2270134753033	0	1	0	1	0	57.2270134753033	0
1.06	56.7686678733159	0	1	0	1	0	56.7686678733159	0
1.07	56.3200284330363	0	1	0	1	0	56.3200284330363	0
1.08	55.8808361842229	0	1	0	1	0	55.8808361842229	0
1.09	55.4508416601296	0	1	0	1	0	55.4508416601296	0
1.1	55.0298044655278	0	1	0	1	0	55.0298044655278	0
1.11	54.6174928680804	0	1	0	1	0	54.6174928680804	0
1.12	54.2136834116052	0	1	0	1	0	54.2136834116052	0
1.13	53.8181605498731	0	1	0	1	0	53.8181605498731	0
1.14	53.4307162996808	0	1	0	1	0	53.4307162996808	0
1.15	53.0511499120233	0	1	0	1	0	53.0511499120233	0
1.16	52.6792675602751	0	1	0	1	0	52.6792675602751	0
1.17	52.3148820443619	0	1	0	1	0	52.3148820443619	0
1.18	51.9578125099748	0	1	0	1	0	51.9578125099748	0
1.19	51.6078841819413	0	1	0	1	0	51.6078841819413	0
1.2	51.2649281109278	0	1	0	1	0	51.2649281109278	0
1.21	50.9287809327028	0	1	0	1	0	50.9287809327028	0
1.22	50.5992846392392	0	1	0	1	0	50.5992846392392	0
1.23	50.276286360982	0	1	0	1	0	50.276286360982	0
1.24	49.9596381596526	0	1	0	1	0	49.9596381596526	0
1.25	49.6491968309969	0	1	0	1	0	49.6491968309969	0
1.26	49.344823716928	0	1	0	1	0	49.344823716928	0
1.27	49.0463845265424	0	1	0	1	0	49.0463845265424	0
1.28	48.7537491655277	0	1	0	1	0	48.7537491655277	0
1.29	48.4667915735035	0	1	0	1	0	48.4667915735035	0
1.3	48.1853895688704	0	1	0	1	0	48.1853895688704	0
1.31	47.9094247007647	0	1	0	1	0	47.9094247007647	0
1.32	47.6387821077431	0	1	0	1	0	47.6387821077431	0
1.33	47.3733503828415	0	1	0	1	0	47.3733503828415	0
1.34	47.113021444677	0	1	0	1	0	47.113021444677	0
1.35	46.857690414278	0	1	0	1	0	46.857690414278	0
1.36	46.6072554973486	0	1	0	1	0	46.6072554973486	0
1.37	46.3616178716889	0	1	0	1	0	46.3616178716889	0
1.38	46.1206815795109	0	1	0	1	0	46.1206815795109	0
1.39	45.8843534244016	0	1	0	1	0	45.8843534244016	0
1.4	45.6525428727027	0	1	0	1	0	45.6525428727027	0
1.41	45.4251619590867	0	1	0	1	0	45.4251619590867	0
1.42	45.2021251961225	0	1	0	1	0	45.2021251961225	0
1.43	44.9833494876359	0	1	0	1	0	44.9833494876359	0
1.44	44.7687540456798	0	1	0	1	0	44.7687540456798	0
1.45	44.55826031094	0	1	0	1	0	44.55826031094	0
1.46	44.3517918764126	0	1	0	1	0	44.3517918764126	0
1.47	44.1492744141953	0	1	0	1	0	44.1492744141953	0
1.48	43.9506356052486	0	1	0	1	0	43.9506356052486	0
1.49	43.7558050719833	0	1	0	1	0	43.7558050719833	0
1.5	43.5647143135461	0	1	0	1	0	43.5647143135461	0
1.51	43.3772966436758	0	1	0	1	0	43.3772966436758	0
1.52	43.1934871310129	0	1	0	1	0	43.1934871310129	0
1.53	43.0132225417497	0	1	0	1	0	43.0132225417497	0
1.54	42.836441284515	0	1	0	1	0	42.836441284515	0
1.55	42.6630833573924	0	1	0	1	0	42.6630833573924	0
1.56	42.4930902969762	0	1	0	1	0	42.4930902969762	0
1.57	42.3264051293743	0	1	0	1	0	42.3264051293743	0
1.58	42.1629723230714	0	1	0	1	0	42.1629723230714	0
1.59	42.0027377435716	0	1	0	1	0	42.0027377435716	0
1.6	41.8456486097414	0	1	0	1	0	41.8456486097414	0
1.61	41.6916534517798	0	1	0	1	0	41.6916534517798	0
1.62	41.540702070745	0	1	0	1	0	41.540702070745	0
1.63	41.3927454995713	0	1	0	1	0	41.3927454995713	0
1.64	41.2477359655113	0	1	0	1	0	41.2477359655113	0
1.65	41.1056268539451	0	1	0	1	0	41.1056268539451	0
1.66	40.9663726734966	0	1	0	1	0	40.9663726734966	0
1.67	40.8299290224035	0	1	0	1	0	40.8299290224035	0
1.68	40.6962525560883	0	1	0	1	0	40.6962525560883	0
1.69	40.5653009558806	0	1	0	1	0	40.5653009558806	0
1.7	40.4370328988434	0	1	0	1	0	40.4370328988434	0
1.71	40.3114080286584	0	1	0	1	0	40.3114080286584	0
1.72	40.1883869275259	0	1	0	1	0	40.1883869275259	0
1.73	40.0679310890407	0	1	0	1	0	40.0679310890407	0
1.74	39.9500028920023	0	1	0	1	0	39.9500028920023	0
1.75	39.8345655751232	0	1	0	1	0	39.8345655751232	0
1.76	39.7215832125999	0	1	0	1	0	39.7215832125999	0
1.77	39.6110206905113	0	1	0	1	0	39.6110206905113	0
1.78	39.5028436840132	0	1	0	1	0	39.5028436840132	0
1.79	39.3970186352972	0	1	0	1	0	39.3970186352972	0
1.8	39.2935127322838	0	1	0	1	0	39.2935127322838	0
1.81	39.1922938880223	0	1	0	1	0	39.1922938880223	0
1.82	39.0933307207699	0	1	0	1	0	39.0933307207699	0
1.83	38.9965925347233	0	1	0	1	0	38.9965925347233	0
1.84	38.9020493013795	0	1	0	1	0	38.9020493013795	0
1.85	38.8096716415003	0	1	0	1	0	38.8096716415003	0
1.86	38.719430807659	0	1	0	1	0	38.719430807659	0
1.87	38.6312986673473	0	1	0	1	0	38.6312986673473	0
1.88	38.5452476866208	0	1	0	1	0	38.5452476866208	0
1.89	38.461250914264	0	1	0	1	0	38.461250914264	0
1.9	38.3792819664557	0	1	0	1	0	38.3792819664557	0
1.91	38.2993150119151	0	1	0	1	0	38.2993150119151	0
1.92	38.2213247575134	0	1	0	1	0	38.2213247575134	0
1.93	38.1452864343314	0	1	0	1	0	38.1452864343314	0
1.94	38.0711757841496	0	1	0	1	0	38.0711757841496	0
1.95	37.9989690463528	0	1	0	1	0	37.9989690463528	0
1.96	37.9286429452363	0	1	0	1	0	37.9286429452363	0
1.97	37.8601746776986	0	1	0	1	0	37.8601746776986	0
1.98	37.7935419013069	0	1	0	1	0	37.7935419013069	0
1.99	37.7287227227227	0	1	0	1	0	37.7287227227227	0
2	37.6656956864739	0	1	0	1	0	37.6656956864739	0
2.01	37.6044397640633	0	1	0	1	0	37.6044397640633	0
2.02	37.5449343433995	0	1	0	1	0	37.5449343433995	0
2.03	37.4871592185405	0	1	0	1	0	37.4871592185405	0
2.04	37.4310945797395	0	1	0	1	0	37.4310945797395	0
2.05	37.3767210037813	0	1	0	1	0	37.3767210037813	0
2.06	37.3240194446003	0	1	0	1	0	37.3240194446003	0
2.07	37.272971224171	0	1	0	1	0	37.272971224171	0
2.08	37.2235580236607	0	1	0	1	0	37.2235580236607	0
2.09	37.1757618748363	0	1	0	1	0	37.1757618748363	0
2.1	37.1295651517169	0	1	0	1	0	37.1295651517169	0
2.11	37.0849505624631	0	1	0	1	0	37.0849505624631	0
2.12	37.0419011414969	0	1	0	1	0	37.0419011414969	0
2.13	37.0004002418427	0	1	0	1	0	37.0004002418427	0
2.14	36.9604315276833	0	1	0	1	0	36.9604315276833	0
2.15	36.9219789671234	0	1	0	1	0	36.9219789671234	0
2.16	36.8850268251551	0	1	0	1	0	36.8850268251551	0
2.17	36.8495596568164	0	1	0	1	0	36.8495596568164	0
2.18	36.8155623005393	0	1	0	1	0	36.8155623005393	0
2.19	36.7830198716792	0	1	0	1	0	36.7830198716792	0
2.2	36.7519177562216	0	1	0	1	0	36.7519177562216	0
2.21	36.722241604659	0	1	0	1	0	36.722241604659	0
2.22	36.6939773260335	0	1	0	1	0	36.6939773260335	0
2.23	36.6671110821399	0	1	0	1	0	36.6671110821399	0
2.24	36.6416292818838	0	1	0	1	0	36.6416292818838	0
2.25	36.6175185757902	0	1	0	1	0	36.6175185757902	0
2.26	36.5947658506581	0	1	0	1	0	36.5947658506581	0
2.27	36.5733582243559	0	1	0	1	0	36.5733582243559	0
2.28	36.5532830407545	0	1	0	1	0	36.5532830407545	0
2.29	36.5345278647927	0	1	0	1	0	36.5345278647927	0
2.3	36.5170804776708	0	1	0	1	0	36.5170804776708	0
2.31	36.5009288721704	0	1	0	1	0	36.5009288721704	0
2.32	36.486061248094	0	1	0	1	0	36.486061248094	0
2.33	36.4724660078227	0	1	0	1	0	36.4724660078227	0
2.34	36.4601317519872	0	1	0	1	0	36.4601317519872	0
2.35	36.4490472752503	0	1	0	1	0	36.4490472752503	0
2.36	36.4392015621957	0	1	0	1	0	36.4392015621957	0
2.37	36.4305837833213	0	1	0	1	0	36.4305837833213	0
2.38	36.4231832911334	0	1	0	1	0	36.4231832911334	0
2.39	36.416989616339	0	1	0	1	0	36.416989616339	0
2.4	36.4119924641334	0	1	0	1	0	36.4119924641334	0
2.41	36.40818171058	0	1	0	1	0	36.40818171058	0
2.42	36.4055473990801	0	1	0	1	0	36.4055473990801	0
2.43	36.4040797369293	0	1	0	1	0	36.4040797369293	0
2.44	36.4037690919598	0	1	0	1	0	36.4037690919598	0
2.45	36.4046059892632	0	1	0	1	0	36.4046059892632	0
2.46	36.4065811079951	0	1	0	1	0	36.4065811079951	0
2.47	36.4096852782556	0	1	0	1	0	36.4096852782556	0
2.48	36.4139094780466	0	1	0	1	0	36.4139094780466	0
2.49	36.4192448303016	0	1	0	1	0	36.4192448303016	0
2.5	36.4256825999873	0	1	0	1	0	36.4256825999873	0
2.51	36.433214191274	0	1	0	1	0	36.433214191274	0
2.52	36.4418311447738	0	1	0	1	0	36.4418311447738	0
2.53	36.451525134844	0	1	0	1	0	36.451525134844	0
2.54	36.4622879669543	0	1	0	1	0	36.4622879669543	0
2.55	36.4741115751164	0	1	0	1	0	36.4741115751164	0
2.56	36.4869880193726	0	1	0	1	0	36.4869880193726	0
2.57	36.5009094833448	0	1	0	1	0	36.5009094833448	0
2.58	36.5158682718385	0	1	0	1	0	36.5158682718385	0
2.59	36.5318568085045	0	1	0	1	0	36.5318568085045	0
2.6	36.5488676335524	0	1	0	1	0	36.5488676335524	0
2.61	36.5668934015181	0	1	0	1	0	36.5668934015181	0
2.62	36.5859268790823	0	1	0	1	0	36.5859268790823	0
2.63	36.6059609429378	0	1	0	1	0	36.6059609429378	0
2.64	36.6269885777065	0	1	0	1	0	36.6269885777065	0
2.65	36.6490028739029	0	1	0	1	0	36.6490028739029	0
2.66	36.6719970259432	0	1	0	1	0	36.6719970259432	0
2.67	36.6959643302002	0	1	0	1	0	36.6959643302002	0
2.68	36.7208981831008	0	1	0	1	0	36.7208981831008	0
2.69	36.7467920792661	0	1	0	1	0	36.7467920792661	0
2.7	36.7736396096934	0	1	0	1	0	36.7736396096934	0
2.71	36.8014344599778	0	1	0	1	0	36.8014344599778	0
2.72	36.8301704085732	0	1	0	1	0	36.8301704085732	0
2.73	36.8598413250918	0	1	0	1	0	36.8598413250918	0
2.74	36.8904411686403	0	1	0	1	0	36.8904411686403	0
2.75	36.9219639861932	0	1	0	1	0	36.9219639861932	0
2.76	36.9544039110005	0	1	0	1	0	36.9544039110005	0
2.77	36.9877551610309	0	1	0	1	0	36.9877551610309	0
2.78	37.0220120374475	0	1	0	1	0	37.0220120374475	0
2.79	37.0571689231173	0	1	0	1	0	37.0571689231173	0
2.8	37.093220281152	0	1	0	1	0	37.093220281152	0
2.81	37.1301606534803	0	1	0	1	0	37.1301606534803	0
2.82	37.1679846594503	0	1	0	1	0	37.1679846594503	0
2.83	37.2066869944617	0	1	0	1	0	37.2066869944617	0
2.84	37.2462624286268	0	1	0	1	0	37.2462624286268	0
2.85	37.2867058054601	0	1	0	1	0	37.2867058054601	0
2.86	37.3280120405946	0	1	0	1	0	37.3280120405946	0
2.87	37.3701761205254	0	1	0	1	0	37.3701761205254	0
2.88	37.4131931013799	0	1	0	1	0	37.4131931013799	0
2.89	37.4570581077127	0	1	0	1	0	37.4570581077127	0
2.9	37.5017663313258	0	1	0	1	0	37.5017663313258	0
2.91	37.5473130301135	0	1	0	1	0	37.5473130301135	0
2.92	37.5936935269302	0	1	0	1	0	37.5936935269302	0
2.93	37.6409032084823	0	1	0	1	0	37.6409032084823	0
2.94	37.688937524242	0	1	0	1	0	37.688937524242	0
2.95	37.7377919853837	0	1	0	1	0	37.7377919853837	0
2.96	37.7874621637415	0	1	0	1	0	37.7874621637415	0
2.97	37.837943690788	0	1	0	1	0	37.837943690788	0
2.98	37.889232256634	0	1	0	1	0	37.889232256634	0
2.99	37.9413236090475	0	1	0	1	0	37.9413236090475	0
3	37.9942135524929	0	1	0	1	0	37.9942135524929	0
3.01	38.0478979471895	0	1	0	1	0	38.0478979471895	0
3.02	38.1023727081877	0	1	0	1	0	38.1023727081877	0
3.03	38.157633804465	0	1	0	1	0	38.157633804465	0
3.04	38.2136772580385	0	1	0	1	0	38.2136772580385	0
3.05	38.2704991430956	0	1	0	1	0	38.2704991430956	0
3.06	38.3280955851415	0	1	0	1	0	38.3280955851415	0
3.07	38.3864627601634	0	1	0	1	0	38.3864627601634	0
3.08	38.4455968938111	0	1	0	1	0	38.4455968938111	0
3.09	38.5054942605932	0	1	0	1	0	38.5054942605932	0
3.1	38.5661511830891	0	1	0	1	0	38.5661511830891	0
3.11	38.6275640311765	0	1	0	1	0	38.6275640311765	0
3.12	38.6897292212727	0	1	0	1	0	38.6897292212727	0
3.13	38.752643215592	0	1	0	1	0	38.752643215592	0
3.14	38.8163025214158	0	1	0	1	0	38.8163025214158	0
3.15	38.8807036903775	0	1	0	1	0	38.8807036903775	0
3.16	38.9458433177608	0	1	0	1	0	38.9458433177608	0
3.17	39.0117180418109	0	1	0	1	0	39.0117180418109	0
3.18	39.0783245430596	0	1	0	1	0	39.0783245430596	0
3.19	39.1456595436618	0	1	0	1	0	39.1456595436618	0
3.2	39.2137198067457	0	1	0	1	0	39.2137198067457	0
3.21	39.282502135774	0	1	0	1	0	39.282502135774	0
3.22	39.3520033739183	0	1	0	1	0	39.3520033739183	0
3.23	39.422220403444	0	1	0	1	0	39.422220403444	0
3.24	39.4931501451068	0	1	0	1	0	39.4931501451068	0
3.25	39.564789557561	0	1	0	1	0	39.564789557561	0
3.26	39.6371356367781	0	1	0	1	0	39.6371356367781	0
3.27	39.7101854154759	0	1	0	1	0	39.7101854154759	0
3.28	39.7839359625587	0	1	0	1	0	39.7839359625587	0
3.29	39.8583843825671	0	1	0	1	0	39.8583843825671	0
3.3	39.9335278151385	0	1	0	1	0	39.9335278151385	0
3.31	40.0093634344762	0	1	0	1	0	40.0093634344762	0
3.32	40.0858884488295	0	1	0	1	0	40.0858884488295	0
3.33	40.1631000999822	0	1	0	1	0	40.1631000999822	0
3.34	40.2409956627506	0	1	0	1	0	40.2409956627506	0
3.35	40.3195724444905	0	1	0	1	0	40.3195724444905	0
3.36	40.3988277846129	0	1	0	1	0	40.3988277846129	0
3.37	40.4787590541088	0	1	0	1	0	40.4787590541088	0
3.38	40.5593636550814	0	1	0	1	0	40.5593636550814	0
3.39	40.6406390202877	0	1	0	1	0	40.6406390202877	0
3.4	40.7225826126876	0	1	0	1	0	40.7225826126876	0
3.41	40.8051919250008	0	1	0	1	0	40.8051919250008	0
3.42	40.8884644792721	0	1	0	1	0	40.8884644792721	0
3.43	40.9723978264437	0	1	0	1	0	40.9723978264437	0
3.44	41.0569895459353	0	1	0	1	0	41.0569895459353	0
3.45	41.142237245231	0	1	0	1	0	41.142237245231	0
3.46	41.2281385594745	0	1	0	1	0	41.2281385594745	0
3.47	41.3146911510696	0	1	0	1	0	41.3146911510696	0
3.48	41.4018927092894	0	1	0	1	0	41.4018927092894	0
3.49	41.4897409498908	0	1	0	1	0	41.4897409498908	0
3.5	41.5782336147363	0	1	0	1	0	41.5782336147363	0
3.51	41.6673684714224	0	1	0	1	0	41.6673684714224	0
3.52	41.7571433129135	0	1	0	1	0	41.7571433129135	0
3.53	41.8475559571831	0	1	0	1	0	41.8475559571831	0
3.54	41.9386042468604	0	1	0	1	0	41.9386042468604	0
3.55	42.0302860488828	0	1	0	1	0	42.0302860488828	0
3.56	42.1225992541549	0	1	0	1	0	42.1225992541549	0
3.57	42.2155417772126	0	1	0	1	0	42.2155417772126	0
3.58	42.3091115558929	0	1	0	1	0	42.3091115558929	0
3.59	42.4033065510097	0	1	0	1	0	42.4033065510097	0
3.6	42.4981247460344	0	1	0	1	0	42.4981247460344	0
3.61	42.5935641467825	0	1	0	1	0	42.5935641467825	0
3.62	42.6896227811043	0	1	0	1	0	42.6896227811043	0
3.63	42.7862986985821	0	1	0	1	0	42.7862986985821	0
3.64	42.8835899702311	0	1	0	1	0	42.8835899702311	0
3.65	42.9814946882063	0	1	0	1	0	42.9814946882063	0
3.66	43.0800109655132	0	1	0	1	0	43.0800109655132	0
3.67	43.1791369357242	0	1	0	1	0	43.1791369357242	0
3.68	43.278870752699	0	1	0	1	0	43.278870752699	0
3.69	43.3792105903095	0	1	0	1	0	43.3792105903095	0
3.7	43.4801546421695	0	1	0	1	0	43.4801546421695	0
3.71	43.5817011213688	0	1	0	1	0	43.5817011213688	0
3.72	43.6838482602113	0	1	0	1	0	43.6838482602113	0
3.73	43.7865943099572	0	1	0	1	0	43.7865943099572	0
3.74	43.8899375405702	0	1	0	1	0	43.8899375405702	0
3.75	43.9938762404673	0	1	0	1	0	43.9938762404673	0
3.76	44.0984087162741	0	1	0	1	0	44.0984087162741	0
3.77	44.2035332925829	0	1	0	1	0	44.2035332925829	0
3.78	44.3092483117152	0	1	0	1	0	44.3092483117152	0
3.79	44.4155521334879	0	1	0	1	0	44.4155521334879	0
3.8	44.5224431349829	0	1	0	1	0	44.5224431349829	0
3.81	44.6299197103206	0	1	0	1	0	44.6299197103206	0
3.82	44.7379802704369	0	1	0	1	0	44.7379802704369	0
3.83	44.8466232428636	0	1	0	1	0	44.8466232428636	0
3.84	44.9558470715126	0	1	0	1	0	44.9558470715126	0
3.85	45.0656502164627	0	1	0	1	0	45.0656502164627	0
3.86	45.1760311537505	0	1	0	1	0	45.1760311537505	0
3.87	45.2869883751643	0	1	0	1	0	45.2869883751643	0
3.88	45.3985203880409	0	1	0	1	0	45.3985203880409	0
3.89	45.5106257150657	0	1	0	1	0	45.5106257150657	0
3.9	45.6233028940761	0	1	0	1	0	45.6233028940761	0
3.91	45.7365504778679	0	1	0	1	0	45.7365504778679	0
3.92	45.8503670340039	0	1	0	1	0	45.8503670340039	0
3.93	45.9647511446267	0	1	0	1	0	45.9647511446267	0
3.94	46.0797014062734	0	1	0	1	0	46.0797014062734	0
3.95	46.1952164296932	0	1	0	1	0	46.1952164296932	0
3.96	46.3112948396683	0	1	0	1	0	46.3112948396683	0
3.97	46.4279352748369	0	1	0	1	0	46.4279352748369	0
3.98	46.5451363875193	0	1	0	1	0	46.5451363875193	0
3.99	46.6628968435462	0	1	0	1	0	46.6628968435462	0
4	46.7812153220903	0	1	0	1	0	46.7812153220903	0
4.01	46.9000905154994	0	1	0	1	0	46.9000905154994	0
4.02	47.0195211291328	0	1	0	1	0	47.0195211291328	0
4.03	47.1395058811999	0	1	0	1	0	47.1395058811999	0
4.04	47.2600435026011	0	1	0	1	0	47.2600435026011	0
4.05	47.3811327367709	0	1	0	1	0	47.3811327367709	0
4.06	47.5027723395241	0	1	0	1	0	47.5027723395241	0
4.07	47.6249610789031	0	1	0	1	0	47.6249610789031	0
4.08	47.7476977350285	0	1	0	1	0	47.7476977350285	0
4.09	47.8709810999511	0	1	0	1	0	47.8709810999511	0
4.1	47.9948099775066	0	1	0	1	0	47.9948099775066	0
4.11	48.1191831831723	0	1	0	1	0	48.1191831831723	0
4.12	48.2440995439257	0	1	0	1	0	48.2440995439257	0
4.13	48.3695578981052	0	1	0	1	0	48.3695578981052	0
4.14	48.495557095273	0	1	0	1	0	48.495557095273	0
4.15	48.62209599608	0	1	0	1	0	48.62209599608	0
4.16	48.7491734721322	0	1	0	1	0	48.7491734721322	0
4.17	48.8767884058596	0	1	0	1	0	48.8767884058596	0
4.18	49.0049396903867	0	1	0	1	0	49.0049396903867	0
4.19	49.1336262294047	0	1	0	1	0	49.1336262294047	0
4.2	49.2628469370459	0	1	0	1	0	49.2628469370459	0
4.21	49.3926007377598	0	1	0	1	0	49.3926007377598	0
4.22	49.5228865661905	0	1	0	1	0	49.5228865661905	0
4.23	49.6537033670562	0	1	0	1	0	49.6537033670562	0
4.24	49.7850500950311	0	1	0	1	0	49.7850500950311	0
4.25	49.9169257146273	0	1	0	1	0	49.9169257146273	0
4.26	50.0493292000801	0	1	0	1	0	50.0493292000801	0
4.27	50.1822595352336	0	1	0	1	0	50.1822595352336	0
4.28	50.3157157134288	0	1	0	1	0	50.3157157134288	0
4.29	50.4496967373928	0	1	0	1	0	50.4496967373928	0
4.3	50.5842016191297	0	1	0	1	0	50.5842016191297	0
4.31	50.7192293798128	0	1	0	1	0	50.7192293798128	0
4.32	50.8547790496787	0	1	0	1	0	50.8547790496787	0
4.33	50.9908496679226	0	1	0	1	0	50.9908496679226	0
4.34	51.1274402825949	0	1	0	1	0	51.1274402825949	0
4.35	51.2645499504997	0	1	0	1	0	51.2645499504997	0
4.36	51.4021777370942	0	1	0	1	0	51.4021777370942	0
4.37	51.5403227163898	0	1	0	1	0	51.5403227163898	0
4.38	51.6789839708544	0	1	0	1	0	51.6789839708544	0
4.39	51.8181605913162	0	1	0	1	0	51.8181605913162	0
4.4	51.9578516768683	0	1	0	1	0	51.9578516768683	0
4.41	52.0980563347756	0	1	0	1	0	52.0980563347756	0
4.42	52.2387736803819	0	1	0	1	0	52.2387736803819	0
4.43	52.380002837019	0	1	0	1	0	52.380002837019	0
4.44	52.5217429359165	0	1	0	1	0	52.5217429359165	0
4.45	52.6639931161131	0	1	0	1	0	52.6639931161131	0
4.46	52.8067525243694	0	1	0	1	0	52.8067525243694	0
4.47	52.9500203150809	0	1	0	1	0	52.9500203150809	0
4.48	53.0937956501934	0	1	0	1	0	53.0937956501934	0
4.49	53.2380776991185	0	1	0	1	0	53.2380776991185	0
4.5	53.382865638651	0	1	0	1	0	53.382865638651	0
4.51	53.5281586528866	0	1	0	1	0	53.5281586528866	0
4.52	53.6739559331416	0	1	0	1	0	53.6739559331416	0
4.53	53.820256677873	0	1	0	1	0	53.820256677873	0
4.54	53.9670600925997	0	1	0	1	0	53.9670600925997	0
4.55	54.1143653898251	0	1	0	1	0	54.1143653898251	0
4.56	54.2621717889605	0	1	0	1	0	54.2621717889605	0
4.57	54.4104785162495	0	1	0	1	0	54.4104785162495	0
4.58	54.5592848046934	0	1	0	1	0	54.5592848046934	0
4.59	54.7085898939775	0	1	0	1	0	54.7085898939775	0
4.6	54.8583930303986	0	1	0	1	0	54.8583930303986	0
4.61	55.0086934667933	0	1	0	1	0	55.0086934667933	0
4.62	55.159490462467	0	1	0	1	0	55.159490462467	0
4.63	55.3107832831242	0	1	0	1	0	55.3107832831242	0
4.64	55.4625712007997	0	1	0	1	0	55.4625712007997	0
4.65	55.6148534937902	0	1	0	1	0	55.6148534937902	0
4.66	55.7676294465873	0	1	0	1	0	55.7676294465873	0
4.67	55.9208983498112	0	1	0	1	0	55.9208983498112	0
4.68	56.0746595001451	0	1	0	1	0	56.0746595001451	0
4.69	56.2289122002709	0	1	0	1	0	56.2289122002709	0
4.7	56.3836557588047	0	1	0	1	0	56.3836557588047	0
4.71	56.5388894902345	0	1	0	1	0	56.5388894902345	0
4.72	56.6946127148577	0	1	0	1	0	56.6946127148577	0
4.73	56.8508247587197	0	1	0	1	0	56.8508247587197	0
4.74	57.0075249535532	0	1	0	1	0	57.0075249535532	0
4.75	57.1647126367185	0	1	0	1	0	57.1647126367185	0
4.76	57.3223871511443	0	1	0	1	0	57.3223871511443	0
4.77	57.4805478452692	0	1	0	1	0	57.4805478452692	0
4.78	57.6391940729845	0	1	0	1	0	57.6391940729845	0
4.79	57.7983251935766	0	1	0	1	0	57.7983251935766	0
4.8	57.9579405716715	0	1	0	1	0	57.9579405716715	0
4.81	58.1180395771787	0	1	0	1	0	58.1180395771787	0
4.82	58.2786215852369	0	1	0	1	0	58.2786215852369	0
4.83	58.4396859761596	0	1	0	1	0	58.4396859761596	0
4.84	58.6012321353814	0	1	0	1	0	58.6012321353814	0
4.85	58.7632594534059	0	1	0	1	0	58.7632594534059	0
4.86	58.9257673257529	0	1	0	1	0	58.9257673257529	0
4.87	59.0887551529071	0	1	0	1	0	59.0887551529071	0
4.88	59.2522223402673	0	1	0	1	0	59.2522223402673	0
4.89	59.4161682980962	0	1	0	1	0	59.4161682980962	0
4.9	59.5805924414706	0	1	0	1	0	59.5805924414706	0
4.91	59.7454941902324	0	1	0	1	0	59.7454941902324	0
4.92	59.9108729689404	0	1	0	1	0	59.9108729689404	0
4.93	60.0767282068222	0	1	0	1	0	60.0767282068222	0
