# GHZ S RI R 50
1	53.7947734251681	0	1	0	1	0	53.7947734251681	0
1.01	53.3558255740147	0	1	0	1	0	53.3558255740147	0
1.02	52.926795800849	0	1	0	1	0	52.926795800849	0
1.03	52.5074080863134	0	1	0	1	0	52.5074080863134	0
1.04	52.0973970271792	0	1	0	1	0	52.0973970271792	0
1.05	51.6965073308171	0	1	0	1	0	51.6965073308171	0
1.06	51.304493338282	0	1	0	1	0	51.304493338282	0
1.07	50.9211185741406	0	1	0	1	0	50.9211185741406	0
1.08	50.5461553213089	0	1	0	1	0	50.5461553213089	0
1.09	50.1793842192934	0	1	0	1	0	50.1793842192934	0
1.1	49.8205938843457	0	1	0	1	0	49.8205938843457	0
1.11	49.4695805501497	0	1	0	1	0	49.4695805501497	0
1.12	49.1261477277578	0	1	0	1	0	49.1261477277578	0
1.13	48.7901058835834	0	1	0	1	0	48.7901058835834	0
1.14	48.4612721343411	0	1	0	1	0	48.4612721343411	0
1.15	48.1394699579033	0	1	0	1	0	48.1394699579033	0
1.16	47.8245289191124	0	1	0	1	0	47.8245289191124	0
1.17	47.5162844096537	0	1	0	1	0	47.5162844096537	0
1.18	47.2145774011554	0	1	0	1	0	47.2145774011554	0
1.19	46.9192542107372	0	1	0	1	0	46.9192542107372	0
1.2	46.6301662782813	0	1	0	1	0	46.6301662782813	0
1.21	46.3471699547485	0	1	0	1	0	46.3471699547485	0
1.22	46.0701263009039	0	1	0	1	0	46.0701263009039	0
1.23	45.7989008958619	0	1	0	1	0	45.7989008958619	0
1.24	45.5333636548943	0	1	0	1	0	45.5333636548943	0
1.25	45.2733886559843	0	1	0	1	0	45.2733886559843	0
1.26	45.0188539746396	0	1	0	1	0	45.0188539746396	0
1.27	44.769641526509	0	1	0	1	0	44.769641526509	0
1.28	44.5256369173776	0	1	0	1	0	44.5256369173776	0
1.29	44.2867293001379	0	1	0	1	0	44.2867293001379	0
1.3	44.0528112383626	0	1	0	1	0	44.0528112383626	0
1.31	43.8237785761258	0	1	0	1	0	43.8237785761258	0
1.32	43.5995303137422	0	1	0	1	0	43.5995303137422	0
1.33	43.3799684891105	0	1	0	1	0	43.3799684891105	0
1.34	43.1649980643717	0	1	0	1	0	43.1649980643717	0
1.35	42.9545268176031	0	1	0	1	0	42.9545268176031	0
1.36	42.7484652392916	0	1	0	1	0	42.7484652392916	0
1.37	42.5467264333405	0	1	0	1	0	42.5467264333405	0
1.38	42.3492260223804	0	1	0	1	0	42.3492260223804	0
1.39	42.1558820571679	0	1	0	1	0	42.1558820571679	0
1.4	41.9666149298664	0	1	0	1	0	41.9666149298664	0
1.41	41.7813472910178	0	1	0	1	0	41.7813472910178	0
1.42	41.6000039700216	0	1	0	1	0	41.6000039700216	0
1.43	41.4225118989519	0	1	0	1	0	41.4225118989519	0
1.44	41.248800039547	0	1	0	1	0	41.248800039547	0
1.45	41.0787993132218	0	1	0	1	0	41.0787993132218	0
1.46	40.9124425339548	0	1	0	1	0	40.9124425339548	0
1.47	40.7496643439158	0	1	0	1	0	40.7496643439158	0
1.48	40.5904011517024	0	1	0	1	0	40.5904011517024	0
1.49	40.4345910730638	0	1	0	1	0	40.4345910730638	0
1.5	40.282173873996	0	1	0	1	0	40.282173873996	0
1.51	40.1330909160978	0	1	0	1	0	40.1330909160978	0
1.52	39.9872851040837	0	1	0	1	0	39.9872851040837	0
1.53	39.8447008353555	0	1	0	1	0	39.8447008353555	0
1.54	39.7052839515384	0	1	0	1	0	39.7052839515384	0
1.55	39.5689816918929	0	1	0	1	0	39.5689816918929	0
1.56	39.435742648519	0	1	0	1	0	39.435742648519	0
1.57	39.3055167232722	0	1	0	1	0	39.3055167232722	0
1.58	39.1782550863155	0	1	0	1	0	39.1782550863155	0
1.59	39.0539101362353	0	1	0	1	0	39.0539101362353	0
1.6	38.9324354616534	0	1	0	1	0	38.9324354616534	0
1.61	38.8137858042695	0	1	0	1	0	38.8137858042695	0
1.62	38.697917023272	0	1	0	1	0	38.697917023272	0
1.63	38.5847860610594	0	1	0	1	0	38.5847860610594	0
1.64	38.4743509102157	0	1	0	1	0	38.4743509102157	0
1.65	38.3665705816864	0	1	0	1	0	38.3665705816864	0
1.66	38.2614050741052	0	1	0	1	0	38.2614050741052	0
1.67	38.1588153442222	0	1	0	1	0	38.1588153442222	0
1.68	38.0587632783887	0	1	0	1	0	38.0587632783887	0
1.69	37.9612116650545	0	1	0	1	0	37.9612116650545	0
1.7	37.8661241682347	0	1	0	1	0	37.8661241682347	0
1.71	37.7734653019096	0	1	0	1	0	37.7734653019096	0
1.72	37.6832004053153	0	1	0	1	0	37.6832004053153	0
1.73	37.5952956190931	0	1	0	1	0	37.5952956190931	0
1.74	37.5097178622603	0	1	0	1	0	37.5097178622603	0
1.75	37.4264348099708	0	1	0	1	0	37.4264348099708	0
1.76	37.3454148720343	0	1	0	1	0	37.3454148720343	0
1.77	37.2666271721631	0	1	0	1	0	37.2666271721631	0
1.78	37.1900415279185	0	1	0	1	0	37.1900415279185	0
1.79	37.1156284313297	0	1	0	1	0	37.1156284313297	0
1.8	37.0433590301589	0	1	0	1	0	37.0433590301589	0
1.81	36.9732051097864	0	1	0	1	0	36.9732051097864	0
1.82	36.9051390756944	0	1	0	1	0	36.9051390756944	0
1.83	36.8391339365236	0	1	0	1	0	36.8391339365236	0
1.84	36.7751632876837	0	1	0	1	0	36.7751632876837	0
1.85	36.7132012954942	0	1	0	1	0	36.7132012954942	0
1.86	36.6532226818379	0	1	0	1	0	36.6532226818379	0
1.87	36.5952027093057	0	1	0	1	0	36.5952027093057	0
1.88	36.5391171668165	0	1	0	1	0	36.5391171668165	0
1.89	36.4849423556931	0	1	0	1	0	36.4849423556931	0
1.9	36.4326550761777	0	1	0	1	0	36.4326550761777	0
1.91	36.3822326143714	0	1	0	1	0	36.3822326143714	0
1.92	36.3336527295813	0	1	0	1	0	36.3336527295813	0
1.93	36.2868936420619	0	1	0	1	0	36.2868936420619	0
1.94	36.2419340211342	0	1	0	1	0	36.2419340211342	0
1.95	36.1987529736719	0	1	0	1	0	36.1987529736719	0
1.96	36.1573300329388	0	1	0	1	0	36.1573300329388	0
1.97	36.1176451477672	0	1	0	1	0	36.1176451477672	0
1.98	36.0796786720632	0	1	0	1	0	36.0796786720632	0
1.99	36.0434113546296	0	1	0	1	0	36.0434113546296	0
2	36.0088243292928	0	1	0	1	0	36.0088243292928	0
2.01	35.9758991053256	0	1	0	1	0	35.9758991053256	0
2.02	35.944617558154	0	1	0	1	0	35.944617558154	0
2.03	35.914961920338	0	1	0	1	0	35.914961920338	0
2.04	35.8869147728193	0	1	0	1	0	35.8869147728193	0
2.05	35.8604590364233	0	1	0	1	0	35.8604590364233	0
2.06	35.83557796361	0	1	0	1	0	35.83557796361	0
2.07	35.8122551304633	0	1	0	1	0	35.8122551304633	0
2.08	35.7904744289118	0	1	0	1	0	35.7904744289118	0
2.09	35.7702200591722	0	1	0	1	0	35.7702200591722	0
2.1	35.7514765224099	0	1	0	1	0	35.7514765224099	0
2.11	35.7342286136068	0	1	0	1	0	35.7342286136068	0
2.12	35.7184614146319	0	1	0	1	0	35.7184614146319	0
2.13	35.704160287507	0	1	0	1	0	35.704160287507	0
2.14	35.691310867861	0	1	0	1	0	35.691310867861	0
2.15	35.6798990585668	0	1	0	1	0	35.6798990585668	0
2.16	35.6699110235553	0	1	0	1	0	35.6699110235553	0
2.17	35.6613331818002	0	1	0	1	0	35.6613331818002	0
2.18	35.6541522014681	0	1	0	1	0	35.6541522014681	0
2.19	35.6483549942296	0	1	0	1	0	35.6483549942296	0
2.2	35.643928709725	0	1	0	1	0	35.643928709725	0
2.21	35.6408607301801	0	1	0	1	0	35.6408607301801	0
2.22	35.6391386651682	0	1	0	1	0	35.6391386651682	0
2.23	35.6387503465121	0	1	0	1	0	35.6387503465121	0
2.24	35.6396838233237	0	1	0	1	0	35.6396838233237	0
2.25	35.6419273571751	0	1	0	1	0	35.6419273571751	0
2.26	35.6454694173983	0	1	0	1	0	35.6454694173983	0
2.27	35.6502986765086	0	1	0	1	0	35.6502986765086	0
2.28	35.6564040057493	0	1	0	1	0	35.6564040057493	0
2.29	35.6637744707524	0	1	0	1	0	35.6637744707524	0
2.3	35.6723993273128	0	1	0	1	0	35.6723993273128	0
2.31	35.6822680172724	0	1	0	1	0	35.6822680172724	0
2.32	35.6933701645102	0	1	0	1	0	35.6933701645102	0
2.33	35.7056955710359	0	1	0	1	0	35.7056955710359	0
2.34	35.7192342131839	0	1	0	1	0	35.7192342131839	0
2.35	35.7339762379044	0	1	0	1	0	35.7339762379044	0
2.36	35.7499119591482	0	1	0	1	0	35.7499119591482	0
2.37	35.7670318543438	0	1	0	1	0	35.7670318543438	0
2.38	35.7853265609628	0	1	0	1	0	35.7853265609628	0
2.39	35.8047868731721	0	1	0	1	0	35.8047868731721	0
2.4	35.825403738569	0	1	0	1	0	35.825403738569	0
2.41	35.8471682549981	0	1	0	1	0	35.8471682549981	0
2.42	35.870071667447	0	1	0	1	0	35.870071667447	0
2.43	35.894105365019	0	1	0	1	0	35.894105365019	0
2.44	35.9192608779795	0	1	0	1	0	35.9192608779795	0
2.45	35.9455298748751	0	1	0	1	0	35.9455298748751	0
2.46	35.9729041597235	0	1	0	1	0	35.9729041597235	0
2.47	36.0013756692707	0	1	0	1	0	36.0013756692707	0
2.48	36.0309364703151	0	1	0	1	0	36.0309364703151	0
2.49	36.0615787570963	0	1	0	1	0	36.0615787570963	0
2.5	36.0932948487459	0	1	0	1	0	36.0932948487459	0
2.51	36.1260771867998	0	1	0	1	0	36.1260771867998	0
2.52	36.1599183327695	0	1	0	1	0	36.1599183327695	0
2.53	36.1948109657713	0	1	0	1	0	36.1948109657713	0
2.54	36.2307478802106	0	1	0	1	0	36.2307478802106	0
2.55	36.2677219835221	0	1	0	1	0	36.2677219835221	0
2.56	36.3057262939617	0	1	0	1	0	36.3057262939617	0
2.57	36.3447539384504	0	1	0	1	0	36.3447539384504	0
2.58	36.3847981504688	0	1	0	1	0	36.3847981504688	0
2.59	36.4258522679998	0	1	0	1	0	36.4258522679998	0
2.6	36.4679097315185	0	1	0	1	0	36.4679097315185	0
2.61	36.5109640820295	0	1	0	1	0	36.5109640820295	0
2.62	36.5550089591478	0	1	0	1	0	36.5550089591478	0
2.63	36.6000380992244	0	1	0	1	0	36.6000380992244	0
2.64	36.646045333514	0	1	0	1	0	36.646045333514	0
2.65	36.6930245863845	0	1	0	1	0	36.6930245863845	0
2.66	36.7409698735665	0	1	0	1	0	36.7409698735665	0
2.67	36.789875300443	0	1	0	1	0	36.789875300443	0
2.68	36.8397350603758	0	1	0	1	0	36.8397350603758	0
2.69	36.8905434330713	0	1	0	1	0	36.8905434330713	0
2.7	36.9422947829805	0	1	0	1	0	36.9422947829805	0
2.71	36.9949835577364	0	1	0	1	0	36.9949835577364	0
2.72	37.0486042866241	0	1	0	1	0	37.0486042866241	0
2.73	37.1031515790858	0	1	0	1	0	37.1031515790858	0
2.74	37.1586201232582	0	1	0	1	0	37.1586201232582	0
2.75	37.215004684541	0	1	0	1	0	37.215004684541	0
2.76	37.2723001041981	0	1	0	1	0	37.2723001041981	0
2.77	37.3305012979876	0	1	0	1	0	37.3305012979876	0
2.78	37.3896032548222	0	1	0	1	0	37.3896032548222	0
2.79	37.449601035458	0	1	0	1	0	37.449601035458	0
2.8	37.5104897712121	0	1	0	1	0	37.5104897712121	0
2.81	37.5722646627062	0	1	0	1	0	37.5722646627062	0
2.82	37.6349209786387	0	1	0	1	0	37.6349209786387	0
2.83	37.6984540545813	0	1	0	1	0	37.6984540545813	0
2.84	37.7628592918019	0	1	0	1	0	37.7628592918019	0
2.85	37.8281321561121	0	1	0	1	0	37.8281321561121	0
2.86	37.8942681767386	0	1	0	1	0	37.8942681767386	0
2.87	37.9612629452187	0	1	0	1	0	37.9612629452187	0
2.88	38.0291121143182	0	1	0	1	0	38.0291121143182	0
2.89	38.0978113969722	0	1	0	1	0	38.0978113969722	0
2.9	38.1673565652478	0	1	0	1	0	38.1673565652478	0
2.91	38.2377434493281	0	1	0	1	0	38.2377434493281	0
2.92	38.3089679365169	0	1	0	1	0	38.3089679365169	0
2.93	38.381025970264	0	1	0	1	0	38.381025970264	0
2.94	38.4539135492103	0	1	0	1	0	38.4539135492103	0
2.95	38.5276267262526	0	1	0	1	0	38.5276267262526	0
2.96	38.6021616076269	0	1	0	1	0	38.6021616076269	0
2.97	38.6775143520101	0	1	0	1	0	38.6775143520101	0
2.98	38.7536811696411	0	1	0	1	0	38.7536811696411	0
2.99	38.8306583214575	0	1	0	1	0	38.8306583214575	0
3	38.9084421182511	0	1	0	1	0	38.9084421182511	0
3.01	38.98702891984	0	1	0	1	0	38.98702891984	0
3.02	39.0664151342563	0	1	0	1	0	39.0664151342563	0
3.03	39.1465972169509	0	1	0	1	0	39.1465972169509	0
3.04	39.2275716700138	0	1	0	1	0	39.2275716700138	0
3.05	39.3093350414088	0	1	0	1	0	39.3093350414088	0
3.06	39.3918839242246	0	1	0	1	0	39.3918839242246	0
3.07	39.4752149559396	0	1	0	1	0	39.4752149559396	0
3.08	39.5593248177012	0	1	0	1	0	39.5593248177012	0
3.09	39.6442102336195	0	1	0	1	0	39.6442102336195	0
3.1	39.729867970074	0	1	0	1	0	39.729867970074	0
3.11	39.8162948350341	0	1	0	1	0	39.8162948350341	0
3.12	39.9034876773929	0	1	0	1	0	39.9034876773929	0
3.13	39.991443386313	0	1	0	1	0	39.991443386313	0
3.14	40.0801588905857	0	1	0	1	0	40.0801588905857	0
3.15	40.1696311580016	0	1	0	1	0	40.1696311580016	0
3.16	40.2598571947339	0	1	0	1	0	40.2598571947339	0
3.17	40.3508340447325	0	1	0	1	0	40.3508340447325	0
3.18	40.4425587891306	0	1	0	1	0	40.4425587891306	0
3.19	40.5350285456615	0	1	0	1	0	40.5350285456615	0
3.2	40.6282404680869	0	1	0	1	0	40.6282404680869	0
3.21	40.7221917456355	0	1	0	1	0	40.7221917456355	0
3.22	40.8168796024524	0	1	0	1	0	40.8168796024524	0
3.23	40.9123012970589	0	1	0	1	0	40.9123012970589	0
3.24	41.0084541218215	0	1	0	1	0	41.0084541218215	0
3.25	41.1053354024314	0	1	0	1	0	41.1053354024314	0
3.26	41.2029424973934	0	1	0	1	0	41.2029424973934	0
3.27	41.3012727975242	0	1	0	1	0	41.3012727975242	0
3.28	41.40032372546	0	1	0	1	0	41.40032372546	0
3.29	41.5000927351724	0	1	0	1	0	41.5000927351724	0
3.3	41.6005773114941	0	1	0	1	0	41.6005773114941	0
3.31	41.7017749696527	0	1	0	1	0	41.7017749696527	0
3.32	41.8036832548127	0	1	0	1	0	41.8036832548127	0
3.33	41.9062997416259	0	1	0	1	0	41.9062997416259	0
3.34	42.0096220337906	0	1	0	1	0	42.0096220337906	0
3.35	42.1136477636174	0	1	0	1	0	42.1136477636174	0
3.36	42.2183745916037	0	1	0	1	0	42.2183745916037	0
3.37	42.3238002060155	0	1	0	1	0	42.3238002060155	0
3.38	42.4299223224767	0	1	0	1	0	42.4299223224767	0
3.39	42.5367386835653	0	1	0	1	0	42.5367386835653	0
3.4	42.6442470584173	0	1	0	1	0	42.6442470584173	0
3.41	42.7524452423372	0	1	0	1	0	42.7524452423372	0
3.42	42.8613310564155	0	1	0	1	0	42.8613310564155	0
3.43	42.9709023471525	0	1	0	1	0	42.9709023471525	0
3.44	43.0811569860894	0	1	0	1	0	43.0811569860894	0
3.45	43.1920928694452	0	1	0	1	0	43.1920928694452	0
3.46	43.3037079177598	0	1	0	1	0	43.3037079177598	0
3.47	43.416000075544	0	1	0	1	0	43.416000075544	0
3.48	43.5289673109351	0	1	0	1	0	43.5289673109351	0
3.49	43.6426076153579	0	1	0	1	0	43.6426076153579	0
3.5	43.7569190031924	0	1	0	1	0	43.7569190031924	0
3.51	43.871899511447	0	1	0	1	0	43.871899511447	0
3.52	43.9875471994366	0	1	0	1	0	43.9875471994366	0
3.53	44.1038601484669	0	1	0	1	0	44.1038601484669	0
3.54	44.2208364615237	0	1	0	1	0	44.2208364615237	0
3.55	44.3384742629678	0	1	0	1	0	44.3384742629678	0
3.56	44.4567716982345	0	1	0	1	0	44.4567716982345	0
3.57	44.5757269335384	0	1	0	1	0	44.5757269335384	0
3.58	44.6953381555835	0	1	0	1	0	44.6953381555835	0
3.59	44.8156035712776	0	1	0	1	0	44.8156035712776	0
3.6	44.9365214074518	0	1	0	1	0	44.9365214074518	0
3.61	45.0580899105844	0	1	0	1	0	45.0580899105844	0
3.62	45.1803073465296	0	1	0	1	0	45.1803073465296	0
3.63	45.3031720002508	0	1	0	1	0	45.3031720002508	0
3.64	45.4266821755579	0	1	0	1	0	45.4266821755579	0
3.65	45.5508361948492	0	1	0	1	0	45.5508361948492	0
3.66	45.6756323988572	0	1	0	1	0	45.6756323988572	0
3.67	45.8010691463995	0	1	0	1	0	45.8010691463995	0
3.68	45.9271448141323	0	1	0	1	0	45.9271448141323	0
3.69	46.0538577963091	0	1	0	1	0	46.0538577963091	0
3.7	46.1812065045429	0	1	0	1	0	46.1812065045429	0
3.71	46.3091893675721	0	1	0	1	0	46.3091893675721	0
3.72	46.4378048310304	0	1	0	1	0	46.4378048310304	0
3.73	46.5670513572204	0	1	0	1	0	46.5670513572204	0
3.74	46.6969274248904	0	1	0	1	0	46.6969274248904	0
3.75	46.8274315290156	0	1	0	1	0	46.8274315290156	0
3.76	46.9585621805821	0	1	0	1	0	46.9585621805821	0
3.77	47.0903179063745	0	1	0	1	0	47.0903179063745	0
3.78	47.2226972487671	0	1	0	1	0	47.2226972487671	0
3.79	47.3556987655178	0	1	0	1	0	47.3556987655178	0
3.8	47.4893210295664	0	1	0	1	0	47.4893210295664	0
3.81	47.6235626288346	0	1	0	1	0	47.6235626288346	0
3.82	47.7584221660305	0	1	0	1	0	47.7584221660305	0
3.83	47.8938982584553	0	1	0	1	0	47.8938982584553	0
3.84	48.0299895378131	0	1	0	1	0	48.0299895378131	0
3.85	48.1666946500244	0	1	0	1	0	48.1666946500244	0
3.86	48.3040122550414	0	1	0	1	0	48.3040122550414	0
3.87	48.4419410266668	0	1	0	1	0	48.4419410266668	0
3.88	48.5804796523758	0	1	0	1	0	48.5804796523758	0
3.89	48.7196268331397	0	1	0	1	0	48.7196268331397	0
3.9	48.8593812832533	0	1	0	1	0	48.8593812832533	0
3.91	48.9997417301643	0	1	0	1	0	48.9997417301643	0
3.92	49.1407069143057	0	1	0	1	0	49.1407069143057	0
3.93	49.2822755889305	0	1	0	1	0	49.2822755889305	0
3.94	49.4244465199491	0	1	0	1	0	49.4244465199491	0
3.95	49.567218485769	0	1	0	1	0	49.567218485769	0
3.96	49.7105902771368	0	1	0	1	0	49.7105902771368	0
3.97	49.8545606969832	0	1	0	1	0	49.8545606969832	0
3.98	49.9991285602699	0	1	0	1	0	49.9991285602699	0
3.99	50.1442926938383	0	1	0	1	0	50.1442926938383	0
4	50.2900519362617	0	1	0	1	0	50.2900519362617	0
4.01	50.4364051376986	0	1	0	1	0	50.4364051376986	0
4.02	50.5833511597487	0	1	0	1	0	50.5833511597487	0
4.03	50.730888875311	0	1	0	1	0	50.730888875311	0
4.04	50.8790171684438	0	1	0	1	0	50.8790171684438	0
4.05	51.0277349342272	0	1	0	1	0	51.0277349342272	0
4.06	51.1770410786271	0	1	0	1	0	51.1770410786271	0
4.07	51.3269345183616	0	1	0	1	0	51.3269345183616	0
4.08	51.4774141807693	0	1	0	1	0	51.4774141807693	0
4.09	51.6284790036793	0	1	0	1	0	51.6284790036793	0
4.1	51.7801279352832	0	1	0	1	0	51.7801279352832	0
4.11	51.9323599340095	0	1	0	1	0	51.9323599340095	0
4.12	52.0851739683988	0	1	0	1	0	52.0851739683988	0
4.13	52.2385690169816	0	1	0	1	0	52.2385690169816	0
4.14	52.392544068158	0	1	0	1	0	52.392544068158	0
4.15	52.547098120078	0	1	0	1	0	52.547098120078	0
4.16	52.7022301805251	0	1	0	1	0	52.7022301805251	0
4.17	52.8579392668003	0	1	0	1	0	52.8579392668003	0
4.18	53.0142244056085	0	1	0	1	0	53.0142244056085	0
4.19	53.1710846329462	0	1	0	1	0	53.1710846329462	0
4.2	53.3285189939909	0	1	0	1	0	53.3285189939909	0
4.21	53.4865265429919	0	1	0	1	0	53.4865265429919	0
4.22	53.6451063431632	0	1	0	1	0	53.6451063431632	0
4.23	53.804257466577	0	1	0	1	0	53.804257466577	0
4.24	53.9639789940599	0	1	0	1	0	53.9639789940599	0
4.25	54.1242700150892	0	1	0	1	0	54.1242700150892	0
4.26	54.285129627692	0	1	0	1	0	54.285129627692	0
4.27	54.4465569383445	0	1	0	1	0	54.4465569383445	0
4.28	54.6085510618738	0	1	0	1	0	54.6085510618738	0
4.29	54.7711111213603	0	1	0	1	0	54.7711111213603	0
4.3	54.9342362480419	0	1	0	1	0	54.9342362480419	0
4.31	55.097925581219	0	1	0	1	0	55.097925581219	0
4.32	55.2621782681616	0	1	0	1	0	55.2621782681616	0
4.33	55.4269934640172	0	1	0	1	0	55.4269934640172	0
4.34	55.5923703317199	0	1	0	1	0	55.5923703317199	0
4.35	55.7583080419007	0	1	0	1	0	55.7583080419007	0
4.36	55.9248057728	0	1	0	1	0	55.9248057728	0
4.37	56.0918627101795	0	1	0	1	0	56.0918627101795	0
4.38	56.2594780472372	0	1	0	1	0	56.2594780472372	0
4.39	56.4276509845223	0	1	0	1	0	56.4276509845223	0
4.4	56.5963807298517	0	1	0	1	0	56.5963807298517	0
4.41	56.7656664982277	0	1	0	1	0	56.7656664982277	0
4.42	56.9355075117564	0	1	0	1	0	56.9355075117564	0
4.43	57.1059029995682	0	1	0	1	0	57.1059029995682	0
4.44	57.2768521977379	0	1	0	1	0	57.2768521977379	0
4.45	57.4483543492072	0	1	0	1	0	57.4483543492072	0
4.46	57.6204087037076	0	1	0	1	0	57.6204087037076	0
4.47	57.7930145176843	0	1	0	1	0	57.7930145176843	0
4.48	57.9661710542215	0	1	0	1	0	57.9661710542215	0
4.49	58.1398775829683	0	1	0	1	0	58.1398775829683	0
4.5	58.3141333800657	0	1	0	1	0	58.3141333800657	0
4.51	58.4889377280749	0	1	0	1	0	58.4889377280749	0
4.52	58.664289915906	0	1	0	1	0	58.664289915906	0
4.53	58.8401892387482	0	1	0	1	0	58.8401892387482	0
4.54	59.0166349980002	0	1	0	1	0	59.0166349980002	0
4.55	59.1936265012027	0	1	0	1	0	59.1936265012027	0
4.56	59.37116306197	0	1	0	1	0	59.37116306197	0
4.57	59.5492439999247	0	1	0	1	0	59.5492439999247	0
4.58	59.7278686406313	0	1	0	1	0	59.7278686406313	0
4.59	59.9070363155318	0	1	0	1	0	59.9070363155318	0
4.6	60.0867463618816	0	1	0	1	0	60.0867463618816	0
4.61	60.2669981226869	0	1	0	1	0	60.2669981226869	0
4.62	60.4477909466418	0	1	0	1	0	60.4477909466418	0
4.63	60.6291241880676	0	1	0	1	0	60.6291241880676	0
4.64	60.8109972068514	0	1	0	1	0	60.8109972068514	0
4.65	60.993409368387	0	1	0	1	0	60.993409368387	0
4.66	61.1763600435153	0	1	0	1	0	61.1763600435153	0
4.67	61.3598486084661	0	1	0	1	0	61.3598486084661	0
4.68	61.5438744448007	0	1	0	1	0	61.5438744448007	0
4.69	61.7284369393548	0	1	0	1	0	61.7284369393548	0
4.7	61.9135354841827	0	1	0	1	0	61.9135354841827	0
4.71	62.0991694765014	0	1	0	1	0	62.0991694765014	0
4.72	62.2853383186366	0	1	0	1	0	62.2853383186366	0
4.73	62.4720414179681	0	1	0	1	0	62.4720414179681	0
4.74	62.6592781868768	0	1	0	1	0	62.6592781868768	0
4.75	62.8470480426918	0	1	0	1	0	62.8470480426918	0
4.76	63.035350407639	0	1	0	1	0	63.035350407639	0
4.77	63.2241847087889	0	1	0	1	0	63.2241847087889	0
4.78	63.4135503780066	0	1	0	1	0	63.4135503780066	0
4.79	63.6034468519017	0	1	0	1	0	63.6034468519017	0
4.8	63.7938735717784	0	1	0	1	0	63.7938735717784	0
4.81	63.9848299835873	0	1	0	1	0	63.9848299835873	0
4.82	64.1763155378766	0	1	0	1	0	64.1763155378766	0
4.83	64.3683296897452	0	1	0	1	0	64.3683296897452	0
4.84	64.5608718987951	0	1	0	1	0	64.5608718987951	0
4.85	64.7539416290852	0	1	0	1	0	64.7539416290852	0
4.86	64.9475383490854	0	1	0	1	0	64.9475383490854	0
4.87	65.1416615316316	0	1	0	1	0	65.1416615316316	0
4.88	65.3363106538803	0	1	0	1	0	65.3363106538803	0
4.89	65.5314851972652	0	1	0	1	0	65.5314851972652	0
4.9	65.7271846474531	0	1	0	1	0	65.7271846474531	0
4.91	65.9234084943008	0	1	0	1	0	65.9234084943008	0
4.92	66.1201562318126	0	1	0	1	0	66.1201562318126	0
4.93	66.3174273580984	0	1	0	1	0	66.3174273580984	0
