# GHZ S RI R 50
1	53.8309810356576	0	1	0	1	0	53.8309810356576	0
1.01	53.3830539336041	0	1	0	1	0	53.3830539336041	0
1.02	52.9452032501308	0	1	0	1	0	52.9452032501308	0
1.03	52.5171481802451	0	1	0	1	0	52.5171481802451	0
1.04	52.0986187191463	0	1	0	1	0	52.0986187191463	0
1.05	51.689355147931	0	1	0	1	0	51.689355147931	0
1.06	51.2891075484091	0	1	0	1	0	51.2891075484091	0
1.07	50.8976353451264	0	1	0	1	0	50.8976353451264	0
1.08	50.5147068728309	0	1	0	1	0	50.5147068728309	0
1.09	50.1400989677478	0	1	0	1	0	50.1400989677478	0
1.1	49.7735965811484	0	1	0	1	0	49.7735965811484	0
1.11	49.414992413808	0	1	0	1	0	49.414992413808	0
1.12	49.0640865700454	0	1	0	1	0	49.0640865700454	0
1.13	48.7206862301329	0	1	0	1	0	48.7206862301329	0
1.14	48.3846053399472	0	1	0	1	0	48.3846053399472	0
1.15	48.0556643168127	0	1	0	1	0	48.0556643168127	0
1.16	47.7336897705601	0	1	0	1	0	47.7336897705601	0
1.17	47.4185142388889	0	1	0	1	0	47.4185142388889	0
1.18	47.1099759361868	0	1	0	1	0	47.1099759361868	0
1.19	46.8079185150134	0	1	0	1	0	46.8079185150134	0
1.2	46.5121908395095	0	1	0	1	0	46.5121908395095	0
1.21	46.222646770043	0	1	0	1	0	46.222646770043	0
1.22	45.9391449584447	0	1	0	1	0	45.9391449584447	0
1.23	45.6615486532341	0	1	0	1	0	45.6615486532341	0
1.24	45.3897255142688	0	1	0	1	0	45.3897255142688	0
1.25	45.1235474362907	0	1	0	1	0	45.1235474362907	0
1.26	44.8628903808757	0	1	0	1	0	44.8628903808757	0
1.27	44.6076342163214	0	1	0	1	0	44.6076342163214	0
1.28	44.3576625650411	0	1	0	1	0	44.3576625650411	0
1.29	44.1128626580556	0	1	0	1	0	44.1128626580556	0
1.3	43.8731251962003	0	1	0	1	0	43.8731251962003	0
1.31	43.6383442176899	0	1	0	1	0	43.6383442176899	0
1.32	43.408416971702	0	1	0	1	0	43.408416971702	0
1.33	43.1832437976647	0	1	0	1	0	43.1832437976647	0
1.34	42.9627280099485	0	1	0	1	0	42.9627280099485	0
1.35	42.7467757876832	0	1	0	1	0	42.7467757876832	0
1.36	42.535296069436	0	1	0	1	0	42.535296069436	0
1.37	42.3282004525022	0	1	0	1	0	42.3282004525022	0
1.38	42.1254030965742	0	1	0	1	0	42.1254030965742	0
1.39	41.926820631569	0	1	0	1	0	41.926820631569	0
1.4	41.7323720694063	0	1	0	1	0	41.7323720694063	0
1.41	41.5419787195396	0	1	0	1	0	41.5419787195396	0
1.42	41.3555641080577	0	1	0	1	0	41.3555641080577	0
1.43	41.1730539001798	0	1	0	1	0	41.1730539001798	0
1.44	40.9943758259801	0	1	0	1	0	40.9943758259801	0
1.45	40.819459609186	0	1	0	1	0	40.819459609186	0
1.46	40.648236898902	0	1	0	1	0	40.648236898902	0
1.47	40.4806412041212	0	1	0	1	0	40.4806412041212	0
1.48	40.3166078308907	0	1	0	1	0	40.3166078308907	0
1.49	40.1560738220081	0	1	0	1	0	40.1560738220081	0
1.5	39.9989778991299	0	1	0	1	0	39.9989778991299	0
1.51	39.8452604071797	0	1	0	1	0	39.8452604071797	0
1.52	39.6948632609516	0	1	0	1	0	39.6948632609516	0
1.53	39.5477298938074	0	1	0	1	0	39.5477298938074	0
1.54	39.403805208372	0	1	0	1	0	39.403805208372	0
1.55	39.263035529138	0	1	0	1	0	39.263035529138	0
1.56	39.1253685568933	0	1	0	1	0	39.1253685568933	0
1.57	38.9907533248897	0	1	0	1	0	38.9907533248897	0
1.58	38.8591401566762	0	1	0	1	0	38.8591401566762	0
1.59	38.7304806255242	0	1	0	1	0	38.7304806255242	0
1.6	38.6047275153731	0	1	0	1	0	38.6047275153731	0
1.61	38.4818347832321	0	1	0	1	0	38.4818347832321	0
1.62	38.3617575229746	0	1	0	1	0	38.3617575229746	0
1.63	38.2444519304646	0	1	0	1	0	38.2444519304646	0
1.64	38.1298752699596	0	1	0	1	0	38.1298752699596	0
1.65	38.0179858417355	0	1	0	1	0	38.0179858417355	0
1.66	37.9087429508804	0	1	0	1	0	37.9087429508804	0
1.67	37.8021068772111	0	1	0	1	0	37.8021068772111	0
1.68	37.6980388462628	0	1	0	1	0	37.6980388462628	0
1.69	37.5965010013098	0	1	0	1	0	37.5965010013098	0
1.7	37.4974563763727	0	1	0	1	0	37.4974563763727	0
1.71	37.4008688701734	0	1	0	1	0	37.4008688701734	0
1.72	37.3067032209985	0	1	0	1	0	37.3067032209985	0
1.73	37.2149249824342	0	1	0	1	0	37.2149249824342	0
1.74	37.1255004999383	0	1	0	1	0	37.1255004999383	0
1.75	37.0383968882154	0	1	0	1	0	37.0383968882154	0
1.76	36.953582009363	0	1	0	1	0	36.953582009363	0
1.77	36.8710244517591	0	1	0	1	0	36.8710244517591	0
1.78	36.7906935096606	0	1	0	1	0	36.7906935096606	0
1.79	36.7125591634864	0	1	0	1	0	36.7125591634864	0
1.8	36.6365920607573	0	1	0	1	0	36.6365920607573	0
1.81	36.5627634976675	0	1	0	1	0	36.5627634976675	0
1.82	36.4910454012641	0	1	0	1	0	36.4910454012641	0
1.83	36.4214103122106	0	1	0	1	0	36.4214103122106	0
1.84	36.3538313681129	0	1	0	1	0	36.3538313681129	0
1.85	36.288282287385	0	1	0	1	0	36.288282287385	0
1.86	36.2247373536367	0	1	0	1	0	36.2247373536367	0
1.87	36.1631714005607	0	1	0	1	0	36.1631714005607	0
1.88	36.1035597973031	0	1	0	1	0	36.1035597973031	0
1.89	36.0458784342981	0	1	0	1	0	36.0458784342981	0
1.9	35.9901037095495	0	1	0	1	0	35.9901037095495	0
1.91	35.9362125153439	0	1	0	1	0	35.9362125153439	0
1.92	35.8841822253785	0	1	0	1	0	35.8841822253785	0
1.93	35.8339906822895	0	1	0	1	0	35.8339906822895	0
1.94	35.7856161855657	0	1	0	1	0	35.7856161855657	0
1.95	35.739037479835	0	1	0	1	0	35.739037479835	0
1.96	35.6942337435082	0	1	0	1	0	35.6942337435082	0
1.97	35.6511845777693	0	1	0	1	0	35.6511845777693	0
1.98	35.6098699958999	0	1	0	1	0	35.6098699958999	0
1.99	35.5702704129246	0	1	0	1	0	35.5702704129246	0
2	35.5323666355674	0	1	0	1	0	35.5323666355674	0
2.01	35.4961398525081	0	1	0	1	0	35.4961398525081	0
2.02	35.4615716249279	0	1	0	1	0	35.4615716249279	0
2.03	35.4286438773346	0	1	0	1	0	35.4286438773346	0
2.04	35.3973388886571	0	1	0	1	0	35.3973388886571	0
2.05	35.3676392836016	0	1	0	1	0	35.3676392836016	0
2.06	35.3395280242585	0	1	0	1	0	35.3395280242585	0
2.07	35.3129884019533	0	1	0	1	0	35.3129884019533	0
2.08	35.2880040293319	0	1	0	1	0	35.2880040293319	0
2.09	35.2645588326741	0	1	0	1	0	35.2645588326741	0
2.1	35.2426370444255	0	1	0	1	0	35.2426370444255	0
2.11	35.222223195943	0	1	0	1	0	35.222223195943	0
2.12	35.2033021104443	0	1	0	1	0	35.2033021104443	0
2.13	35.1858588961574	0	1	0	1	0	35.1858588961574	0
2.14	35.1698789396612	0	1	0	1	0	35.1698789396612	0
2.15	35.1553478994119	0	1	0	1	0	35.1553478994119	0
2.16	35.1422516994501	0	1	0	1	0	35.1422516994501	0
2.17	35.1305765232811	0	1	0	1	0	35.1305765232811	0
2.18	35.1203088079237	0	1	0	1	0	35.1203088079237	0
2.19	35.1114352381226	0	1	0	1	0	35.1114352381226	0
2.2	35.1039427407177	0	1	0	1	0	35.1039427407177	0
2.21	35.0978184791676	0	1	0	1	0	35.0978184791676	0
2.22	35.0930498482196	0	1	0	1	0	35.0930498482196	0
2.23	35.0896244687245	0	1	0	1	0	35.0896244687245	0
2.24	35.0875301825889	0	1	0	1	0	35.0875301825889	0
2.25	35.0867550478638	0	1	0	1	0	35.0867550478638	0
2.26	35.0872873339618	0	1	0	1	0	35.0872873339618	0
2.27	35.0891155170019	0	1	0	1	0	35.0891155170019	0
2.28	35.0922282752765	0	1	0	1	0	35.0922282752765	0
2.29	35.0966144848372	0	1	0	1	0	35.0966144848372	0
2.3	35.1022632151954	0	1	0	1	0	35.1022632151954	0
2.31	35.109163725135	0	1	0	1	0	35.109163725135	0
2.32	35.1173054586336	0	1	0	1	0	35.1173054586336	0
2.33	35.1266780408877	0	1	0	1	0	35.1266780408877	0
2.34	35.137271274441	0	1	0	1	0	35.137271274441	0
2.35	35.149075135411	0	1	0	1	0	35.149075135411	0
2.36	35.1620797698114	0	1	0	1	0	35.1620797698114	0
2.37	35.1762754899681	0	1	0	1	0	35.1762754899681	0
2.38	35.1916527710247	0	1	0	1	0	35.1916527710247	0
2.39	35.208202247537	0	1	0	1	0	35.208202247537	0
2.4	35.2259147101513	0	1	0	1	0	35.2259147101513	0
2.41	35.2447811023663	0	1	0	1	0	35.2447811023663	0
2.42	35.2647925173749	0	1	0	1	0	35.2647925173749	0
2.43	35.2859401949843	0	1	0	1	0	35.2859401949843	0
2.44	35.3082155186112	0	1	0	1	0	35.3082155186112	0
2.45	35.3316100123513	0	1	0	1	0	35.3316100123513	0
2.46	35.3561153381198	0	1	0	1	0	35.3561153381198	0
2.47	35.3817232928618	0	1	0	1	0	35.3817232928618	0
2.48	35.4084258058295	0	1	0	1	0	35.4084258058295	0
2.49	35.4362149359259	0	1	0	1	0	35.4362149359259	0
2.5	35.4650828691114	0	1	0	1	0	35.4650828691114	0
2.51	35.4950219158729	0	1	0	1	0	35.4950219158729	0
2.52	35.5260245087532	0	1	0	1	0	35.5260245087532	0
2.53	35.5580831999387	0	1	0	1	0	35.5580831999387	0
2.54	35.5911906589039	0	1	0	1	0	35.5911906589039	0
2.55	35.6253396701123	0	1	0	1	0	35.6253396701123	0
2.56	35.6605231307701	0	1	0	1	0	35.6605231307701	0
2.57	35.6967340486326	0	1	0	1	0	35.6967340486326	0
2.58	35.7339655398621	0	1	0	1	0	35.7339655398621	0
2.59	35.7722108269352	0	1	0	1	0	35.7722108269352	0
2.6	35.8114632365978	0	1	0	1	0	35.8114632365978	0
2.61	35.851716197868	0	1	0	1	0	35.851716197868	0
2.62	35.8929632400843	0	1	0	1	0	35.8929632400843	0
2.63	35.9351979909983	0	1	0	1	0	35.9351979909983	0
2.64	35.9784141749106	0	1	0	1	0	35.9784141749106	0
2.65	36.0226056108497	0	1	0	1	0	36.0226056108497	0
2.66	36.0677662107907	0	1	0	1	0	36.0677662107907	0
2.67	36.1138899779153	0	1	0	1	0	36.1138899779153	0
2.68	36.1609710049097	0	1	0	1	0	36.1609710049097	0
2.69	36.2090034723016	0	1	0	1	0	36.2090034723016	0
2.7	36.2579816468328	0	1	0	1	0	36.2579816468328	0
2.71	36.3078998798688	0	1	0	1	0	36.3078998798688	0
2.72	36.3587526058433	0	1	0	1	0	36.3587526058433	0
2.73	36.4105343407371	0	1	0	1	0	36.4105343407371	0
2.74	36.4632396805891	0	1	0	1	0	36.4632396805891	0
2.75	36.5168633000417	0	1	0	1	0	36.5168633000417	0
2.76	36.5713999509162	0	1	0	1	0	36.5713999509162	0
2.77	36.62684446082	0	1	0	1	0	36.62684446082	0
2.78	36.6831917317832	0	1	0	1	0	36.6831917317832	0
2.79	36.7404367389254	0	1	0	1	0	36.7404367389254	0
2.8	36.7985745291499	0	1	0	1	0	36.7985745291499	0
2.81	36.8576002198669	0	1	0	1	0	36.8576002198669	0
2.82	36.9175089977431	0	1	0	1	0	36.9175089977431	0
2.83	36.9782961174782	0	1	0	1	0	36.9782961174782	0
2.84	37.0399569006072	0	1	0	1	0	37.0399569006072	0
2.85	37.1024867343276	0	1	0	1	0	37.1024867343276	0
2.86	37.1658810703518	0	1	0	1	0	37.1658810703518	0
2.87	37.2301354237828	0	1	0	1	0	37.2301354237828	0
2.88	37.295245372014	0	1	0	1	0	37.295245372014	0
2.89	37.3612065536512	0	1	0	1	0	37.3612065536512	0
2.9	37.4280146674574	0	1	0	1	0	37.4280146674574	0
2.91	37.4956654713192	0	1	0	1	0	37.4956654713192	0
2.92	37.5641547812344	0	1	0	1	0	37.5641547812344	0
2.93	37.63347847032	0	1	0	1	0	37.63347847032	0
2.94	37.7036324678414	0	1	0	1	0	37.7036324678414	0
2.95	37.7746127582602	0	1	0	1	0	37.7746127582602	0
2.96	37.8464153803021	0	1	0	1	0	37.8464153803021	0
2.97	37.9190364260432	0	1	0	1	0	37.9190364260432	0
2.98	37.9924720400152	0	1	0	1	0	37.9924720400152	0
2.99	38.0667184183277	0	1	0	1	0	38.0667184183277	0
3	38.141771807809	0	1	0	1	0	38.141771807809	0
3.01	38.2176285051633	0	1	0	1	0	38.2176285051633	0
3.02	38.2942848561453	0	1	0	1	0	38.2942848561453	0
3.03	38.3717372547502	0	1	0	1	0	38.3717372547502	0
3.04	38.4499821424211	0	1	0	1	0	38.4499821424211	0
3.05	38.5290160072703	0	1	0	1	0	38.5290160072703	0
3.06	38.6088353833173	0	1	0	1	0	38.6088353833173	0
3.07	38.689436849741	0	1	0	1	0	38.689436849741	0
3.08	38.7708170301464	0	1	0	1	0	38.7708170301464	0
3.09	38.852972591846	0	1	0	1	0	38.852972591846	0
3.1	38.9359002451547	0	1	0	1	0	38.9359002451547	0
3.11	39.0195967426985	0	1	0	1	0	39.0195967426985	0
3.12	39.1040588787362	0	1	0	1	0	39.1040588787362	0
3.13	39.1892834884947	0	1	0	1	0	39.1892834884947	0
3.14	39.2752674475166	0	1	0	1	0	39.2752674475166	0
3.15	39.3620076710199	0	1	0	1	0	39.3620076710199	0
3.16	39.4495011132706	0	1	0	1	0	39.4495011132706	0
3.17	39.5377447669667	0	1	0	1	0	39.5377447669667	0
3.18	39.6267356626338	0	1	0	1	0	39.6267356626338	0
3.19	39.7164708680324	0	1	0	1	0	39.7164708680324	0
3.2	39.806947487576	0	1	0	1	0	39.806947487576	0
3.21	39.8981626617599	0	1	0	1	0	39.8981626617599	0
3.22	39.9901135666017	0	1	0	1	0	39.9901135666017	0
3.23	40.0827974130904	0	1	0	1	0	40.0827974130904	0
3.24	40.1762114466476	0	1	0	1	0	40.1762114466476	0
3.25	40.2703529465971	0	1	0	1	0	40.2703529465971	0
3.26	40.3652192256457	0	1	0	1	0	40.3652192256457	0
3.27	40.4608076293717	0	1	0	1	0	40.4608076293717	0
3.28	40.5571155357248	0	1	0	1	0	40.5571155357248	0
3.29	40.6541403545337	0	1	0	1	0	40.6541403545337	0
3.3	40.7518795270229	0	1	0	1	0	40.7518795270229	0
3.31	40.8503305253388	0	1	0	1	0	40.8503305253388	0
3.32	40.9494908520839	0	1	0	1	0	40.9494908520839	0
3.33	41.0493580398594	0	1	0	1	0	41.0493580398594	0
3.34	41.1499296508163	0	1	0	1	0	41.1499296508163	0
3.35	41.251203276214	0	1	0	1	0	41.251203276214	0
3.36	41.3531765359877	0	1	0	1	0	41.3531765359877	0
3.37	41.4558470783224	0	1	0	1	0	41.4558470783224	0
3.38	41.5592125792352	0	1	0	1	0	41.5592125792352	0
3.39	41.6632707421651	0	1	0	1	0	41.6632707421651	0
3.4	41.7680192975692	0	1	0	1	0	41.7680192975692	0
3.41	41.8734560025269	0	1	0	1	0	41.8734560025269	0
3.42	41.9795786403506	0	1	0	1	0	41.9795786403506	0
3.43	42.0863850202032	0	1	0	1	0	42.0863850202032	0
3.44	42.1938729767226	0	1	0	1	0	42.1938729767226	0
3.45	42.3020403696522	0	1	0	1	0	42.3020403696522	0
3.46	42.4108850834784	0	1	0	1	0	42.4108850834784	0
3.47	42.5204050270737	0	1	0	1	0	42.5204050270737	0
3.48	42.6305981333468	0	1	0	1	0	42.6305981333468	0
3.49	42.7414623588979	0	1	0	1	0	42.7414623588979	0
3.5	42.8529956836803	0	1	0	1	0	42.8529956836803	0
3.51	42.9651961106677	0	1	0	1	0	42.9651961106677	0
3.52	43.0780616655275	0	1	0	1	0	43.0780616655275	0
3.53	43.1915903962989	0	1	0	1	0	43.1915903962989	0
3.54	43.3057803730774	0	1	0	1	0	43.3057803730774	0
3.55	43.4206296877037	0	1	0	1	0	43.4206296877037	0
3.56	43.5361364534585	0	1	0	1	0	43.5361364534585	0
3.57	43.6522988047624	0	1	0	1	0	43.6522988047624	0
3.58	43.7691148968803	0	1	0	1	0	43.7691148968803	0
3.59	43.8865829056313	0	1	0	1	0	43.8865829056313	0
3.6	44.0047010271031	0	1	0	1	0	44.0047010271031	0
3.61	44.1234674773714	0	1	0	1	0	44.1234674773714	0
3.62	44.2428804922239	0	1	0	1	0	44.2428804922239	0
3.63	44.3629383268885	0	1	0	1	0	44.3629383268885	0
3.64	44.4836392557665	0	1	0	1	0	44.4836392557665	0
3.65	44.6049815721697	0	1	0	1	0	44.6049815721697	0
3.66	44.7269635880626	0	1	0	1	0	44.7269635880626	0
3.67	44.8495836338074	0	1	0	1	0	44.8495836338074	0
3.68	44.9728400579149	0	1	0	1	0	44.9728400579149	0
3.69	45.0967312267982	0	1	0	1	0	45.0967312267982	0
3.7	45.2212555245307	0	1	0	1	0	45.2212555245307	0
3.71	45.3464113526082	0	1	0	1	0	45.3464113526082	0
3.72	45.4721971297147	0	1	0	1	0	45.4721971297147	0
3.73	45.5986112914922	0	1	0	1	0	45.5986112914922	0
3.74	45.7256522903134	0	1	0	1	0	45.7256522903134	0
3.75	45.8533185950595	0	1	0	1	0	45.8533185950595	0
3.76	45.9816086908998	0	1	0	1	0	45.9816086908998	0
3.77	46.1105210790763	0	1	0	1	0	46.1105210790763	0
3.78	46.2400542766909	0	1	0	1	0	46.2400542766909	0
3.79	46.370206816496	0	1	0	1	0	46.370206816496	0
3.8	46.5009772466888	0	1	0	1	0	46.5009772466888	0
3.81	46.6323641307084	0	1	0	1	0	46.6323641307084	0
3.82	46.7643660470366	0	1	0	1	0	46.7643660470366	0
3.83	46.8969815890012	0	1	0	1	0	46.8969815890012	0
3.84	47.030209364583	0	1	0	1	0	47.030209364583	0
3.85	47.1640479962251	0	1	0	1	0	47.1640479962251	0
3.86	47.298496120646	0	1	0	1	0	47.298496120646	0
3.87	47.4335523886549	0	1	0	1	0	47.4335523886549	0
3.88	47.5692154649702	0	1	0	1	0	47.5692154649702	0
3.89	47.7054840280406	0	1	0	1	0	47.7054840280406	0
3.9	47.8423567698694	0	1	0	1	0	47.8423567698694	0
3.91	47.9798323958406	0	1	0	1	0	47.9798323958406	0
3.92	48.117909624549	0	1	0	1	0	48.117909624549	0
3.93	48.2565871876312	0	1	0	1	0	48.2565871876312	0
3.94	48.395863829601	0	1	0	1	0	48.395863829601	0
3.95	48.5357383076858	0	1	0	1	0	48.5357383076858	0
3.96	48.6762093916663	0	1	0	1	0	48.6762093916663	0
3.97	48.8172758637183	0	1	0	1	0	48.8172758637183	0
3.98	48.9589365182571	0	1	0	1	0	48.9589365182571	0
3.99	49.101190161784	0	1	0	1	0	49.101190161784	0
4	49.2440356127354	0	1	0	1	0	49.2440356127354	0
4.01	49.3874717013338	0	1	0	1	0	49.3874717013338	0
4.02	49.5314972694412	0	1	0	1	0	49.5314972694412	0
4.03	49.6761111704149	0	1	0	1	0	49.6761111704149	0
4.04	49.821312268965	0	1	0	1	0	49.821312268965	0
4.05	49.9670994410144	0	1	0	1	0	49.9670994410144	0
4.06	50.1134715735607	0	1	0	1	0	50.1134715735607	0
4.07	50.2604275645399	0	1	0	1	0	50.2604275645399	0
4.08	50.4079663226928	0	1	0	1	0	50.4079663226928	0
4.09	50.5560867674325	0	1	0	1	0	50.5560867674325	0
4.1	50.7047878287144	0	1	0	1	0	50.7047878287144	0
4.11	50.8540684469081	0	1	0	1	0	50.8540684469081	0
4.12	51.0039275726707	0	1	0	1	0	51.0039275726707	0
4.13	51.1543641668225	0	1	0	1	0	51.1543641668225	0
4.14	51.3053772002244	0	1	0	1	0	51.3053772002244	0
4.15	51.4569656536562	0	1	0	1	0	51.4569656536562	0
4.16	51.6091285176985	0	1	0	1	0	51.6091285176985	0
4.17	51.761864792614	0	1	0	1	0	51.761864792614	0
4.18	51.9151734882328	0	1	0	1	0	51.9151734882328	0
4.19	52.0690536238373	0	1	0	1	0	52.0690536238373	0
4.2	52.2235042280503	0	1	0	1	0	52.2235042280503	0
4.21	52.3785243387236	0	1	0	1	0	52.3785243387236	0
4.22	52.5341130028292	0	1	0	1	0	52.5341130028292	0
4.23	52.690269276351	0	1	0	1	0	52.690269276351	0
4.24	52.8469922241786	0	1	0	1	0	52.8469922241786	0
4.25	53.0042809200029	0	1	0	1	0	53.0042809200029	0
4.26	53.1621344462123	0	1	0	1	0	53.1621344462123	0
4.27	53.3205518937914	0	1	0	1	0	53.3205518937914	0
4.28	53.4795323622199	0	1	0	1	0	53.4795323622199	0
4.29	53.6390749593742	0	1	0	1	0	53.6390749593742	0
4.3	53.7991788014294	0	1	0	1	0	53.7991788014294	0
4.31	53.9598430127633	0	1	0	1	0	53.9598430127633	0
4.32	54.1210667258611	0	1	0	1	0	54.1210667258611	0
4.33	54.2828490812223	0	1	0	1	0	54.2828490812223	0
4.34	54.4451892272678	0	1	0	1	0	54.4451892272678	0
4.35	54.6080863202491	0	1	0	1	0	54.6080863202491	0
4.36	54.7715395241586	0	1	0	1	0	54.7715395241586	0
4.37	54.9355480106412	0	1	0	1	0	54.9355480106412	0
4.38	55.1001109589061	0	1	0	1	0	55.1001109589061	0
4.39	55.2652275556418	0	1	0	1	0	55.2652275556418	0
4.4	55.4308969949303	0	1	0	1	0	55.4308969949303	0
4.41	55.5971184781633	0	1	0	1	0	55.5971184781633	0
4.42	55.7638912139602	0	1	0	1	0	55.7638912139602	0
4.43	55.9312144180857	0	1	0	1	0	55.9312144180857	0
4.44	56.0990873133698	0	1	0	1	0	56.0990873133698	0
4.45	56.2675091296282	0	1	0	1	0	56.2675091296282	0
4.46	56.4364791035842	0	1	0	1	0	56.4364791035842	0
4.47	56.6059964787913	0	1	0	1	0	56.6059964787913	0
4.48	56.7760605055569	0	1	0	1	0	56.7760605055569	0
4.49	56.9466704408673	0	1	0	1	0	56.9466704408673	0
4.5	57.1178255483133	0	1	0	1	0	57.1178255483133	0
4.51	57.289525098017	0	1	0	1	0	57.289525098017	0
4.52	57.4617683665597	0	1	0	1	0	57.4617683665597	0
4.53	57.6345546369104	0	1	0	1	0	57.6345546369104	0
4.54	57.8078831983557	0	1	0	1	0	57.8078831983557	0
4.55	57.98175334643	0	1	0	1	0	57.98175334643	0
4.56	58.1561643828474	0	1	0	1	0	58.1561643828474	0
4.57	58.3311156154339	0	1	0	1	0	58.3311156154339	0
4.58	58.5066063580606	0	1	0	1	0	58.5066063580606	0
4.59	58.682635930578	0	1	0	1	0	58.682635930578	0
4.6	58.859203658751	0	1	0	1	0	58.859203658751	0
4.61	59.0363088741946	0	1	0	1	0	59.0363088741946	0
4.62	59.2139509143107	0	1	0	1	0	59.2139509143107	0
4.63	59.3921291222256	0	1	0	1	0	59.3921291222256	0
4.64	59.5708428467283	0	1	0	1	0	59.5708428467283	0
4.65	59.7500914422097	0	1	0	1	0	59.7500914422097	0
4.66	59.9298742686022	0	1	0	1	0	59.9298742686022	0
4.67	60.1101906913208	0	1	0	1	0	60.1101906913208	0
4.68	60.2910400812041	0	1	0	1	0	60.2910400812041	0
4.69	60.472421814457	0	1	0	1	0	60.472421814457	0
4.7	60.6543352725929	0	1	0	1	0	60.6543352725929	0
4.71	60.836779842378	0	1	0	1	0	60.836779842378	0
4.72	61.0197549157754	0	1	0	1	0	61.0197549157754	0
4.73	61.2032598898899	0	1	0	1	0	61.2032598898899	0
4.74	61.3872941669144	0	1	0	1	0	61.3872941669144	0
4.75	61.5718571540757	0	1	0	1	0	61.5718571540757	0
4.76	61.7569482635819	0	1	0	1	0	61.7569482635819	0
4.77	61.9425669125704	0	1	0	1	0	61.9425669125704	0
4.78	62.1287125230558	0	1	0	1	0	62.1287125230558	0
4.79	62.3153845218794	0	1	0	1	0	62.3153845218794	0
4.8	62.5025823406591	0	1	0	1	0	62.5025823406591	0
4.81	62.690305415739	0	1	0	1	0	62.690305415739	0
4.82	62.8785531881412	0	1	0	1	0	62.8785531881412	0
4.83	63.0673251035169	0	1	0	1	0	63.0673251035169	0
4.84	63.2566206120987	0	1	0	1	0	63.2566206120987	0
4.85	63.4464391686533	0	1	0	1	0	63.4464391686533	0
4.86	63.636780232435	0	1	0	1	0	63.636780232435	0
4.87	63.8276432671395	0	1	0	1	0	63.8276432671395	0
4.88	64.0190277408585	0	1	0	1	0	64.0190277408585	0
4.89	64.2109331260347	0	1	0	1	0	64.2109331260347	0
4.9	64.4033588994172	0	1	0	1	0	64.4033588994172	0
4.91	64.596304542018	0	1	0	1	0	64.596304542018	0
4.92	64.7897695390685	0	1	0	1	0	64.7897695390685	0
4.93	64.9837533799767	0	1	0	1	0	64.9837533799767	0
