# GHZ S RI R 50
1	63.6241235395788	0	1	0	1	0	63.6241235395788	0
1.01	63.0827278747109	0	1	0	1	0	63.0827278747109	0
1.02	62.553049085653	0	1	0	1	0	62.553049085653	0
1.03	62.0347567020246	0	1	0	1	0	62.0347567020246	0
1.04	61.5275329638447	0	1	0	1	0	61.5275329638447	0
1.05	61.031072216274	0	1	0	1	0	61.031072216274	0
1.06	60.5450803386186	0	1	0	1	0	60.5450803386186	0
1.07	60.0692742053504	0	1	0	1	0	60.0692742053504	0
1.08	59.6033811770719	0	1	0	1	0	59.6033811770719	0
1.09	59.1471386195014	0	1	0	1	0	59.1471386195014	0
1.1	58.7002934486945	0	1	0	1	0	58.7002934486945	0
1.11	58.262601700849	0	1	0	1	0	58.262601700849	0
1.12	57.8338281251556	0	1	0	1	0	57.8338281251556	0
1.13	57.4137457982673	0	1	0	1	0	57.4137457982673	0
1.14	57.0021357590599	0	1	0	1	0	57.0021357590599	0
1.15	56.5987866624481	0	1	0	1	0	56.5987866624481	0
1.16	56.2034944511084	0	1	0	1	0	56.2034944511084	0
1.17	55.8160620440359	0	1	0	1	0	55.8160620440359	0
1.18	55.4362990409377	0	1	0	1	0	55.4362990409377	0
1.19	55.0640214415308	0	1	0	1	0	55.0640214415308	0
1.2	54.699051378875	0	1	0	1	0	54.699051378875	0
1.21	54.3412168659289	0	1	0	1	0	54.3412168659289	0
1.22	53.9903515545706	0	1	0	1	0	53.9903515545706	0
1.23	53.646294506373	0	1	0	1	0	53.646294506373	0
1.24	53.3088899744714	0	1	0	1	0	53.3088899744714	0
1.25	52.9779871959006	0	1	0	1	0	52.9779871959006	0
1.26	52.6534401938214	0	1	0	1	0	52.6534401938214	0
1.27	52.3351075890903	0	1	0	1	0	52.3351075890903	0
1.28	52.0228524206618	0	1	0	1	0	52.0228524206618	0
1.29	51.716541974345	0	1	0	1	0	51.716541974345	0
1.3	51.4160476194621	0	1	0	1	0	51.4160476194621	0
1.31	51.1212446529899	0	1	0	1	0	51.1212446529899	0
1.32	50.8320121507844	0	1	0	1	0	50.8320121507844	0
1.33	50.5482328255183	0	1	0	1	0	50.5482328255183	0
1.34	50.2697928909784	0	1	0	1	0	50.2697928909784	0
1.35	49.9965819323946	0	1	0	1	0	49.9965819323946	0
1.36	49.7284927824905	0	1	0	1	0	49.7284927824905	0
1.37	49.465421402961	0	1	0	1	0	49.465421402961	0
1.38	49.207266771104	0	1	0	1	0	49.207266771104	0
1.39	48.9539307713456	0	1	0	1	0	48.9539307713456	0
1.4	48.7053180914142	0	1	0	1	0	48.7053180914142	0
1.41	48.461336122932	0	1	0	1	0	48.461336122932	0
1.42	48.2218948662084	0	1	0	1	0	48.2218948662084	0
1.43	47.9869068390262	0	1	0	1	0	47.9869068390262	0
1.44	47.7562869892301	0	1	0	1	0	47.7562869892301	0
1.45	47.529952610931	0	1	0	1	0	47.529952610931	0
1.46	47.3078232641547	0	1	0	1	0	47.3078232641547	0
1.47	47.0898206977697	0	1	0	1	0	47.0898206977697	0
1.48	46.87586877554	0	1	0	1	0	46.87586877554	0
1.49	46.6658934051555	0	1	0	1	0	46.6658934051555	0
1.5	46.4598224701007	0	1	0	1	0	46.4598224701007	0
1.51	46.2575857642319	0	1	0	1	0	46.2575857642319	0
1.52	46.059114928935	0	1	0	1	0	46.059114928935	0
1.53	45.8643433927495	0	1	0	1	0	45.8643433927495	0
1.54	45.6732063133437	0	1	0	1	0	45.6732063133437	0
1.55	45.4856405217362	0	1	0	1	0	45.4856405217362	0
1.56	45.3015844686634	0	1	0	1	0	45.3015844686634	0
1.57	45.1209781729956	0	1	0	1	0	45.1209781729956	0
1.58	44.9437631721127	0	1	0	1	0	44.9437631721127	0
1.59	44.7698824741524	0	1	0	1	0	44.7698824741524	0
1.6	44.5992805120489	0	1	0	1	0	44.5992805120489	0
1.61	44.4319030992847	0	1	0	1	0	44.4319030992847	0
1.62	44.2676973872809	0	1	0	1	0	44.2676973872809	0
1.63	44.1066118243565	0	1	0	1	0	44.1066118243565	0
1.64	43.9485961161881	0	1	0	1	0	43.9485961161881	0
1.65	43.7936011877092	0	1	0	1	0	43.7936011877092	0
1.66	43.6415791463844	0	1	0	1	0	43.6415791463844	0
1.67	43.4924832468055	0	1	0	1	0	43.4924832468055	0
1.68	43.3462678565498	0	1	0	1	0	43.3462678565498	0
1.69	43.2028884232521	0	1	0	1	0	43.2028884232521	0
1.7	43.0623014428381	0	1	0	1	0	43.0623014428381	0
1.71	42.9244644288728	0	1	0	1	0	42.9244644288728	0
1.72	42.7893358829775	0	1	0	1	0	42.7893358829775	0
1.73	42.656875266274	0	1	0	1	0	42.656875266274	0
1.74	42.527042971812	0	1	0	1	0	42.527042971812	0
1.75	42.3998002979431	0	1	0	1	0	42.3998002979431	0
1.76	42.2751094226018	0	1	0	1	0	42.2751094226018	0
1.77	42.1529333784585	0	1	0	1	0	42.1529333784585	0
1.78	42.0332360289101	0	1	0	1	0	42.0332360289101	0
1.79	41.9159820448753	0	1	0	1	0	41.9159820448753	0
1.8	41.8011368823638	0	1	0	1	0	41.8011368823638	0
1.81	41.688666760788	0	1	0	1	0	41.688666760788	0
1.82	41.578538641991	0	1	0	1	0	41.578538641991	0
1.83	41.4707202099614	0	1	0	1	0	41.4707202099614	0
1.84	41.3651798512098	0	1	0	1	0	41.3651798512098	0
1.85	41.2618866357816	0	1	0	1	0	41.2618866357816	0
1.86	41.1608102988826	0	1	0	1	0	41.1608102988826	0
1.87	41.0619212230939	0	1	0	1	0	41.0619212230939	0
1.88	40.9651904211545	0	1	0	1	0	40.9651904211545	0
1.89	40.8705895192901	0	1	0	1	0	40.8705895192901	0
1.9	40.7780907410694	0	1	0	1	0	40.7780907410694	0
1.91	40.6876668917662	0	1	0	1	0	40.6876668917662	0
1.92	40.5992913432113	0	1	0	1	0	40.5992913432113	0
1.93	40.5129380191144	0	1	0	1	0	40.5129380191144	0
1.94	40.428581380841	0	1	0	1	0	40.428581380841	0
1.95	40.3461964136258	0	1	0	1	0	40.3461964136258	0
1.96	40.2657586132089	0	1	0	1	0	40.2657586132089	0
1.97	40.1872439728789	0	1	0	1	0	40.1872439728789	0
1.98	40.1106289709085	0	1	0	1	0	40.1106289709085	0
1.99	40.0358905583689	0	1	0	1	0	40.0358905583689	0
2	39.9630061473098	0	1	0	1	0	39.9630061473098	0
2.01	39.8919535992924	0	1	0	1	0	39.8919535992924	0
2.02	39.8227112142629	0	1	0	1	0	39.8227112142629	0
2.03	39.7552577197548	0	1	0	1	0	39.7552577197548	0
2.04	39.6895722604086	0	1	0	1	0	39.6895722604086	0
2.05	39.6256343877987	0	1	0	1	0	39.6256343877987	0
2.06	39.5634240505564	0	1	0	1	0	39.5634240505564	0
2.07	39.502921584779	0	1	0	1	0	39.502921584779	0
2.08	39.4441077047159	0	1	0	1	0	39.4441077047159	0
2.09	39.3869634937215	0	1	0	1	0	39.3869634937215	0
2.1	39.3314703954675	0	1	0	1	0	39.3314703954675	0
2.11	39.2776102054042	0	1	0	1	0	39.2776102054042	0
2.12	39.2253650624641	0	1	0	1	0	39.2253650624641	0
2.13	39.1747174409987	0	1	0	1	0	39.1747174409987	0
2.14	39.1256501429417	0	1	0	1	0	39.1256501429417	0
2.15	39.078146290191	0	1	0	1	0	39.078146290191	0
2.16	39.0321893172017	0	1	0	1	0	39.0321893172017	0
2.17	38.9877629637847	0	1	0	1	0	38.9877629637847	0
2.18	38.944851268103	0	1	0	1	0	38.944851268103	0
2.19	38.9034385598601	0	1	0	1	0	38.9034385598601	0
2.2	38.8635094536736	0	1	0	1	0	38.8635094536736	0
2.21	38.8250488426301	0	1	0	1	0	38.8250488426301	0
2.22	38.7880418920124	0	1	0	1	0	38.7880418920124	0
2.23	38.752474033197	0	1	0	1	0	38.752474033197	0
2.24	38.7183309577146	0	1	0	1	0	38.7183309577146	0
2.25	38.6855986114684	0	1	0	1	0	38.6855986114684	0
2.26	38.6542631891068	0	1	0	1	0	38.6542631891068	0
2.27	38.6243111285444	0	1	0	1	0	38.6243111285444	0
2.28	38.5957291056269	0	1	0	1	0	38.5957291056269	0
2.29	38.5685040289366	0	1	0	1	0	38.5685040289366	0
2.3	38.5426230347323	0	1	0	1	0	38.5426230347323	0
2.31	38.5180734820218	0	1	0	1	0	38.5180734820218	0
2.32	38.4948429477611	0	1	0	1	0	38.4948429477611	0
2.33	38.4729192221771	0	1	0	1	0	38.4729192221771	0
2.34	38.4522903042109	0	1	0	1	0	38.4522903042109	0
2.35	38.432944397077	0	1	0	1	0	38.432944397077	0
2.36	38.4148699039354	0	1	0	1	0	38.4148699039354	0
2.37	38.3980554236731	0	1	0	1	0	38.3980554236731	0
2.38	38.3824897467929	0	1	0	1	0	38.3824897467929	0
2.39	38.3681618514038	0	1	0	1	0	38.3681618514038	0
2.4	38.3550608993134	0	1	0	1	0	38.3550608993134	0
2.41	38.3431762322159	0	1	0	1	0	38.3431762322159	0
2.42	38.3324973679762	0	1	0	1	0	38.3324973679762	0
2.43	38.3230139970044	0	1	0	1	0	38.3230139970044	0
2.44	38.3147159787203	0	1	0	1	0	38.3147159787203	0
2.45	38.3075933381043	0	1	0	1	0	38.3075933381043	0
2.46	38.3016362623322	0	1	0	1	0	38.3016362623322	0
2.47	38.2968350974919	0	1	0	1	0	38.2968350974919	0
2.48	38.2931803453796	0	1	0	1	0	38.2931803453796	0
2.49	38.2906626603729	0	1	0	1	0	38.2906626603729	0
2.5	38.2892728463797	0	1	0	1	0	38.2892728463797	0
2.51	38.289001853859	0	1	0	1	0	38.289001853859	0
2.52	38.2898407769132	0	1	0	1	0	38.2898407769132	0
2.53	38.2917808504494	0	1	0	1	0	38.2917808504494	0
2.54	38.294813447408	0	1	0	1	0	38.294813447408	0
2.55	38.2989300760555	0	1	0	1	0	38.2989300760555	0
2.56	38.3041223773417	0	1	0	1	0	38.3041223773417	0
2.57	38.3103821223186	0	1	0	1	0	38.3103821223186	0
2.58	38.3177012096186	0	1	0	1	0	38.3177012096186	0
2.59	38.3260716629918	0	1	0	1	0	38.3260716629918	0
2.6	38.3354856288999	0	1	0	1	0	38.3354856288999	0
2.61	38.3459353741652	0	1	0	1	0	38.3459353741652	0
2.62	38.3574132836739	0	1	0	1	0	38.3574132836739	0
2.63	38.3699118581315	0	1	0	1	0	38.3699118581315	0
2.64	38.3834237118688	0	1	0	1	0	38.3834237118688	0
2.65	38.3979415706989	0	1	0	1	0	38.3979415706989	0
2.66	38.4134582698209	0	1	0	1	0	38.4134582698209	0
2.67	38.4299667517716	0	1	0	1	0	38.4299667517716	0
2.68	38.4474600644234	0	1	0	1	0	38.4474600644234	0
2.69	38.4659313590258	0	1	0	1	0	38.4659313590258	0
2.7	38.4853738882914	0	1	0	1	0	38.4853738882914	0
2.71	38.5057810045238	0	1	0	1	0	38.5057810045238	0
2.72	38.5271461577867	0	1	0	1	0	38.5271461577867	0
2.73	38.5494628941137	0	1	0	1	0	38.5494628941137	0
2.74	38.5727248537567	0	1	0	1	0	38.5727248537567	0
2.75	38.5969257694733	0	1	0	1	0	38.5969257694733	0
2.76	38.6220594648505	0	1	0	1	0	38.6220594648505	0
2.77	38.6481198526653	0	1	0	1	0	38.6481198526653	0
2.78	38.6751009332809	0	1	0	1	0	38.6751009332809	0
2.79	38.7029967930767	0	1	0	1	0	38.7029967930767	0
2.8	38.7318016029123	0	1	0	1	0	38.7318016029123	0
2.81	38.7615096166244	0	1	0	1	0	38.7615096166244	0
2.82	38.7921151695558	0	1	0	1	0	38.7921151695558	0
2.83	38.8236126771147	0	1	0	1	0	38.8236126771147	0
2.84	38.8559966333659	0	1	0	1	0	38.8559966333659	0
2.85	38.8892616096503	0	1	0	1	0	38.8892616096503	0
2.86	38.9234022532342	0	1	0	1	0	38.9234022532342	0
2.87	38.9584132859863	0	1	0	1	0	38.9584132859863	0
2.88	38.994289503083	0	1	0	1	0	38.994289503083	0
2.89	39.0310257717393	0	1	0	1	0	39.0310257717393	0
2.9	39.0686170299677	0	1	0	1	0	39.0686170299677	0
2.91	39.107058285361	0	1	0	1	0	39.107058285361	0
2.92	39.1463446139012	0	1	0	1	0	39.1463446139012	0
2.93	39.1864711587925	0	1	0	1	0	39.1864711587925	0
2.94	39.2274331293179	0	1	0	1	0	39.2274331293179	0
2.95	39.2692257997191	0	1	0	1	0	39.2692257997191	0
2.96	39.3118445080996	0	1	0	1	0	39.3118445080996	0
2.97	39.3552846553493	0	1	0	1	0	39.3552846553493	0
2.98	39.3995417040913	0	1	0	1	0	39.3995417040913	0
2.99	39.4446111776491	0	1	0	1	0	39.4446111776491	0
3	39.4904886590354	0	1	0	1	0	39.4904886590354	0
3.01	39.5371697899603	0	1	0	1	0	39.5371697899603	0
3.02	39.5846502698598	0	1	0	1	0	39.5846502698598	0
3.03	39.6329258549428	0	1	0	1	0	39.6329258549428	0
3.04	39.6819923572577	0	1	0	1	0	39.6819923572577	0
3.05	39.7318456437767	0	1	0	1	0	39.7318456437767	0
3.06	39.7824816354987	0	1	0	1	0	39.7824816354987	0
3.07	39.833896306569	0	1	0	1	0	39.833896306569	0
3.08	39.8860856834169	0	1	0	1	0	39.8860856834169	0
3.09	39.9390458439095	0	1	0	1	0	39.9390458439095	0
3.1	39.9927729165218	0	1	0	1	0	39.9927729165218	0
3.11	40.0472630795237	0	1	0	1	0	40.0472630795237	0
3.12	40.1025125601815	0	1	0	1	0	40.1025125601815	0
3.13	40.1585176339752	0	1	0	1	0	40.1585176339752	0
3.14	40.215274623831	0	1	0	1	0	40.215274623831	0
3.15	40.2727798993683	0	1	0	1	0	40.2727798993683	0
3.16	40.3310298761605	0	1	0	1	0	40.3310298761605	0
3.17	40.3900210150102	0	1	0	1	0	40.3900210150102	0
3.18	40.4497498212387	0	1	0	1	0	40.4497498212387	0
3.19	40.5102128439871	0	1	0	1	0	40.5102128439871	0
3.2	40.5714066755327	0	1	0	1	0	40.5714066755327	0
3.21	40.6333279506164	0	1	0	1	0	40.6333279506164	0
3.22	40.6959733457838	0	1	0	1	0	40.6959733457838	0
3.23	40.7593395787375	0	1	0	1	0	40.7593395787375	0
3.24	40.8234234077026	0	1	0	1	0	40.8234234077026	0
3.25	40.8882216308027	0	1	0	1	0	40.8882216308027	0
3.26	40.9537310854484	0	1	0	1	0	40.9537310854484	0
3.27	41.0199486477364	0	1	0	1	0	41.0199486477364	0
3.28	41.0868712318598	0	1	0	1	0	41.0868712318598	0
3.29	41.1544957895289	0	1	0	1	0	41.1544957895289	0
3.3	41.2228193094032	0	1	0	1	0	41.2228193094032	0
3.31	41.291838816533	0	1	0	1	0	41.291838816533	0
3.32	41.3615513718113	0	1	0	1	0	41.3615513718113	0
3.33	41.4319540714356	0	1	0	1	0	41.4319540714356	0
3.34	41.5030440463796	0	1	0	1	0	41.5030440463796	0
3.35	41.5748184618741	0	1	0	1	0	41.5748184618741	0
3.36	41.647274516897	0	1	0	1	0	41.647274516897	0
3.37	41.7204094436729	0	1	0	1	0	41.7204094436729	0
3.38	41.7942205071809	0	1	0	1	0	41.7942205071809	0
3.39	41.8687050046719	0	1	0	1	0	41.8687050046719	0
3.4	41.943860265194	0	1	0	1	0	41.943860265194	0
3.41	42.0196836491258	0	1	0	1	0	42.0196836491258	0
3.42	42.0961725477189	0	1	0	1	0	42.0961725477189	0
3.43	42.1733243826474	0	1	0	1	0	42.1733243826474	0
3.44	42.2511366055662	0	1	0	1	0	42.2511366055662	0
3.45	42.3296066976761	0	1	0	1	0	42.3296066976761	0
3.46	42.4087321692969	0	1	0	1	0	42.4087321692969	0
3.47	42.4885105594479	0	1	0	1	0	42.4885105594479	0
3.48	42.5689394354358	0	1	0	1	0	42.5689394354358	0
3.49	42.6500163924487	0	1	0	1	0	42.6500163924487	0
3.5	42.7317390531586	0	1	0	1	0	42.7317390531586	0
3.51	42.8141050673296	0	1	0	1	0	42.8141050673296	0
3.52	42.8971121114327	0	1	0	1	0	42.8971121114327	0
3.53	42.9807578882682	0	1	0	1	0	42.9807578882682	0
3.54	43.0650401265932	0	1	0	1	0	43.0650401265932	0
3.55	43.1499565807564	0	1	0	1	0	43.1499565807564	0
3.56	43.2355050303386	0	1	0	1	0	43.2355050303386	0
3.57	43.321683279799	0	1	0	1	0	43.321683279799	0
3.58	43.4084891581282	0	1	0	1	0	43.4084891581282	0
3.59	43.4959205185063	0	1	0	1	0	43.4959205185063	0
3.6	43.5839752379669	0	1	0	1	0	43.5839752379669	0
3.61	43.6726512170668	0	1	0	1	0	43.6726512170668	0
3.62	43.7619463795609	0	1	0	1	0	43.7619463795609	0
3.63	43.8518586720832	0	1	0	1	0	43.8518586720832	0
3.64	43.9423860638318	0	1	0	1	0	43.9423860638318	0
3.65	44.0335265462603	0	1	0	1	0	44.0335265462603	0
3.66	44.1252781327737	0	1	0	1	0	44.1252781327737	0
3.67	44.2176388584293	0	1	0	1	0	44.2176388584293	0
3.68	44.3106067796421	0	1	0	1	0	44.3106067796421	0
3.69	44.4041799738963	0	1	0	1	0	44.4041799738963	0
3.7	44.4983565394597	0	1	0	1	0	44.4983565394597	0
3.71	44.593134595104	0	1	0	1	0	44.593134595104	0
3.72	44.6885122798293	0	1	0	1	0	44.6885122798293	0
3.73	44.7844877525926	0	1	0	1	0	44.7844877525926	0
3.74	44.8810591920414	0	1	0	1	0	44.8810591920414	0
3.75	44.9782247962509	0	1	0	1	0	44.9782247962509	0
3.76	45.0759827824656	0	1	0	1	0	45.0759827824656	0
3.77	45.1743313868453	0	1	0	1	0	45.1743313868453	0
3.78	45.2732688642148	0	1	0	1	0	45.2732688642148	0
3.79	45.3727934878175	0	1	0	1	0	45.3727934878175	0
3.8	45.4729035490733	0	1	0	1	0	45.4729035490733	0
3.81	45.5735973573398	0	1	0	1	0	45.5735973573398	0
3.82	45.6748732396779	0	1	0	1	0	45.6748732396779	0
3.83	45.7767295406203	0	1	0	1	0	45.7767295406203	0
3.84	45.8791646219441	0	1	0	1	0	45.8791646219441	0
3.85	45.9821768624471	0	1	0	1	0	45.9821768624471	0
3.86	46.0857646577268	0	1	0	1	0	46.0857646577268	0
3.87	46.1899264199641	0	1	0	1	0	46.1899264199641	0
3.88	46.2946605777087	0	1	0	1	0	46.2946605777087	0
3.89	46.3999655756695	0	1	0	1	0	46.3999655756695	0
3.9	46.505839874507	0	1	0	1	0	46.505839874507	0
3.91	46.6122819506295	0	1	0	1	0	46.6122819506295	0
3.92	46.719290295992	0	1	0	1	0	46.719290295992	0
3.93	46.8268634178987	0	1	0	1	0	46.8268634178987	0
3.94	46.9349998388079	0	1	0	1	0	46.9349998388079	0
3.95	47.0436980961405	0	1	0	1	0	47.0436980961405	0
3.96	47.1529567420909	0	1	0	1	0	47.1529567420909	0
3.97	47.262774343441	0	1	0	1	0	47.262774343441	0
3.98	47.3731494813768	0	1	0	1	0	47.3731494813768	0
3.99	47.4840807513081	0	1	0	1	0	47.4840807513081	0
4	47.5955667626904	0	1	0	1	0	47.5955667626904	0
4.01	47.7076061388503	0	1	0	1	0	47.7076061388503	0
4.02	47.8201975168123	0	1	0	1	0	47.8201975168123	0
4.03	47.9333395471295	0	1	0	1	0	47.9333395471295	0
4.04	48.0470308937156	0	1	0	1	0	48.0470308937156	0
4.05	48.1612702336804	0	1	0	1	0	48.1612702336804	0
4.06	48.276056257167	0	1	0	1	0	48.276056257167	0
4.07	48.3913876671918	0	1	0	1	0	48.3913876671918	0
4.08	48.5072631794868	0	1	0	1	0	48.5072631794868	0
4.09	48.6236815223439	0	1	0	1	0	48.6236815223439	0
4.1	48.7406414364622	0	1	0	1	0	48.7406414364622	0
4.11	48.8581416747964	0	1	0	1	0	48.8581416747964	0
4.12	48.9761810024088	0	1	0	1	0	48.9761810024088	0
4.13	49.0947581963221	0	1	0	1	0	49.0947581963221	0
4.14	49.2138720453753	0	1	0	1	0	49.2138720453753	0
4.15	49.3335213500813	0	1	0	1	0	49.3335213500813	0
4.16	49.4537049224864	0	1	0	1	0	49.4537049224864	0
4.17	49.5744215860322	0	1	0	1	0	49.5744215860322	0
4.18	49.6956701754192	0	1	0	1	0	49.6956701754192	0
4.19	49.8174495364726	0	1	0	1	0	49.8174495364726	0
4.2	49.9397585260097	0	1	0	1	0	49.9397585260097	0
4.21	50.0625960117092	0	1	0	1	0	50.0625960117092	0
4.22	50.185960871983	0	1	0	1	0	50.185960871983	0
4.23	50.3098519958488	0	1	0	1	0	50.3098519958488	0
4.24	50.4342682828053	0	1	0	1	0	50.4342682828053	0
4.25	50.559208642709	0	1	0	1	0	50.559208642709	0
4.26	50.6846719956524	0	1	0	1	0	50.6846719956524	0
4.27	50.8106572718442	0	1	0	1	0	50.8106572718442	0
4.28	50.9371634114912	0	1	0	1	0	50.9371634114912	0
4.29	51.0641893646816	0	1	0	1	0	51.0641893646816	0
4.3	51.1917340912704	0	1	0	1	0	51.1917340912704	0
4.31	51.3197965607659	0	1	0	1	0	51.3197965607659	0
4.32	51.4483757522179	0	1	0	1	0	51.4483757522179	0
4.33	51.5774706541076	0	1	0	1	0	51.5774706541076	0
4.34	51.707080264239	0	1	0	1	0	51.707080264239	0
4.35	51.8372035896316	0	1	0	1	0	51.8372035896316	0
4.36	51.9678396464151	0	1	0	1	0	51.9678396464151	0
4.37	52.0989874597245	0	1	0	1	0	52.0989874597245	0
4.38	52.230646063598	0	1	0	1	0	52.230646063598	0
4.39	52.3628145008751	0	1	0	1	0	52.3628145008751	0
4.4	52.4954918230966	0	1	0	1	0	52.4954918230966	0
4.41	52.6286770904066	0	1	0	1	0	52.6286770904066	0
4.42	52.7623693714541	0	1	0	1	0	52.7623693714541	0
4.43	52.8965677432981	0	1	0	1	0	52.8965677432981	0
4.44	53.031271291312	0	1	0	1	0	53.031271291312	0
4.45	53.1664791090907	0	1	0	1	0	53.1664791090907	0
4.46	53.3021902983585	0	1	0	1	0	53.3021902983585	0
4.47	53.4384039688775	0	1	0	1	0	53.4384039688775	0
4.48	53.5751192383588	0	1	0	1	0	53.5751192383588	0
4.49	53.7123352323733	0	1	0	1	0	53.7123352323733	0
4.5	53.8500510842647	0	1	0	1	0	53.8500510842647	0
4.51	53.9882659350632	0	1	0	1	0	53.9882659350632	0
4.52	54.1269789334004	0	1	0	1	0	54.1269789334004	0
4.53	54.2661892354257	0	1	0	1	0	54.2661892354257	0
4.54	54.4058960047231	0	1	0	1	0	54.4058960047231	0
4.55	54.5460984122298	0	1	0	1	0	54.5460984122298	0
4.56	54.6867956361557	0	1	0	1	0	54.6867956361557	0
4.57	54.8279868619031	0	1	0	1	0	54.8279868619031	0
4.58	54.9696712819892	0	1	0	1	0	54.9696712819892	0
4.59	55.1118480959678	0	1	0	1	0	55.1118480959678	0
4.6	55.2545165103532	0	1	0	1	0	55.2545165103532	0
4.61	55.3976757385446	0	1	0	1	0	55.3976757385446	0
4.62	55.5413250007516	0	1	0	1	0	55.5413250007516	0
4.63	55.6854635239206	0	1	0	1	0	55.6854635239206	0
4.64	55.8300905416623	0	1	0	1	0	55.8300905416623	0
4.65	55.97520529418	0	1	0	1	0	55.97520529418	0
4.66	56.1208070281988	0	1	0	1	0	56.1208070281988	0
4.67	56.2668949968959	0	1	0	1	0	56.2668949968959	0
4.68	56.4134684598316	0	1	0	1	0	56.4134684598316	0
4.69	56.5605266828813	0	1	0	1	0	56.5605266828813	0
4.7	56.7080689381681	0	1	0	1	0	56.7080689381681	0
4.71	56.8560945039967	0	1	0	1	0	56.8560945039967	0
4.72	57.004602664788	0	1	0	1	0	57.004602664788	0
4.73	57.1535927110142	0	1	0	1	0	57.1535927110142	0
4.74	57.3030639391351	0	1	0	1	0	57.3030639391351	0
4.75	57.453015651535	0	1	0	1	0	57.453015651535	0
4.76	57.6034471564606	0	1	0	1	0	57.6034471564606	0
4.77	57.7543577679595	0	1	0	1	0	57.7543577679595	0
4.78	57.9057468058192	0	1	0	1	0	57.9057468058192	0
4.79	58.0576135955079	0	1	0	1	0	58.0576135955079	0
4.8	58.2099574681145	0	1	0	1	0	58.2099574681145	0
4.81	58.3627777602909	0	1	0	1	0	58.3627777602909	0
4.82	58.5160738141937	0	1	0	1	0	58.5160738141937	0
4.83	58.6698449774277	0	1	0	1	0	58.6698449774277	0
4.84	58.8240906029893	0	1	0	1	0	58.8240906029893	0
4.85	58.9788100492109	0	1	0	1	0	58.9788100492109	0
4.86	59.1340026797062	0	1	0	1	0	59.1340026797062	0
4.87	59.289667863316	0	1	0	1	0	59.289667863316	0
4.88	59.4458049740544	0	1	0	1	0	59.4458049740544	0
4.89	59.6024133910561	0	1	0	1	0	59.6024133910561	0
4.9	59.7594924985241	0	1	0	1	0	59.7594924985241	0
4.91	59.917041685678	0	1	0	1	0	59.917041685678	0
4.92	60.0750603467032	0	1	0	1	0	60.0750603467032	0
4.93	60.2335478807003	0	1	0	1	0	60.2335478807003	0
