# GHZ S RI R 50
1	54.6930319443879	0	1	0	1	0	54.6930319443879	0
1.01	54.2388129970333	0	1	0	1	0	54.2388129970333	0
1.02	53.7947953088914	0	1	0	1	0	53.7947953088914	0
1.03	53.3606944532585	0	1	0	1	0	53.3606944532585	0
1.04	52.9362369429198	0	1	0	1	0	52.9362369429198	0
1.05	52.521159709221	0	1	0	1	0	52.521159709221	0
1.06	52.1152096106268	0	1	0	1	0	52.1152096106268	0
1.07	51.7181429688368	0	1	0	1	0	51.7181429688368	0
1.08	51.3297251306729	0	1	0	1	0	51.3297251306729	0
1.09	50.9497300540828	0	1	0	1	0	50.9497300540828	0
1.1	50.5779399167253	0	1	0	1	0	50.5779399167253	0
1.11	50.2141447457127	0	1	0	1	0	50.2141447457127	0
1.12	49.8581420671892	0	1	0	1	0	49.8581420671892	0
1.13	49.5097365745151	0	1	0	1	0	49.5097365745151	0
1.14	49.1687398139152	0	1	0	1	0	49.1687398139152	0
1.15	48.8349698865283	0	1	0	1	0	48.8349698865283	0
1.16	48.5082511658675	0	1	0	1	0	48.5082511658675	0
1.17	48.1884140297705	0	1	0	1	0	48.1884140297705	0
1.18	47.8752946059788	0	1	0	1	0	47.8752946059788	0
1.19	47.5687345305449	0	1	0	1	0	47.5687345305449	0
1.2	47.2685807183197	0	1	0	1	0	47.2685807183197	0
1.21	46.9746851448201	0	1	0	1	0	46.9746851448201	0
1.22	46.686904638825	0	1	0	1	0	46.686904638825	0
1.23	46.4051006850876	0	1	0	1	0	46.4051006850876	0
1.24	46.129139236595	0	1	0	1	0	46.129139236595	0
1.25	45.8588905358389	0	1	0	1	0	45.8588905358389	0
1.26	45.5942289445967	0	1	0	1	0	45.5942289445967	0
1.27	45.3350327817553	0	1	0	1	0	45.3350327817553	0
1.28	45.0811841687365	0	1	0	1	0	45.0811841687365	0
1.29	44.8325688821117	0	1	0	1	0	44.8325688821117	0
1.3	44.5890762130191	0	1	0	1	0	44.5890762130191	0
1.31	44.3505988330207	0	1	0	1	0	44.3505988330207	0
1.32	44.1170326660548	0	1	0	1	0	44.1170326660548	0
1.33	43.8882767661674	0	1	0	1	0	43.8882767661674	0
1.34	43.6642332007161	0	1	0	1	0	43.6642332007161	0
1.35	43.4448069387666	0	1	0	1	0	43.4448069387666	0
1.36	43.2299057444122	0	1	0	1	0	43.2299057444122	0
1.37	43.0194400747652	0	1	0	1	0	43.0194400747652	0
1.38	42.8133229823839	0	1	0	1	0	42.8133229823839	0
1.39	42.6114700219114	0	1	0	1	0	42.6114700219114	0
1.4	42.4137991607152	0	1	0	1	0	42.4137991607152	0
1.41	42.2202306933297	0	1	0	1	0	42.2202306933297	0
1.42	42.0306871595136	0	1	0	1	0	42.0306871595136	0
1.43	41.8450932657459	0	1	0	1	0	41.8450932657459	0
1.44	41.6633758099919	0	1	0	1	0	41.6633758099919	0
1.45	41.4854636095836	0	1	0	1	0	41.4854636095836	0
1.46	41.3112874320632	0	1	0	1	0	41.3112874320632	0
1.47	41.1407799288491	0	1	0	1	0	41.1407799288491	0
1.48	40.9738755715916	0	1	0	1	0	40.9738755715916	0
1.49	40.8105105910915	0	1	0	1	0	40.8105105910915	0
1.5	40.6506229186616	0	1	0	1	0	40.6506229186616	0
1.51	40.4941521298181	0	1	0	1	0	40.4941521298181	0
1.52	40.3410393901954	0	1	0	1	0	40.3410393901954	0
1.53	40.1912274035811	0	1	0	1	0	40.1912274035811	0
1.54	40.0446603619764	0	1	0	1	0	40.0446603619764	0
1.55	39.9012838975884	0	1	0	1	0	39.9012838975884	0
1.56	39.7610450366708	0	1	0	1	0	39.7610450366708	0
1.57	39.6238921551264	0	1	0	1	0	39.6238921551264	0
1.58	39.4897749357973	0	1	0	1	0	39.4897749357973	0
1.59	39.3586443273663	0	1	0	1	0	39.3586443273663	0
1.6	39.2304525047987	0	1	0	1	0	39.2304525047987	0
1.61	39.1051528312597	0	1	0	1	0	39.1051528312597	0
1.62	38.9826998214413	0	1	0	1	0	38.9826998214413	0
1.63	38.8630491062392	0	1	0	1	0	38.8630491062392	0
1.64	38.7461573987226	0	1	0	1	0	38.7461573987226	0
1.65	38.6319824613407	0	1	0	1	0	38.6319824613407	0
1.66	38.5204830743149	0	1	0	1	0	38.5204830743149	0
1.67	38.411619005167	0	1	0	1	0	38.411619005167	0
1.68	38.3053509793346	0	1	0	1	0	38.3053509793346	0
1.69	38.201640651831	0	1	0	1	0	38.201640651831	0
1.7	38.1004505799043	0	1	0	1	0	38.1004505799043	0
1.71	38.0017441966566	0	1	0	1	0	38.0017441966566	0
1.72	37.905485785583	0	1	0	1	0	37.905485785583	0
1.73	37.8116404559934	0	1	0	1	0	37.8116404559934	0
1.74	37.720174119283	0	1	0	1	0	37.720174119283	0
1.75	37.6310534660148	0	1	0	1	0	37.6310534660148	0
1.76	37.5442459437846	0	1	0	1	0	37.5442459437846	0
1.77	37.4597197358356	0	1	0	1	0	37.4597197358356	0
1.78	37.3774437403944	0	1	0	1	0	37.3774437403944	0
1.79	37.2973875506994	0	1	0	1	0	37.2973875506994	0
1.8	37.2195214356946	0	1	0	1	0	37.2195214356946	0
1.81	37.1438163213642	0	1	0	1	0	37.1438163213642	0
1.82	37.0702437726813	0	1	0	1	0	37.0702437726813	0
1.83	36.9987759761502	0	1	0	1	0	36.9987759761502	0
1.84	36.9293857229159	0	1	0	1	0	36.9293857229159	0
1.85	36.8620463924233	0	1	0	1	0	36.8620463924233	0
1.86	36.7967319366023	0	1	0	1	0	36.7967319366023	0
1.87	36.7334168645606	0	1	0	1	0	36.7334168645606	0
1.88	36.6720762277656	0	1	0	1	0	36.6720762277656	0
1.89	36.6126856056957	0	1	0	1	0	36.6126856056957	0
1.9	36.5552210919456	0	1	0	1	0	36.5552210919456	0
1.91	36.4996592807679	0	1	0	1	0	36.4996592807679	0
1.92	36.4459772540346	0	1	0	1	0	36.4459772540346	0
1.93	36.3941525686052	0	1	0	1	0	36.3941525686052	0
1.94	36.3441632440841	0	1	0	1	0	36.3441632440841	0
1.95	36.2959877509556	0	1	0	1	0	36.2959877509556	0
1.96	36.249604999082	0	1	0	1	0	36.249604999082	0
1.97	36.2049943265517	0	1	0	1	0	36.2049943265517	0
1.98	36.1621354888654	0	1	0	1	0	36.1621354888654	0
1.99	36.1210086484485	0	1	0	1	0	36.1210086484485	0
2	36.0815943644779	0	1	0	1	0	36.0815943644779	0
2.01	36.0438735830124	0	1	0	1	0	36.0438735830124	0
2.02	36.0078276274167	0	1	0	1	0	36.0078276274167	0
2.03	35.973438189068	0	1	0	1	0	35.973438189068	0
2.04	35.9406873183361	0	1	0	1	0	35.9406873183361	0
2.05	35.9095574158275	0	1	0	1	0	35.9095574158275	0
2.06	35.8800312238843	0	1	0	1	0	35.8800312238843	0
2.07	35.8520918183303	0	1	0	1	0	35.8520918183303	0
2.08	35.825722600454	0	1	0	1	0	35.825722600454	0
2.09	35.8009072892224	0	1	0	1	0	35.8009072892224	0
2.1	35.7776299137178	0	1	0	1	0	35.7776299137178	0
2.11	35.7558748057885	0	1	0	1	0	35.7558748057885	0
2.12	35.7356265929082	0	1	0	1	0	35.7356265929082	0
2.13	35.7168701912368	0	1	0	1	0	35.7168701912368	0
2.14	35.699590798875	0	1	0	1	0	35.699590798875	0
2.15	35.6837738893077	0	1	0	1	0	35.6837738893077	0
2.16	35.6694052050292	0	1	0	1	0	35.6694052050292	0
2.17	35.6564707513452	0	1	0	1	0	35.6564707513452	0
2.18	35.6449567903446	0	1	0	1	0	35.6449567903446	0
2.19	35.6348498350371	0	1	0	1	0	35.6348498350371	0
2.2	35.6261366436505	0	1	0	1	0	35.6261366436505	0
2.21	35.6188042140826	0	1	0	1	0	35.6188042140826	0
2.22	35.6128397785032	0	1	0	1	0	35.6128397785032	0
2.23	35.6082307981017	0	1	0	1	0	35.6082307981017	0
2.24	35.6049649579747	0	1	0	1	0	35.6049649579747	0
2.25	35.6030301621505	0	1	0	1	0	35.6030301621505	0
2.26	35.6024145287452	0	1	0	1	0	35.6024145287452	0
2.27	35.6031063852476	0	1	0	1	0	35.6031063852476	0
2.28	35.6050942639271	0	1	0	1	0	35.6050942639271	0
2.29	35.6083668973631	0	1	0	1	0	35.6083668973631	0
2.3	35.6129132140898	0	1	0	1	0	35.6129132140898	0
2.31	35.6187223343554	0	1	0	1	0	35.6187223343554	0
2.32	35.6257835659898	0	1	0	1	0	35.6257835659898	0
2.33	35.6340864003797	0	1	0	1	0	35.6340864003797	0
2.34	35.6436205085461	0	1	0	1	0	35.6436205085461	0
2.35	35.6543757373222	0	1	0	1	0	35.6543757373222	0
2.36	35.6663421056292	0	1	0	1	0	35.6663421056292	0
2.37	35.679509800845	0	1	0	1	0	35.679509800845	0
2.38	35.6938691752655	0	1	0	1	0	35.6938691752655	0
2.39	35.7094107426548	0	1	0	1	0	35.7094107426548	0
2.4	35.7261251748805	0	1	0	1	0	35.7261251748805	0
2.41	35.7440032986343	0	1	0	1	0	35.7440032986343	0
2.42	35.7630360922326	0	1	0	1	0	35.7630360922326	0
2.43	35.7832146824971	0	1	0	1	0	35.7832146824971	0
2.44	35.8045303417112	0	1	0	1	0	35.8045303417112	0
2.45	35.8269744846518	0	1	0	1	0	35.8269744846518	0
2.46	35.850538665693	0	1	0	1	0	35.850538665693	0
2.47	35.8752145759798	0	1	0	1	0	35.8752145759798	0
2.48	35.9009940406714	0	1	0	1	0	35.9009940406714	0
2.49	35.9278690162496	0	1	0	1	0	35.9278690162496	0
2.5	35.9558315878924	0	1	0	1	0	35.9558315878924	0
2.51	35.9848739669105	0	1	0	1	0	35.9848739669105	0
2.52	36.0149884882446	0	1	0	1	0	36.0149884882446	0
2.53	36.0461676080221	0	1	0	1	0	36.0461676080221	0
2.54	36.0784039011716	0	1	0	1	0	36.0784039011716	0
2.55	36.1116900590932	0	1	0	1	0	36.1116900590932	0
2.56	36.1460188873841	0	1	0	1	0	36.1460188873841	0
2.57	36.1813833036165	0	1	0	1	0	36.1813833036165	0
2.58	36.2177763351678	0	1	0	1	0	36.2177763351678	0
2.59	36.2551911171007	0	1	0	1	0	36.2551911171007	0
2.6	36.293620890092	0	1	0	1	0	36.293620890092	0
2.61	36.3330589984102	0	1	0	1	0	36.3330589984102	0
2.62	36.3734988879376	0	1	0	1	0	36.3734988879376	0
2.63	36.414934104239	0	1	0	1	0	36.414934104239	0
2.64	36.4573582906737	0	1	0	1	0	36.4573582906737	0
2.65	36.5007651865504	0	1	0	1	0	36.5007651865504	0
2.66	36.5451486253234	0	1	0	1	0	36.5451486253234	0
2.67	36.5905025328296	0	1	0	1	0	36.5905025328296	0
2.68	36.6368209255653	0	1	0	1	0	36.6368209255653	0
2.69	36.6840979090008	0	1	0	1	0	36.6840979090008	0
2.7	36.7323276759325	0	1	0	1	0	36.7323276759325	0
2.71	36.7815045048724	0	1	0	1	0	36.7815045048724	0
2.72	36.8316227584715	0	1	0	1	0	36.8316227584715	0
2.73	36.8826768819799	0	1	0	1	0	36.8826768819799	0
2.74	36.9346614017385	0	1	0	1	0	36.9346614017385	0
2.75	36.9875709237053	0	1	0	1	0	36.9875709237053	0
2.76	37.0414001320127	0	1	0	1	0	37.0414001320127	0
2.77	37.0961437875565	0	1	0	1	0	37.0961437875565	0
2.78	37.1517967266155	0	1	0	1	0	37.1517967266155	0
2.79	37.2083538595002	0	1	0	1	0	37.2083538595002	0
2.8	37.2658101692308	0	1	0	1	0	37.2658101692308	0
2.81	37.3241607102439	0	1	0	1	0	37.3241607102439	0
2.82	37.3834006071257	0	1	0	1	0	37.3834006071257	0
2.83	37.443525053373	0	1	0	1	0	37.443525053373	0
2.84	37.5045293101796	0	1	0	1	0	37.5045293101796	0
2.85	37.5664087052492	0	1	0	1	0	37.5664087052492	0
2.86	37.629158631632	0	1	0	1	0	37.629158631632	0
2.87	37.6927745465867	0	1	0	1	0	37.6927745465867	0
2.88	37.7572519704655	0	1	0	1	0	37.7572519704655	0
2.89	37.8225864856229	0	1	0	1	0	37.8225864856229	0
2.9	37.8887737353462	0	1	0	1	0	37.8887737353462	0
2.91	37.9558094228089	0	1	0	1	0	37.9558094228089	0
2.92	38.0236893100451	0	1	0	1	0	38.0236893100451	0
2.93	38.0924092169451	0	1	0	1	0	38.0924092169451	0
2.94	38.1619650202715	0	1	0	1	0	38.1619650202715	0
2.95	38.232352652695	0	1	0	1	0	38.232352652695	0
2.96	38.3035681018504	0	1	0	1	0	38.3035681018504	0
2.97	38.3756074094111	0	1	0	1	0	38.3756074094111	0
2.98	38.4484666701824	0	1	0	1	0	38.4484666701824	0
2.99	38.5221420312128	0	1	0	1	0	38.5221420312128	0
3	38.5966296909237	0	1	0	1	0	38.5966296909237	0
3.01	38.6719258982557	0	1	0	1	0	38.6719258982557	0
3.02	38.7480269518325	0	1	0	1	0	38.7480269518325	0
3.03	38.8249291991406	0	1	0	1	0	38.8249291991406	0
3.04	38.902629035726	0	1	0	1	0	38.902629035726	0
3.05	38.9811229044062	0	1	0	1	0	38.9811229044062	0
3.06	39.060407294498	0	1	0	1	0	39.060407294498	0
3.07	39.1404787410597	0	1	0	1	0	39.1404787410597	0
3.08	39.221333824149	0	1	0	1	0	39.221333824149	0
3.09	39.3029691680948	0	1	0	1	0	39.3029691680948	0
3.1	39.3853814407828	0	1	0	1	0	39.3853814407828	0
3.11	39.4685673529557	0	1	0	1	0	39.4685673529557	0
3.12	39.552523657526	0	1	0	1	0	39.552523657526	0
3.13	39.6372471489026	0	1	0	1	0	39.6372471489026	0
3.14	39.72273466233	0	1	0	1	0	39.72273466233	0
3.15	39.8089830732401	0	1	0	1	0	39.8089830732401	0
3.16	39.8959892966161	0	1	0	1	0	39.8959892966161	0
3.17	39.983750286369	0	1	0	1	0	39.983750286369	0
3.18	40.0722630347254	0	1	0	1	0	40.0722630347254	0
3.19	40.1615245716269	0	1	0	1	0	40.1615245716269	0
3.2	40.2515319641408	0	1	0	1	0	40.2515319641408	0
3.21	40.3422823158819	0	1	0	1	0	40.3422823158819	0
3.22	40.4337727664448	0	1	0	1	0	40.4337727664448	0
3.23	40.5260004908473	0	1	0	1	0	40.5260004908473	0
3.24	40.6189626989833	0	1	0	1	0	40.6189626989833	0
3.25	40.7126566350867	0	1	0	1	0	40.7126566350867	0
3.26	40.8070795772043	0	1	0	1	0	40.8070795772043	0
3.27	40.9022288366791	0	1	0	1	0	40.9022288366791	0
3.28	40.9981017576423	0	1	0	1	0	40.9981017576423	0
3.29	41.0946957165158	0	1	0	1	0	41.0946957165158	0
3.3	41.192008121522	0	1	0	1	0	41.192008121522	0
3.31	41.290036412204	0	1	0	1	0	41.290036412204	0
3.32	41.388778058954	0	1	0	1	0	41.388778058954	0
3.33	41.4882305625495	0	1	0	1	0	41.4882305625495	0
3.34	41.5883914536992	0	1	0	1	0	41.5883914536992	0
3.35	41.6892582925955	0	1	0	1	0	41.6892582925955	0
3.36	41.7908286684765	0	1	0	1	0	41.7908286684765	0
3.37	41.8931001991943	0	1	0	1	0	41.8931001991943	0
3.38	41.9960705307924	0	1	0	1	0	41.9960705307924	0
3.39	42.0997373370896	0	1	0	1	0	42.0997373370896	0
3.4	42.2040983192712	0	1	0	1	0	42.2040983192712	0
3.41	42.3091512054884	0	1	0	1	0	42.3091512054884	0
3.42	42.4148937504637	0	1	0	1	0	42.4148937504637	0
3.43	42.5213237351034	0	1	0	1	0	42.5213237351034	0
3.44	42.6284389661175	0	1	0	1	0	42.6284389661175	0
3.45	42.7362372756451	0	1	0	1	0	42.7362372756451	0
3.46	42.8447165208877	0	1	0	1	0	42.8447165208877	0
3.47	42.9538745837471	0	1	0	1	0	42.9538745837471	0
3.48	43.0637093704717	0	1	0	1	0	43.0637093704717	0
3.49	43.1742188113065	0	1	0	1	0	43.1742188113065	0
3.5	43.2854008601511	0	1	0	1	0	43.2854008601511	0
3.51	43.3972534942225	0	1	0	1	0	43.3972534942225	0
3.52	43.5097747137237	0	1	0	1	0	43.5097747137237	0
3.53	43.6229625415186	0	1	0	1	0	43.6229625415186	0
3.54	43.7368150228113	0	1	0	1	0	43.7368150228113	0
3.55	43.8513302248319	0	1	0	1	0	43.8513302248319	0
3.56	43.9665062365271	0	1	0	1	0	43.9665062365271	0
3.57	44.0823411682558	0	1	0	1	0	44.0823411682558	0
3.58	44.1988331514903	0	1	0	1	0	44.1988331514903	0
3.59	44.3159803385221	0	1	0	1	0	44.3159803385221	0
3.6	44.4337809021728	0	1	0	1	0	44.4337809021728	0
3.61	44.5522330355099	0	1	0	1	0	44.5522330355099	0
3.62	44.6713349515668	0	1	0	1	0	44.6713349515668	0
3.63	44.7910848830681	0	1	0	1	0	44.7910848830681	0
3.64	44.911481082159	0	1	0	1	0	44.911481082159	0
3.65	45.0325218201391	0	1	0	1	0	45.0325218201391	0
3.66	45.1542053872012	0	1	0	1	0	45.1542053872012	0
3.67	45.2765300921734	0	1	0	1	0	45.2765300921734	0
3.68	45.3994942622662	0	1	0	1	0	45.3994942622662	0
3.69	45.5230962428232	0	1	0	1	0	45.5230962428232	0
3.7	45.6473343970763	0	1	0	1	0	45.6473343970763	0
3.71	45.7722071059044	0	1	0	1	0	45.7722071059044	0
3.72	45.8977127675965	0	1	0	1	0	45.8977127675965	0
3.73	46.0238497976178	0	1	0	1	0	46.0238497976178	0
3.74	46.1506166283806	0	1	0	1	0	46.1506166283806	0
3.75	46.2780117090182	0	1	0	1	0	46.2780117090182	0
3.76	46.4060335051624	0	1	0	1	0	46.4060335051624	0
3.77	46.5346804987246	0	1	0	1	0	46.5346804987246	0
3.78	46.6639511876809	0	1	0	1	0	46.6639511876809	0
3.79	46.7938440858599	0	1	0	1	0	46.7938440858599	0
3.8	46.9243577227338	0	1	0	1	0	46.9243577227338	0
3.81	47.0554906432136	0	1	0	1	0	47.0554906432136	0
3.82	47.187241407447	0	1	0	1	0	47.187241407447	0
3.83	47.3196085906191	0	1	0	1	0	47.3196085906191	0
3.84	47.4525907827568	0	1	0	1	0	47.4525907827568	0
3.85	47.5861865885363	0	1	0	1	0	47.5861865885363	0
3.86	47.7203946270928	0	1	0	1	0	47.7203946270928	0
3.87	47.8552135318344	0	1	0	1	0	47.8552135318344	0
3.88	47.9906419502573	0	1	0	1	0	47.9906419502573	0
3.89	48.1266785437656	0	1	0	1	0	48.1266785437656	0
3.9	48.2633219874923	0	1	0	1	0	48.2633219874923	0
3.91	48.4005709701243	0	1	0	1	0	48.4005709701243	0
3.92	48.5384241937291	0	1	0	1	0	48.5384241937291	0
3.93	48.6768803735846	0	1	0	1	0	48.6768803735846	0
3.94	48.8159382380118	0	1	0	1	0	48.8159382380118	0
3.95	48.9555965282093	0	1	0	1	0	48.9555965282093	0
3.96	49.0958539980909	0	1	0	1	0	49.0958539980909	0
3.97	49.2367094141253	0	1	0	1	0	49.2367094141253	0
3.98	49.3781615551789	0	1	0	1	0	49.3781615551789	0
3.99	49.5202092123595	0	1	0	1	0	49.5202092123595	0
4	49.6628511888643	0	1	0	1	0	49.6628511888643	0
4.01	49.8060862998283	0	1	0	1	0	49.8060862998283	0
4.02	49.9499133721766	0	1	0	1	0	49.9499133721766	0
4.03	50.0943312444773	0	1	0	1	0	50.0943312444773	0
4.04	50.239338766798	0	1	0	1	0	50.239338766798	0
4.05	50.3849348005639	0	1	0	1	0	50.3849348005639	0
4.06	50.5311182184173	0	1	0	1	0	50.5311182184173	0
4.07	50.6778879040804	0	1	0	1	0	50.6778879040804	0
4.08	50.8252427522193	0	1	0	1	0	50.8252427522193	0
4.09	50.97318166831	0	1	0	1	0	50.97318166831	0
4.1	51.1217035685071	0	1	0	1	0	51.1217035685071	0
4.11	51.2708073795134	0	1	0	1	0	51.2708073795134	0
4.12	51.420492038452	0	1	0	1	0	51.420492038452	0
4.13	51.5707564927404	0	1	0	1	0	51.5707564927404	0
4.14	51.7215996999658	0	1	0	1	0	51.7215996999658	0
4.15	51.8730206277628	0	1	0	1	0	51.8730206277628	0
4.16	52.0250182536927	0	1	0	1	0	52.0250182536927	0
4.17	52.1775915651241	0	1	0	1	0	52.1775915651241	0
4.18	52.3307395591162	0	1	0	1	0	52.3307395591162	0
4.19	52.4844612423026	0	1	0	1	0	52.4844612423026	0
4.2	52.6387556307776	0	1	0	1	0	52.6387556307776	0
4.21	52.7936217499836	0	1	0	1	0	52.7936217499836	0
4.22	52.9490586346008	0	1	0	1	0	52.9490586346008	0
4.23	53.1050653284376	0	1	0	1	0	53.1050653284376	0
4.24	53.2616408843229	0	1	0	1	0	53.2616408843229	0
4.25	53.4187843640005	0	1	0	1	0	53.4187843640005	0
4.26	53.5764948380237	0	1	0	1	0	53.5764948380237	0
4.27	53.734771385653	0	1	0	1	0	53.734771385653	0
4.28	53.8936130947536	0	1	0	1	0	53.8936130947536	0
4.29	54.0530190616956	0	1	0	1	0	54.0530190616956	0
4.3	54.212988391255	0	1	0	1	0	54.212988391255	0
4.31	54.373520196516	0	1	0	1	0	54.373520196516	0
4.32	54.5346135987751	0	1	0	1	0	54.5346135987751	0
4.33	54.6962677274462	0	1	0	1	0	54.6962677274462	0
4.34	54.8584817199668	0	1	0	1	0	54.8584817199668	0
4.35	55.0212547217062	0	1	0	1	0	55.0212547217062	0
4.36	55.1845858858744	0	1	0	1	0	55.1845858858744	0
4.37	55.3484743734322	0	1	0	1	0	55.3484743734322	0
4.38	55.5129193530029	0	1	0	1	0	55.5129193530029	0
4.39	55.6779200007851	0	1	0	1	0	55.6779200007851	0
4.4	55.8434755004662	0	1	0	1	0	55.8434755004662	0
4.41	56.0095850431381	0	1	0	1	0	56.0095850431381	0
4.42	56.176247827213	0	1	0	1	0	56.176247827213	0
4.43	56.343463058341	0	1	0	1	0	56.343463058341	0
4.44	56.5112299493284	0	1	0	1	0	56.5112299493284	0
4.45	56.6795477200575	0	1	0	1	0	56.6795477200575	0
4.46	56.8484155974071	0	1	0	1	0	56.8484155974071	0
4.47	57.0178328151743	0	1	0	1	0	57.0178328151743	0
4.48	57.1877986139973	0	1	0	1	0	57.1877986139973	0
4.49	57.3583122412793	0	1	0	1	0	57.3583122412793	0
4.5	57.5293729511132	0	1	0	1	0	57.5293729511132	0
4.51	57.7009800042074	0	1	0	1	0	57.7009800042074	0
4.52	57.8731326678128	0	1	0	1	0	57.8731326678128	0
4.53	58.0458302156505	0	1	0	1	0	58.0458302156505	0
4.54	58.2190719278405	0	1	0	1	0	58.2190719278405	0
4.55	58.3928570908315	0	1	0	1	0	58.3928570908315	0
4.56	58.5671849973312	0	1	0	1	0	58.5671849973312	0
4.57	58.7420549462382	0	1	0	1	0	58.7420549462382	0
4.58	58.9174662425742	0	1	0	1	0	58.9174662425742	0
4.59	59.0934181974176	0	1	0	1	0	59.0934181974176	0
4.6	59.269910127837	0	1	0	1	0	59.269910127837	0
4.61	59.446941356827	0	1	0	1	0	59.446941356827	0
4.62	59.6245112132435	0	1	0	1	0	59.6245112132435	0
4.63	59.8026190317408	0	1	0	1	0	59.8026190317408	0
4.64	59.9812641527088	0	1	0	1	0	59.9812641527088	0
4.65	60.1604459222114	0	1	0	1	0	60.1604459222114	0
4.66	60.340163691926	0	1	0	1	0	60.340163691926	0
4.67	60.5204168190828	0	1	0	1	0	60.5204168190828	0
4.68	60.7012046664057	0	1	0	1	0	60.7012046664057	0
4.69	60.8825266020542	0	1	0	1	0	60.8825266020542	0
4.7	61.0643819995647	0	1	0	1	0	61.0643819995647	0
4.71	61.2467702377942	0	1	0	1	0	61.2467702377942	0
4.72	61.4296907008634	0	1	0	1	0	61.4296907008634	0
4.73	61.6131427781014	0	1	0	1	0	61.6131427781014	0
4.74	61.7971258639907	0	1	0	1	0	61.7971258639907	0
4.75	61.9816393581128	0	1	0	1	0	61.9816393581128	0
4.76	62.1666826650947	0	1	0	1	0	62.1666826650947	0
4.77	62.3522551945562	0	1	0	1	0	62.3522551945562	0
4.78	62.5383563610574	0	1	0	1	0	62.5383563610574	0
4.79	62.7249855840472	0	1	0	1	0	62.7249855840472	0
4.8	62.9121422878126	0	1	0	1	0	62.9121422878126	0
4.81	63.099825901428	0	1	0	1	0	63.099825901428	0
4.82	63.288035858706	0	1	0	1	0	63.288035858706	0
4.83	63.4767715981481	0	1	0	1	0	63.4767715981481	0
4.84	63.6660325628961	0	1	0	1	0	63.6660325628961	0
4.85	63.8558182006846	0	1	0	1	0	63.8558182006846	0
4.86	64.0461279637935	0	1	0	1	0	64.0461279637935	0
4.87	64.2369613090016	0	1	0	1	0	64.2369613090016	0
4.88	64.4283176975401	0	1	0	1	0	64.4283176975401	0
4.89	64.6201965950474	0	1	0	1	0	64.6201965950474	0
4.9	64.8125974715241	0	1	0	1	0	64.8125974715241	0
4.91	65.0055198012885	0	1	0	1	0	65.0055198012885	0
4.92	65.1989630629327	0	1	0	1	0	65.1989630629327	0
4.93	65.3929267392793	0	1	0	1	0	65.3929267392793	0
