# GHZ S RI R 50
1	47.2106140793125	0	1	0	1	0	47.2106140793125	0
1.01	46.8166184391395	0	1	0	1	0	46.8166184391395	0
1.02	46.4314531709946	0	1	0	1	0	46.4314531709946	0
1.03	46.0548719136304	0	1	0	1	0	46.0548719136304	0
1.04	45.6866377812319	0	1	0	1	0	45.6866377812319	0
1.05	45.3265229122057	0	1	0	1	0	45.3265229122057	0
1.06	44.974308043509	0	1	0	1	0	44.974308043509	0
1.07	44.6297821088485	0	1	0	1	0	44.6297821088485	0
1.08	44.2927418592008	0	1	0	1	0	44.2927418592008	0
1.09	43.9629915042224	0	1	0	1	0	43.9629915042224	0
1.1	43.6403423732185	0	1	0	1	0	43.6403423732185	0
1.11	43.3246125944383	0	1	0	1	0	43.3246125944383	0
1.12	43.0156267915509	0	1	0	1	0	43.0156267915509	0
1.13	42.7132157962368	0	1	0	1	0	42.7132157962368	0
1.14	42.4172163759071	0	1	0	1	0	42.4172163759071	0
1.15	42.1274709756282	0	1	0	1	0	42.1274709756282	0
1.16	41.8438274733954	0	1	0	1	0	41.8438274733954	0
1.17	41.566138947956	0	1	0	1	0	41.566138947956	0
1.18	41.2942634584389	0	1	0	1	0	41.2942634584389	0
1.19	41.0280638350948	0	1	0	1	0	41.0280638350948	0
1.2	40.7674074804992	0	1	0	1	0	40.7674074804992	0
1.21	40.5121661806136	0	1	0	1	0	40.5121661806136	0
1.22	40.2622159251386	0	1	0	1	0	40.2622159251386	0
1.23	40.0174367366298	0	1	0	1	0	40.0174367366298	0
1.24	39.7777125078833	0	1	0	1	0	39.7777125078833	0
1.25	39.5429308471253	0	1	0	1	0	39.5429308471253	0
1.26	39.3129829305752	0	1	0	1	0	39.3129829305752	0
1.27	39.0877633619728	0	1	0	1	0	39.0877633619728	0
1.28	38.8671700386912	0	1	0	1	0	38.8671700386912	0
1.29	38.6511040240762	0	1	0	1	0	38.6511040240762	0
1.3	38.4394694256786	0	1	0	1	0	38.4394694256786	0
1.31	38.2321732790628	0	1	0	1	0	38.2321732790628	0
1.32	38.0291254368973	0	1	0	1	0	38.0291254368973	0
1.33	37.8302384630485	0	1	0	1	0	37.8302384630485	0
1.34	37.6354275314168	0	1	0	1	0	37.6354275314168	0
1.35	37.4446103292684	0	1	0	1	0	37.4446103292684	0
1.36	37.2577069648321	0	1	0	1	0	37.2577069648321	0
1.37	37.0746398789435	0	1	0	1	0	37.0746398789435	0
1.38	36.8953337605297	0	1	0	1	0	36.8953337605297	0
1.39	36.719715465743	0	1	0	1	0	36.719715465743	0
1.4	36.5477139405598	0	1	0	1	0	36.5477139405598	0
1.41	36.3792601466736	0	1	0	1	0	36.3792601466736	0
1.42	36.2142869905189	0	1	0	1	0	36.2142869905189	0
1.43	36.0527292552733	0	1	0	1	0	36.0527292552733	0
1.44	35.8945235356928	0	1	0	1	0	35.8945235356928	0
1.45	35.7396081756435	0	1	0	1	0	35.7396081756435	0
1.46	35.5879232082008	0	1	0	1	0	35.5879232082008	0
1.47	35.439410298193	0	1	0	1	0	35.439410298193	0
1.48	35.2940126870747	0	1	0	1	0	35.2940126870747	0
1.49	35.15167514002	0	1	0	1	0	35.15167514002	0
1.5	35.0123438951314	0	1	0	1	0	35.0123438951314	0
1.51	34.8759666146679	0	1	0	1	0	34.8759666146679	0
1.52	34.7424923381973	0	1	0	1	0	34.7424923381973	0
1.53	34.6118714375864	0	1	0	1	0	34.6118714375864	0
1.54	34.4840555737442	0	1	0	1	0	34.4840555737442	0
1.55	34.3589976550404	0	1	0	1	0	34.3589976550404	0
1.56	34.2366517973223	0	1	0	1	0	34.2366517973223	0
1.57	34.1169732854601	0	1	0	1	0	34.1169732854601	0
1.58	33.9999185363526	0	1	0	1	0	33.9999185363526	0
1.59	33.8854450633291	0	1	0	1	0	33.8854450633291	0
1.6	33.7735114418852	0	1	0	1	0	33.7735114418852	0
1.61	33.6640772766972	0	1	0	1	0	33.6640772766972	0
1.62	33.5571031698565	0	1	0	1	0	33.5571031698565	0
1.63	33.4525506902744	0	1	0	1	0	33.4525506902744	0
1.64	33.350382344206	0	1	0	1	0	33.350382344206	0
1.65	33.2505615468454	0	1	0	1	0	33.2505615468454	0
1.66	33.1530525949484	0	1	0	1	0	33.1530525949484	0
1.67	33.0578206404385	0	1	0	1	0	33.0578206404385	0
1.68	32.964831664955	0	1	0	1	0	32.964831664955	0
1.69	32.8740524553057	0	1	0	1	0	32.8740524553057	0
1.7	32.7854505797853	0	1	0	1	0	32.7854505797853	0
1.71	32.6989943653247	0	1	0	1	0	32.6989943653247	0
1.72	32.6146528754379	0	1	0	1	0	32.6146528754379	0
1.73	32.5323958889336	0	1	0	1	0	32.5323958889336	0
1.74	32.45219387936	0	1	0	1	0	32.45219387936	0
1.75	32.3740179951562	0	1	0	1	0	32.3740179951562	0
1.76	32.2978400404782	0	1	0	1	0	32.2978400404782	0
1.77	32.2236324566764	0	1	0	1	0	32.2236324566764	0
1.78	32.1513683043966	0	1	0	1	0	32.1513683043966	0
1.79	32.0810212462815	0	1	0	1	0	32.0810212462815	0
1.8	32.0125655302482	0	1	0	1	0	32.0125655302482	0
1.81	31.9459759733207	0	1	0	1	0	31.9459759733207	0
1.82	31.881227945995	0	1	0	1	0	31.881227945995	0
1.83	31.8182973571169	0	1	0	1	0	31.8182973571169	0
1.84	31.7571606392531	0	1	0	1	0	31.7571606392531	0
1.85	31.6977947345361	0	1	0	1	0	31.6977947345361	0
1.86	31.6401770809668	0	1	0	1	0	31.6401770809668	0
1.87	31.5842855991556	0	1	0	1	0	31.5842855991556	0
1.88	31.5300986794871	0	1	0	1	0	31.5300986794871	0
1.89	31.4775951696924	0	1	0	1	0	31.4775951696924	0
1.9	31.4267543628133	0	1	0	1	0	31.4267543628133	0
1.91	31.3775559855455	0	1	0	1	0	31.3775559855455	0
1.92	31.3299801869448	0	1	0	1	0	31.3299801869448	0
1.93	31.284007527486	0	1	0	1	0	31.284007527486	0
1.94	31.2396189684584	0	1	0	1	0	31.2396189684584	0
1.95	31.1967958616892	0	1	0	1	0	31.1967958616892	0
1.96	31.1555199395806	0	1	0	1	0	31.1555199395806	0
1.97	31.1157733054503	0	1	0	1	0	31.1157733054503	0
1.98	31.0775384241653	0	1	0	1	0	31.0775384241653	0
1.99	31.0407981130575	0	1	0	1	0	31.0407981130575	0
2	31.0055355331122	0	1	0	1	0	31.0055355331122	0
2.01	30.9717341804195	0	1	0	1	0	30.9717341804195	0
2.02	30.9393778778795	0	1	0	1	0	30.9393778778795	0
2.03	30.908450767153	0	1	0	1	0	30.908450767153	0
2.04	30.8789373008485	0	1	0	1	0	30.8789373008485	0
2.05	30.8508222349383	0	1	0	1	0	30.8508222349383	0
2.06	30.8240906213953	0	1	0	1	0	30.8240906213953	0
2.07	30.7987278010432	0	1	0	1	0	30.7987278010432	0
2.08	30.7747193966127	0	1	0	1	0	30.7747193966127	0
2.09	30.7520513059977	0	1	0	1	0	30.7520513059977	0
2.1	30.7307096957037	0	1	0	1	0	30.7307096957037	0
2.11	30.7106809944826	0	1	0	1	0	30.7106809944826	0
2.12	30.6919518871472	0	1	0	1	0	30.6919518871472	0
2.13	30.6745093085613	0	1	0	1	0	30.6745093085613	0
2.14	30.6583404377964	0	1	0	1	0	30.6583404377964	0
2.15	30.6434326924531	0	1	0	1	0	30.6434326924531	0
2.16	30.6297737231395	0	1	0	1	0	30.6297737231395	0
2.17	30.6173514081021	0	1	0	1	0	30.6173514081021	0
2.18	30.6061538480049	0	1	0	1	0	30.6061538480049	0
2.19	30.5961693608514	0	1	0	1	0	30.5961693608514	0
2.2	30.5873864770451	0	1	0	1	0	30.5873864770451	0
2.21	30.579793934584	0	1	0	1	0	30.579793934584	0
2.22	30.5733806743849	0	1	0	1	0	30.5733806743849	0
2.23	30.5681358357339	0	1	0	1	0	30.5681358357339	0
2.24	30.5640487518585	0	1	0	1	0	30.5640487518585	0
2.25	30.5611089456177	0	1	0	1	0	30.5611089456177	0
2.26	30.5593061253064	0	1	0	1	0	30.5593061253064	0
2.27	30.5586301805715	0	1	0	1	0	30.5586301805715	0
2.28	30.5590711784342	0	1	0	1	0	30.5590711784342	0
2.29	30.5606193594176	0	1	0	1	0	30.5606193594176	0
2.3	30.563265133775	0	1	0	1	0	30.563265133775	0
2.31	30.5669990778156	0	1	0	1	0	30.5669990778156	0
2.32	30.5718119303263	0	1	0	1	0	30.5718119303263	0
2.33	30.5776945890848	0	1	0	1	0	30.5776945890848	0
2.34	30.584638107462	0	1	0	1	0	30.584638107462	0
2.35	30.5926336911123	0	1	0	1	0	30.5926336911123	0
2.36	30.6016726947465	0	1	0	1	0	30.6016726947465	0
2.37	30.6117466189875	0	1	0	1	0	30.6117466189875	0
2.38	30.622847107305	0	1	0	1	0	30.622847107305	0
2.39	30.6349659430268	0	1	0	1	0	30.6349659430268	0
2.4	30.6480950464254	0	1	0	1	0	30.6480950464254	0
2.41	30.6622264718764	0	1	0	1	0	30.6622264718764	0
2.42	30.6773524050884	0	1	0	1	0	30.6773524050884	0
2.43	30.6934651604	0	1	0	1	0	30.6934651604	0
2.44	30.7105571781443	0	1	0	1	0	30.7105571781443	0
2.45	30.7286210220777	0	1	0	1	0	30.7286210220777	0
2.46	30.7476493768709	0	1	0	1	0	30.7476493768709	0
2.47	30.7676350456617	0	1	0	1	0	30.7676350456617	0
2.48	30.7885709476662	0	1	0	1	0	30.7885709476662	0
2.49	30.810450115848	0	1	0	1	0	30.810450115848	0
2.5	30.8332656946434	0	1	0	1	0	30.8332656946434	0
2.51	30.8570109377406	0	1	0	1	0	30.8570109377406	0
2.52	30.8816792059122	0	1	0	1	0	30.8816792059122	0
2.53	30.9072639648986	0	1	0	1	0	30.9072639648986	0
2.54	30.9337587833424	0	1	0	1	0	30.9337587833424	0
2.55	30.9611573307697	0	1	0	1	0	30.9611573307697	0
2.56	30.9894533756205	0	1	0	1	0	30.9894533756205	0
2.57	31.0186407833242	0	1	0	1	0	31.0186407833242	0
2.58	31.0487135144196	0	1	0	1	0	31.0487135144196	0
2.59	31.0796656227192	0	1	0	1	0	31.0796656227192	0
2.6	31.111491253515	0	1	0	1	0	31.111491253515	0
2.61	31.1441846418268	0	1	0	1	0	31.1441846418268	0
2.62	31.1777401106889	0	1	0	1	0	31.1777401106889	0
2.63	31.2121520694776	0	1	0	1	0	31.2121520694776	0
2.64	31.2474150122756	0	1	0	1	0	31.2474150122756	0
2.65	31.2835235162735	0	1	0	1	0	31.2835235162735	0
2.66	31.3204722402082	0	1	0	1	0	31.3204722402082	0
2.67	31.3582559228354	0	1	0	1	0	31.3582559228354	0
2.68	31.3968693814369	0	1	0	1	0	31.3968693814369	0
2.69	31.4363075103609	0	1	0	1	0	31.4363075103609	0
2.7	31.4765652795949	0	1	0	1	0	31.4765652795949	0
2.71	31.51763773337	0	1	0	1	0	31.51763773337	0
2.72	31.5595199887965	0	1	0	1	0	31.5595199887965	0
2.73	31.6022072345288	0	1	0	1	0	31.6022072345288	0
2.74	31.6456947294596	0	1	0	1	0	31.6456947294596	0
2.75	31.6899778014437	0	1	0	1	0	31.6899778014437	0
2.76	31.7350518460477	0	1	0	1	0	31.7350518460477	0
2.77	31.7809123253285	0	1	0	1	0	31.7809123253285	0
2.78	31.8275547666369	0	1	0	1	0	31.8275547666369	0
2.79	31.874974761448	0	1	0	1	0	31.874974761448	0
2.8	31.9231679642155	0	1	0	1	0	31.9231679642155	0
2.81	31.9721300912517	0	1	0	1	0	31.9721300912517	0
2.82	32.0218569196302	0	1	0	1	0	32.0218569196302	0
2.83	32.0723442861128	0	1	0	1	0	32.0723442861128	0
2.84	32.1235880860983	0	1	0	1	0	32.1235880860983	0
2.85	32.175584272594	0	1	0	1	0	32.175584272594	0
2.86	32.2283288552085	0	1	0	1	0	32.2283288552085	0
2.87	32.2818178991656	0	1	0	1	0	32.2818178991656	0
2.88	32.3360475243388	0	1	0	1	0	32.3360475243388	0
2.89	32.3910139043058	0	1	0	1	0	32.3910139043058	0
2.9	32.4467132654223	0	1	0	1	0	32.4467132654223	0
2.91	32.5031418859159	0	1	0	1	0	32.5031418859159	0
2.92	32.5602960949968	0	1	0	1	0	32.5602960949968	0
2.93	32.6181722719887	0	1	0	1	0	32.6181722719887	0
2.94	32.6767668454763	0	1	0	1	0	32.6767668454763	0
2.95	32.7360762924699	0	1	0	1	0	32.7360762924699	0
2.96	32.7960971375881	0	1	0	1	0	32.7960971375881	0
2.97	32.8568259522559	0	1	0	1	0	32.8568259522559	0
2.98	32.9182593539194	0	1	0	1	0	32.9182593539194	0
2.99	32.9803940052761	0	1	0	1	0	32.9803940052761	0
3	33.0432266135213	0	1	0	1	0	33.0432266135213	0
3.01	33.106753929608	0	1	0	1	0	33.106753929608	0
3.02	33.1709727475233	0	1	0	1	0	33.1709727475233	0
3.03	33.2358799035777	0	1	0	1	0	33.2358799035777	0
3.04	33.3014722757094	0	1	0	1	0	33.3014722757094	0
3.05	33.3677467828014	0	1	0	1	0	33.3677467828014	0
3.06	33.4347003840129	0	1	0	1	0	33.4347003840129	0
3.07	33.5023300781232	0	1	0	1	0	33.5023300781232	0
3.08	33.5706329028884	0	1	0	1	0	33.5706329028884	0
3.09	33.6396059344109	0	1	0	1	0	33.6396059344109	0
3.1	33.7092462865207	0	1	0	1	0	33.7092462865207	0
3.11	33.7795511101691	0	1	0	1	0	33.7795511101691	0
3.12	33.8505175928334	0	1	0	1	0	33.8505175928334	0
3.13	33.9221429579341	0	1	0	1	0	33.9221429579341	0
3.14	33.9944244642617	0	1	0	1	0	33.9944244642617	0
3.15	34.067359405416	0	1	0	1	0	34.067359405416	0
3.16	34.140945109255	0	1	0	1	0	34.140945109255	0
3.17	34.2151789373544	0	1	0	1	0	34.2151789373544	0
3.18	34.2900582844778	0	1	0	1	0	34.2900582844778	0
3.19	34.3655805780563	0	1	0	1	0	34.3655805780563	0
3.2	34.4417432776781	0	1	0	1	0	34.4417432776781	0
3.21	34.5185438745876	0	1	0	1	0	34.5185438745876	0
3.22	34.5959798911938	0	1	0	1	0	34.5959798911938	0
3.23	34.6740488805883	0	1	0	1	0	34.6740488805883	0
3.24	34.7527484260709	0	1	0	1	0	34.7527484260709	0
3.25	34.8320761406858	0	1	0	1	0	34.8320761406858	0
3.26	34.9120296667648	0	1	0	1	0	34.9120296667648	0
3.27	34.9926066754799	0	1	0	1	0	34.9926066754799	0
3.28	35.0738048664032	0	1	0	1	0	35.0738048664032	0
3.29	35.1556219670756	0	1	0	1	0	35.1556219670756	0
3.3	35.2380557325831	0	1	0	1	0	35.2380557325831	0
3.31	35.3211039451403	0	1	0	1	0	35.3211039451403	0
3.32	35.4047644136824	0	1	0	1	0	35.4047644136824	0
3.33	35.4890349734635	0	1	0	1	0	35.4890349734635	0
3.34	35.5739134856628	0	1	0	1	0	35.5739134856628	0
3.35	35.6593978369978	0	1	0	1	0	35.6593978369978	0
3.36	35.7454859393441	0	1	0	1	0	35.7454859393441	0
3.37	35.8321757293619	0	1	0	1	0	35.8321757293619	0
3.38	35.91946516813	0	1	0	1	0	35.91946516813	0
3.39	36.007352240785	0	1	0	1	0	36.007352240785	0
3.4	36.095834956168	0	1	0	1	0	36.095834956168	0
3.41	36.1849113464765	0	1	0	1	0	36.1849113464765	0
3.42	36.2745794669235	0	1	0	1	0	36.2745794669235	0
3.43	36.3648373954016	0	1	0	1	0	36.3648373954016	0
3.44	36.4556832321535	0	1	0	1	0	36.4556832321535	0
3.45	36.5471150994481	0	1	0	1	0	36.5471150994481	0
3.46	36.6391311412623	0	1	0	1	0	36.6391311412623	0
3.47	36.7317295229678	0	1	0	1	0	36.7317295229678	0
3.48	36.8249084310241	0	1	0	1	0	36.8249084310241	0
3.49	36.9186660726764	0	1	0	1	0	36.9186660726764	0
3.5	37.0130006756584	0	1	0	1	0	37.0130006756584	0
3.51	37.1079104879005	0	1	0	1	0	37.1079104879005	0
3.52	37.2033937772432	0	1	0	1	0	37.2033937772432	0
3.53	37.2994488311546	0	1	0	1	0	37.2994488311546	0
3.54	37.3960739564537	0	1	0	1	0	37.3960739564537	0
3.55	37.4932674790374	0	1	0	1	0	37.4932674790374	0
3.56	37.5910277436128	0	1	0	1	0	37.5910277436128	0
3.57	37.6893531134338	0	1	0	1	0	37.6893531134338	0
3.58	37.7882419700418	0	1	0	1	0	37.7882419700418	0
3.59	37.8876927130113	0	1	0	1	0	37.8876927130113	0
3.6	37.9877037596993	0	1	0	1	0	37.9877037596993	0
3.61	38.0882735449989	0	1	0	1	0	38.0882735449989	0
3.62	38.1894005210974	0	1	0	1	0	38.1894005210974	0
3.63	38.2910831572375	0	1	0	1	0	38.2910831572375	0
3.64	38.3933199394839	0	1	0	1	0	38.3933199394839	0
3.65	38.496109370492	0	1	0	1	0	38.496109370492	0
3.66	38.5994499692819	0	1	0	1	0	38.5994499692819	0
3.67	38.7033402710148	0	1	0	1	0	38.7033402710148	0
3.68	38.8077788267745	0	1	0	1	0	38.8077788267745	0
3.69	38.9127642033509	0	1	0	1	0	38.9127642033509	0
3.7	39.0182949830282	0	1	0	1	0	39.0182949830282	0
3.71	39.1243697633759	0	1	0	1	0	39.1243697633759	0
3.72	39.2309871570434	0	1	0	1	0	39.2309871570434	0
3.73	39.3381457915578	0	1	0	1	0	39.3381457915578	0
3.74	39.4458443091251	0	1	0	1	0	39.4458443091251	0
3.75	39.5540813664346	0	1	0	1	0	39.5540813664346	0
3.76	39.6628556344659	0	1	0	1	0	39.6628556344659	0
3.77	39.7721657982997	0	1	0	1	0	39.7721657982997	0
3.78	39.8820105569311	0	1	0	1	0	39.8820105569311	0
3.79	39.9923886230864	0	1	0	1	0	39.9923886230864	0
3.8	40.1032987230418	0	1	0	1	0	40.1032987230418	0
3.81	40.2147395964461	0	1	0	1	0	40.2147395964461	0
3.82	40.3267099961456	0	1	0	1	0	40.3267099961456	0
3.83	40.4392086880116	0	1	0	1	0	40.4392086880116	0
3.84	40.5522344507707	0	1	0	1	0	40.5522344507707	0
3.85	40.6657860758384	0	1	0	1	0	40.6657860758384	0
3.86	40.7798623671543	0	1	0	1	0	40.7798623671543	0
3.87	40.8944621410201	0	1	0	1	0	40.8944621410201	0
3.88	41.009584225941	0	1	0	1	0	41.009584225941	0
3.89	41.1252274624682	0	1	0	1	0	41.1252274624682	0
3.9	41.2413907030447	0	1	0	1	0	41.2413907030447	0
3.91	41.3580728118531	0	1	0	1	0	41.3580728118531	0
3.92	41.4752726646661	0	1	0	1	0	41.4752726646661	0
3.93	41.5929891486991	0	1	0	1	0	41.5929891486991	0
3.94	41.7112211624644	0	1	0	1	0	41.7112211624644	0
3.95	41.8299676156289	0	1	0	1	0	41.8299676156289	0
3.96	41.9492274288729	0	1	0	1	0	41.9492274288729	0
3.97	42.0689995337514	0	1	0	1	0	42.0689995337514	0
3.98	42.1892828725576	0	1	0	1	0	42.1892828725576	0
3.99	42.3100763981882	0	1	0	1	0	42.3100763981882	0
4	42.4313790740111	0	1	0	1	0	42.4313790740111	0
4.01	42.5531898737345	0	1	0	1	0	42.5531898737345	0
4.02	42.6755077812785	0	1	0	1	0	42.6755077812785	0
4.03	42.7983317906485	0	1	0	1	0	42.7983317906485	0
4.04	42.9216609058099	0	1	0	1	0	42.9216609058099	0
4.05	43.0454941405659	0	1	0	1	0	43.0454941405659	0
4.06	43.1698305184356	0	1	0	1	0	43.1698305184356	0
4.07	43.2946690725352	0	1	0	1	0	43.2946690725352	0
4.08	43.42000884546	0	1	0	1	0	43.42000884546	0
4.09	43.5458488891686	0	1	0	1	0	43.5458488891686	0
4.1	43.6721882648691	0	1	0	1	0	43.6721882648691	0
4.11	43.7990260429059	0	1	0	1	0	43.7990260429059	0
4.12	43.9263613026494	0	1	0	1	0	43.9263613026494	0
4.13	44.0541931323864	0	1	0	1	0	44.0541931323864	0
4.14	44.1825206292127	0	1	0	1	0	44.1825206292127	0
4.15	44.3113428989265	0	1	0	1	0	44.3113428989265	0
4.16	44.4406590559244	0	1	0	1	0	44.4406590559244	0
4.17	44.5704682230978	0	1	0	1	0	44.5704682230978	0
4.18	44.7007695317315	0	1	0	1	0	44.7007695317315	0
4.19	44.8315621214036	0	1	0	1	0	44.8315621214036	0
4.2	44.9628451398867	0	1	0	1	0	44.9628451398867	0
4.21	45.0946177430505	0	1	0	1	0	45.0946177430505	0
4.22	45.2268790947659	0	1	0	1	0	45.2268790947659	0
4.23	45.3596283668106	0	1	0	1	0	45.3596283668106	0
4.24	45.4928647387756	0	1	0	1	0	45.4928647387756	0
4.25	45.6265873979735	0	1	0	1	0	45.6265873979735	0
4.26	45.7607955393476	0	1	0	1	0	45.7607955393476	0
4.27	45.895488365383	0	1	0	1	0	45.895488365383	0
4.28	46.0306650860178	0	1	0	1	0	46.0306650860178	0
4.29	46.166324918557	0	1	0	1	0	46.166324918557	0
4.3	46.3024670875864	0	1	0	1	0	46.3024670875864	0
4.31	46.439090824888	0	1	0	1	0	46.439090824888	0
4.32	46.5761953693573	0	1	0	1	0	46.5761953693573	0
4.33	46.7137799669206	0	1	0	1	0	46.7137799669206	0
4.34	46.851843870454	0	1	0	1	0	46.851843870454	0
4.35	46.990386339704	0	1	0	1	0	46.990386339704	0
4.36	47.1294066412084	0	1	0	1	0	47.1294066412084	0
4.37	47.2689040482184	0	1	0	1	0	47.2689040482184	0
4.38	47.4088778406222	0	1	0	1	0	47.4088778406222	0
4.39	47.5493273048697	0	1	0	1	0	47.5493273048697	0
4.4	47.6902517338973	0	1	0	1	0	47.6902517338973	0
4.41	47.8316504270547	0	1	0	1	0	47.8316504270547	0
4.42	47.9735226900325	0	1	0	1	0	47.9735226900325	0
4.43	48.1158678347903	0	1	0	1	0	48.1158678347903	0
4.44	48.2586851794863	0	1	0	1	0	48.2586851794863	0
4.45	48.4019740484077	0	1	0	1	0	48.4019740484077	0
4.46	48.5457337719018	0	1	0	1	0	48.5457337719018	0
4.47	48.6899636863084	0	1	0	1	0	48.6899636863084	0
4.48	48.8346631338927	0	1	0	1	0	48.8346631338927	0
4.49	48.9798314627797	0	1	0	1	0	48.9798314627797	0
4.5	49.1254680268885	0	1	0	1	0	49.1254680268885	0
4.51	49.2715721858687	0	1	0	1	0	49.2715721858687	0
4.52	49.4181433050367	0	1	0	1	0	49.4181433050367	0
4.53	49.5651807553129	0	1	0	1	0	49.5651807553129	0
4.54	49.7126839131606	0	1	0	1	0	49.7126839131606	0
4.55	49.8606521605245	0	1	0	1	0	49.8606521605245	0
4.56	50.0090848847709	0	1	0	1	0	50.0090848847709	0
4.57	50.1579814786284	0	1	0	1	0	50.1579814786284	0
4.58	50.3073413401292	0	1	0	1	0	50.3073413401292	0
4.59	50.4571638725514	0	1	0	1	0	50.4571638725514	0
4.6	50.6074484843621	0	1	0	1	0	50.6074484843621	0
4.61	50.7581945891607	0	1	0	1	0	50.7581945891607	0
4.62	50.9094016056242	0	1	0	1	0	50.9094016056242	0
4.63	51.0610689574512	0	1	0	1	0	51.0610689574512	0
4.64	51.2131960733089	0	1	0	1	0	51.2131960733089	0
4.65	51.365782386779	0	1	0	1	0	51.365782386779	0
4.66	51.5188273363051	0	1	0	1	0	51.5188273363051	0
4.67	51.6723303651409	0	1	0	1	0	51.6723303651409	0
4.68	51.8262909212983	0	1	0	1	0	51.8262909212983	0
4.69	51.9807084574974	0	1	0	1	0	51.9807084574974	0
4.7	52.1355824311157	0	1	0	1	0	52.1355824311157	0
4.71	52.2909123041389	0	1	0	1	0	52.2909123041389	0
4.72	52.4466975431125	0	1	0	1	0	52.4466975431125	0
4.73	52.602937619093	0	1	0	1	0	52.602937619093	0
4.74	52.7596320076004	0	1	0	1	0	52.7596320076004	0
4.75	52.9167801885718	0	1	0	1	0	52.9167801885718	0
4.76	53.0743816463142	0	1	0	1	0	53.0743816463142	0
4.77	53.2324358694592	0	1	0	1	0	53.2324358694592	0
4.78	53.3909423509177	0	1	0	1	0	53.3909423509177	0
4.79	53.549900587835	0	1	0	1	0	53.549900587835	0
4.8	53.7093100815471	0	1	0	1	0	53.7093100815471	0
4.81	53.8691703375367	0	1	0	1	0	53.8691703375367	0
4.82	54.0294808653904	0	1	0	1	0	54.0294808653904	0
4.83	54.1902411787563	0	1	0	1	0	54.1902411787563	0
4.84	54.3514507953018	0	1	0	1	0	54.3514507953018	0
4.85	54.5131092366724	0	1	0	1	0	54.5131092366724	0
4.86	54.6752160284505	0	1	0	1	0	54.6752160284505	0
4.87	54.8377707001156	0	1	0	1	0	54.8377707001156	0
4.88	55.0007727850033	0	1	0	1	0	55.0007727850033	0
4.89	55.164221820267	0	1	0	1	0	55.164221820267	0
4.9	55.3281173468382	0	1	0	1	0	55.3281173468382	0
4.91	55.4924589093883	0	1	0	1	0	55.4924589093883	0
4.92	55.6572460562906	0	1	0	1	0	55.6572460562906	0
4.93	55.8224783395827	0	1	0	1	0	55.8224783395827	0
