# GHZ S RI R 50
1	48.1587976566606	0	1	0	1	0	48.1587976566606	0
1.01	47.7664570842597	0	1	0	1	0	47.7664570842597	0
1.02	47.3830300574778	0	1	0	1	0	47.3830300574778	0
1.03	47.0082689262318	0	1	0	1	0	47.0082689262318	0
1.04	46.6419355654419	0	1	0	1	0	46.6419355654419	0
1.05	46.2838009214597	0	1	0	1	0	46.2838009214597	0
1.06	45.9336445841709	0	1	0	1	0	45.9336445841709	0
1.07	45.5912543830915	0	1	0	1	0	45.5912543830915	0
1.08	45.2564260059038	0	1	0	1	0	45.2564260059038	0
1.09	44.9289626379896	0	1	0	1	0	44.9289626379896	0
1.1	44.608674621626	0	1	0	1	0	44.608674621626	0
1.11	44.2953791336026	0	1	0	1	0	44.2953791336026	0
1.12	43.9888998801094	0	1	0	1	0	43.9888998801094	0
1.13	43.6890668078253	0	1	0	1	0	43.6890668078253	0
1.14	43.3957158302122	0	1	0	1	0	43.3957158302122	0
1.15	43.1086885680902	0	1	0	1	0	43.1086885680902	0
1.16	42.8278321036302	0	1	0	1	0	42.8278321036302	0
1.17	42.5529987469629	0	1	0	1	0	42.5529987469629	0
1.18	42.2840458146556	0	1	0	1	0	42.2840458146556	0
1.19	42.0208354193571	0	1	0	1	0	42.0208354193571	0
1.2	41.7632342699614	0	1	0	1	0	41.7632342699614	0
1.21	41.5111134816801	0	1	0	1	0	41.5111134816801	0
1.22	41.2643483954554	0	1	0	1	0	41.2643483954554	0
1.23	41.0228184061826	0	1	0	1	0	41.0228184061826	0
1.24	40.7864067992443	0	1	0	1	0	40.7864067992443	0
1.25	40.5550005948911	0	1	0	1	0	40.5550005948911	0
1.26	40.3284904000318	0	1	0	1	0	40.3284904000318	0
1.27	40.1067702670274	0	1	0	1	0	40.1067702670274	0
1.28	39.8897375591023	0	1	0	1	0	39.8897375591023	0
1.29	39.6772928220167	0	1	0	1	0	39.6772928220167	0
1.3	39.4693396616612	0	1	0	1	0	39.4693396616612	0
1.31	39.265784627258	0	1	0	1	0	39.265784627258	0
1.32	39.0665370998711	0	1	0	1	0	39.0665370998711	0
1.33	38.871509185946	0	1	0	1	0	38.871509185946	0
1.34	38.6806156156164	0	1	0	1	0	38.6806156156164	0
1.35	38.4937736455306	0	1	0	1	0	38.4937736455306	0
1.36	38.3109029659647	0	1	0	1	0	38.3109029659647	0
1.37	38.1319256120045	0	1	0	1	0	38.1319256120045	0
1.38	37.9567658785882	0	1	0	1	0	37.9567658785882	0
1.39	37.7853502392171	0	1	0	1	0	37.7853502392171	0
1.4	37.6176072681496	0	1	0	1	0	37.6176072681496	0
1.41	37.453467565906	0	1	0	1	0	37.453467565906	0
1.42	37.2928636879218	0	1	0	1	0	37.2928636879218	0
1.43	37.1357300761937	0	1	0	1	0	37.1357300761937	0
1.44	36.9820029937739	0	1	0	1	0	36.9820029937739	0
1.45	36.8316204619754	0	1	0	1	0	36.8316204619754	0
1.46	36.6845222001574	0	1	0	1	0	36.6845222001574	0
1.47	36.5406495679686	0	1	0	1	0	36.5406495679686	0
1.48	36.3999455099319	0	1	0	1	0	36.3999455099319	0
1.49	36.2623545022612	0	1	0	1	0	36.2623545022612	0
1.5	36.1278225018044	0	1	0	1	0	36.1278225018044	0
1.51	35.9962968970163	0	1	0	1	0	35.9962968970163	0
1.52	35.8677264608659	0	1	0	1	0	35.8677264608659	0
1.53	35.7420613055909	0	1	0	1	0	35.7420613055909	0
1.54	35.6192528392153	0	1	0	1	0	35.6192528392153	0
1.55	35.4992537237494	0	1	0	1	0	35.4992537237494	0
1.56	35.3820178349982	0	1	0	1	0	35.3820178349982	0
1.57	35.2675002239053	0	1	0	1	0	35.2675002239053	0
1.58	35.1556570793651	0	1	0	1	0	35.1556570793651	0
1.59	35.0464456924384	0	1	0	1	0	35.0464456924384	0
1.6	34.9398244219092	0	1	0	1	0	34.9398244219092	0
1.61	34.8357526611261	0	1	0	1	0	34.8357526611261	0
1.62	34.7341908060708	0	1	0	1	0	34.7341908060708	0
1.63	34.6351002246031	0	1	0	1	0	34.6351002246031	0
1.64	34.5384432268298	0	1	0	1	0	34.5384432268298	0
1.65	34.4441830365523	0	1	0	1	0	34.4441830365523	0
1.66	34.3522837637454	0	1	0	1	0	34.3522837637454	0
1.67	34.2627103780251	0	1	0	1	0	34.2627103780251	0
1.68	34.1754286830643	0	1	0	1	0	34.1754286830643	0
1.69	34.0904052919164	0	1	0	1	0	34.0904052919164	0
1.7	34.00760760321	0	1	0	1	0	34.00760760321	0
1.71	33.9270037781788	0	1	0	1	0	33.9270037781788	0
1.72	33.8485627184932	0	1	0	1	0	33.8485627184932	0
1.73	33.7722540448597	0	1	0	1	0	33.7722540448597	0
1.74	33.6980480763597	0	1	0	1	0	33.6980480763597	0
1.75	33.6259158104954	0	1	0	1	0	33.6259158104954	0
1.76	33.5558289039169	0	1	0	1	0	33.5558289039169	0
1.77	33.4877596538018	0	1	0	1	0	33.4877596538018	0
1.78	33.421680979863	0	1	0	1	0	33.421680979863	0
1.79	33.3575664069596	0	1	0	1	0	33.3575664069596	0
1.8	33.2953900482871	0	1	0	1	0	33.2953900482871	0
1.81	33.2351265891252	0	1	0	1	0	33.2351265891252	0
1.82	33.1767512711209	0	1	0	1	0	33.1767512711209	0
1.83	33.1202398770874	0	1	0	1	0	33.1202398770874	0
1.84	33.0655687162987	0	1	0	1	0	33.0655687162987	0
1.85	33.0127146102605	0	1	0	1	0	33.0127146102605	0
1.86	32.9616548789407	0	1	0	1	0	32.9616548789407	0
1.87	32.9123673274419	0	1	0	1	0	32.9123673274419	0
1.88	32.8648302330981	0	1	0	1	0	32.8648302330981	0
1.89	32.8190223329826	0	1	0	1	0	32.8190223329826	0
1.9	32.7749228118093	0	1	0	1	0	32.7749228118093	0
1.91	32.732511290214	0	1	0	1	0	32.732511290214	0
1.92	32.6917678134028	0	1	0	1	0	32.6917678134028	0
1.93	32.6526728401527	0	1	0	1	0	32.6526728401527	0
1.94	32.6152072321525	0	1	0	1	0	32.6152072321525	0
1.95	32.5793522436715	0	1	0	1	0	32.5793522436715	0
1.96	32.5450895115453	0	1	0	1	0	32.5450895115453	0
1.97	32.5124010454654	0	1	0	1	0	32.5124010454654	0
1.98	32.4812692185638	0	1	0	1	0	32.4812692185638	0
1.99	32.4516767582818	0	1	0	1	0	32.4516767582818	0
2	32.4236067375114	0	1	0	1	0	32.4236067375114	0
2.01	32.3970425660027	0	1	0	1	0	32.3970425660027	0
2.02	32.3719679820257	0	1	0	1	0	32.3719679820257	0
2.03	32.3483670442783	0	1	0	1	0	32.3483670442783	0
2.04	32.3262241240331	0	1	0	1	0	32.3262241240331	0
2.05	32.3055238975137	0	1	0	1	0	32.3055238975137	0
2.06	32.2862513384923	0	1	0	1	0	32.2862513384923	0
2.07	32.2683917111034	0	1	0	1	0	32.2683917111034	0
2.08	32.2519305628632	0	1	0	1	0	32.2519305628632	0
2.09	32.2368537178908	0	1	0	1	0	32.2368537178908	0
2.1	32.2231472703217	0	1	0	1	0	32.2231472703217	0
2.11	32.2107975779101	0	1	0	1	0	32.2107975779101	0
2.12	32.1997912558107	0	1	0	1	0	32.1997912558107	0
2.13	32.190115170537	0	1	0	1	0	32.190115170537	0
2.14	32.1817564340881	0	1	0	1	0	32.1817564340881	0
2.15	32.17470239824	0	1	0	1	0	32.17470239824	0
2.16	32.168940648995	0	1	0	1	0	32.168940648995	0
2.17	32.1644590011849	0	1	0	1	0	32.1644590011849	0
2.18	32.1612454932225	0	1	0	1	0	32.1612454932225	0
2.19	32.159288381997	0	1	0	1	0	32.159288381997	0
2.2	32.1585761379089	0	1	0	1	0	32.1585761379089	0
2.21	32.1590974400392	0	1	0	1	0	32.1590974400392	0
2.22	32.1608411714492	0	1	0	1	0	32.1608411714492	0
2.23	32.1637964146075	0	1	0	1	0	32.1637964146075	0
2.24	32.1679524469384	0	1	0	1	0	32.1679524469384	0
2.25	32.1732987364897	0	1	0	1	0	32.1732987364897	0
2.26	32.1798249377158	0	1	0	1	0	32.1798249377158	0
2.27	32.187520887371	0	1	0	1	0	32.187520887371	0
2.28	32.1963766005124	0	1	0	1	0	32.1963766005124	0
2.29	32.2063822666067	0	1	0	1	0	32.2063822666067	0
2.3	32.2175282457383	0	1	0	1	0	32.2175282457383	0
2.31	32.2298050649168	0	1	0	1	0	32.2298050649168	0
2.32	32.2432034144789	0	1	0	1	0	32.2432034144789	0
2.33	32.2577141445842	0	1	0	1	0	32.2577141445842	0
2.34	32.2733282617997	0	1	0	1	0	32.2733282617997	0
2.35	32.2900369257719	0	1	0	1	0	32.2900369257719	0
2.36	32.3078314459841	0	1	0	1	0	32.3078314459841	0
2.37	32.3267032785948	0	1	0	1	0	32.3267032785948	0
2.38	32.3466440233567	0	1	0	1	0	32.3466440233567	0
2.39	32.3676454206121	0	1	0	1	0	32.3676454206121	0
2.4	32.3896993483644	0	1	0	1	0	32.3896993483644	0
2.41	32.4127978194221	0	1	0	1	0	32.4127978194221	0
2.42	32.436932978613	0	1	0	1	0	32.436932978613	0
2.43	32.4620971000686	0	1	0	1	0	32.4620971000686	0
2.44	32.4882825845737	0	1	0	1	0	32.4882825845737	0
2.45	32.5154819569819	0	1	0	1	0	32.5154819569819	0
2.46	32.543687863694	0	1	0	1	0	32.543687863694	0
2.47	32.5728930701975	0	1	0	1	0	32.5728930701975	0
2.48	32.6030904586654	0	1	0	1	0	32.6030904586654	0
2.49	32.6342730256134	0	1	0	1	0	32.6342730256134	0
2.5	32.6664338796129	0	1	0	1	0	32.6664338796129	0
2.51	32.699566239059	0	1	0	1	0	32.699566239059	0
2.52	32.7336634299912	0	1	0	1	0	32.7336634299912	0
2.53	32.7687188839662	0	1	0	1	0	32.7687188839662	0
2.54	32.8047261359807	0	1	0	1	0	32.8047261359807	0
2.55	32.8416788224432	0	1	0	1	0	32.8416788224432	0
2.56	32.8795706791935	0	1	0	1	0	32.8795706791935	0
2.57	32.9183955395678	0	1	0	1	0	32.9183955395678	0
2.58	32.9581473325098	0	1	0	1	0	32.9581473325098	0
2.59	32.9988200807243	0	1	0	1	0	32.9988200807243	0
2.6	33.0404078988749	0	1	0	1	0	33.0404078988749	0
2.61	33.0829049918215	0	1	0	1	0	33.0829049918215	0
2.62	33.1263056528999	0	1	0	1	0	33.1263056528999	0
2.63	33.1706042622387	0	1	0	1	0	33.1706042622387	0
2.64	33.2157952851167	0	1	0	1	0	33.2157952851167	0
2.65	33.2618732703552	0	1	0	1	0	33.2618732703552	0
2.66	33.3088328487482	0	1	0	1	0	33.3088328487482	0
2.67	33.3566687315274	0	1	0	1	0	33.3566687315274	0
2.68	33.4053757088611	0	1	0	1	0	33.4053757088611	0
2.69	33.4549486483876	0	1	0	1	0	33.4549486483876	0
2.7	33.5053824937797	0	1	0	1	0	33.5053824937797	0
2.71	33.5566722633427	0	1	0	1	0	33.5566722633427	0
2.72	33.6088130486419	0	1	0	1	0	33.6088130486419	0
2.73	33.6618000131613	0	1	0	1	0	33.6618000131613	0
2.74	33.7156283909908	0	1	0	1	0	33.7156283909908	0
2.75	33.7702934855425	0	1	0	1	0	33.7702934855425	0
2.76	33.8257906682953	0	1	0	1	0	33.8257906682953	0
2.77	33.8821153775657	0	1	0	1	0	33.8821153775657	0
2.78	33.9392631173062	0	1	0	1	0	33.9392631173062	0
2.79	33.9972294559283	0	1	0	1	0	33.9972294559283	0
2.8	34.0560100251525	0	1	0	1	0	34.0560100251525	0
2.81	34.1156005188807	0	1	0	1	0	34.1156005188807	0
2.82	34.1759966920946	0	1	0	1	0	34.1759966920946	0
2.83	34.2371943597758	0	1	0	1	0	34.2371943597758	0
2.84	34.29918939585	0	1	0	1	0	34.29918939585	0
2.85	34.3619777321529	0	1	0	1	0	34.3619777321529	0
2.86	34.4255553574173	0	1	0	1	0	34.4255553574173	0
2.87	34.4899183162822	0	1	0	1	0	34.4899183162822	0
2.88	34.5550627083224	0	1	0	1	0	34.5550627083224	0
2.89	34.6209846870976	0	1	0	1	0	34.6209846870976	0
2.9	34.687680459222	0	1	0	1	0	34.687680459222	0
2.91	34.7551462834523	0	1	0	1	0	34.7551462834523	0
2.92	34.8233784697955	0	1	0	1	0	34.8233784697955	0
2.93	34.8923733786335	0	1	0	1	0	34.8923733786335	0
2.94	34.9621274198672	0	1	0	1	0	34.9621274198672	0
2.95	35.0326370520767	0	1	0	1	0	35.0326370520767	0
2.96	35.1038987816989	0	1	0	1	0	35.1038987816989	0
2.97	35.1759091622223	0	1	0	1	0	35.1759091622223	0
2.98	35.2486647933972	0	1	0	1	0	35.2486647933972	0
2.99	35.3221623204622	0	1	0	1	0	35.3221623204622	0
3	35.3963984333862	0	1	0	1	0	35.3963984333862	0
3.01	35.471369866125	0	1	0	1	0	35.471369866125	0
3.02	35.5470733958933	0	1	0	1	0	35.5470733958933	0
3.03	35.6235058424509	0	1	0	1	0	35.6235058424509	0
3.04	35.7006640674029	0	1	0	1	0	35.7006640674029	0
3.05	35.7785449735136	0	1	0	1	0	35.7785449735136	0
3.06	35.857145504034	0	1	0	1	0	35.857145504034	0
3.07	35.9364626420426	0	1	0	1	0	35.9364626420426	0
3.08	36.0164934097986	0	1	0	1	0	36.0164934097986	0
3.09	36.0972348681079	0	1	0	1	0	36.0972348681079	0
3.1	36.1786841157017	0	1	0	1	0	36.1786841157017	0
3.11	36.2608382886264	0	1	0	1	0	36.2608382886264	0
3.12	36.3436945596458	0	1	0	1	0	36.3436945596458	0
3.13	36.4272501376546	0	1	0	1	0	36.4272501376546	0
3.14	36.5115022671029	0	1	0	1	0	36.5115022671029	0
3.15	36.5964482274318	0	1	0	1	0	36.5964482274318	0
3.16	36.68208533252	0	1	0	1	0	36.68208533252	0
3.17	36.7684109301405	0	1	0	1	0	36.7684109301405	0
3.18	36.8554224014276	0	1	0	1	0	36.8554224014276	0
3.19	36.943117160354	0	1	0	1	0	36.943117160354	0
3.2	37.0314926532177	0	1	0	1	0	37.0314926532177	0
3.21	37.1205463581387	0	1	0	1	0	37.1205463581387	0
3.22	37.2102757845646	0	1	0	1	0	37.2102757845646	0
3.23	37.3006784727856	0	1	0	1	0	37.3006784727856	0
3.24	37.3917519934591	0	1	0	1	0	37.3917519934591	0
3.25	37.4834939471417	0	1	0	1	0	37.4834939471417	0
3.26	37.5759019638311	0	1	0	1	0	37.5759019638311	0
3.27	37.6689737025161	0	1	0	1	0	37.6689737025161	0
3.28	37.7627068507341	0	1	0	1	0	37.7627068507341	0
3.29	37.8570991241377	0	1	0	1	0	37.8570991241377	0
3.3	37.9521482660687	0	1	0	1	0	37.9521482660687	0
3.31	38.0478520471393	0	1	0	1	0	38.0478520471393	0
3.32	38.1442082648223	0	1	0	1	0	38.1442082648223	0
3.33	38.2412147430468	0	1	0	1	0	38.2412147430468	0
3.34	38.3388693318029	0	1	0	1	0	38.3388693318029	0
3.35	38.4371699067525	0	1	0	1	0	38.4371699067525	0
3.36	38.536114368847	0	1	0	1	0	38.536114368847	0
3.37	38.6357006439526	0	1	0	1	0	38.6357006439526	0
3.38	38.7359266824813	0	1	0	1	0	38.7359266824813	0
3.39	38.8367904590291	0	1	0	1	0	38.8367904590291	0
3.4	38.9382899720201	0	1	0	1	0	38.9382899720201	0
3.41	39.0404232433575	0	1	0	1	0	39.0404232433575	0
3.42	39.1431883180802	0	1	0	1	0	39.1431883180802	0
3.43	39.2465832640252	0	1	0	1	0	39.2465832640252	0
3.44	39.3506061714968	0	1	0	1	0	39.3506061714968	0
3.45	39.4552551529405	0	1	0	1	0	39.4552551529405	0
3.46	39.5605283426232	0	1	0	1	0	39.5605283426232	0
3.47	39.6664238963191	0	1	0	1	0	39.6664238963191	0
3.48	39.7729399910001	0	1	0	1	0	39.7729399910001	0
3.49	39.8800748245326	0	1	0	1	0	39.8800748245326	0
3.5	39.9878266153786	0	1	0	1	0	39.9878266153786	0
3.51	40.0961936023028	0	1	0	1	0	40.0961936023028	0
3.52	40.2051740440837	0	1	0	1	0	40.2051740440837	0
3.53	40.3147662192305	0	1	0	1	0	40.3147662192305	0
3.54	40.4249684257042	0	1	0	1	0	40.4249684257042	0
3.55	40.5357789806437	0	1	0	1	0	40.5357789806437	0
3.56	40.6471962200966	0	1	0	1	0	40.6471962200966	0
3.57	40.759218498754	0	1	0	1	0	40.759218498754	0
3.58	40.8718441896904	0	1	0	1	0	40.8718441896904	0
3.59	40.9850716841078	0	1	0	1	0	40.9850716841078	0
3.6	41.0988993910835	0	1	0	1	0	41.0988993910835	0
3.61	41.2133257373228	0	1	0	1	0	41.2133257373228	0
3.62	41.3283491669155	0	1	0	1	0	41.3283491669155	0
3.63	41.4439681410965	0	1	0	1	0	41.4439681410965	0
3.64	41.56018113801	0	1	0	1	0	41.56018113801	0
3.65	41.6769866524784	0	1	0	1	0	41.6769866524784	0
3.66	41.7943831957738	0	1	0	1	0	41.7943831957738	0
3.67	41.9123692953943	0	1	0	1	0	41.9123692953943	0
3.68	42.0309434948436	0	1	0	1	0	42.0309434948436	0
3.69	42.1501043534138	0	1	0	1	0	42.1501043534138	0
3.7	42.2698504459724	0	1	0	1	0	42.2698504459724	0
3.71	42.390180362752	0	1	0	1	0	42.390180362752	0
3.72	42.5110927091441	0	1	0	1	0	42.5110927091441	0
3.73	42.6325861054959	0	1	0	1	0	42.6325861054959	0
3.74	42.7546591869101	0	1	0	1	0	42.7546591869101	0
3.75	42.8773106030482	0	1	0	1	0	42.8773106030482	0
3.76	43.0005390179373	0	1	0	1	0	43.0005390179373	0
3.77	43.124343109779	0	1	0	1	0	43.124343109779	0
3.78	43.2487215707623	0	1	0	1	0	43.2487215707623	0
3.79	43.3736731068791	0	1	0	1	0	43.3736731068791	0
3.8	43.4991964377422	0	1	0	1	0	43.4991964377422	0
3.81	43.6252902964069	0	1	0	1	0	43.6252902964069	0
3.82	43.7519534291948	0	1	0	1	0	43.7519534291948	0
3.83	43.879184595521	0	1	0	1	0	43.879184595521	0
3.84	44.0069825677232	0	1	0	1	0	44.0069825677232	0
3.85	44.1353461308941	0	1	0	1	0	44.1353461308941	0
3.86	44.2642740827159	0	1	0	1	0	44.2642740827159	0
3.87	44.3937652332982	0	1	0	1	0	44.3937652332982	0
3.88	44.5238184050173	0	1	0	1	0	44.5238184050173	0
3.89	44.6544324323587	0	1	0	1	0	44.6544324323587	0
3.9	44.785606161762	0	1	0	1	0	44.785606161762	0
3.91	44.9173384514679	0	1	0	1	0	44.9173384514679	0
3.92	45.0496281713678	0	1	0	1	0	45.0496281713678	0
3.93	45.1824742028553	0	1	0	1	0	45.1824742028553	0
3.94	45.3158754386805	0	1	0	1	0	45.3158754386805	0
3.95	45.4498307828061	0	1	0	1	0	45.4498307828061	0
3.96	45.5843391502661	0	1	0	1	0	45.5843391502661	0
3.97	45.7193994670258	0	1	0	1	0	45.7193994670258	0
3.98	45.8550106698451	0	1	0	1	0	45.8550106698451	0
3.99	45.9911717061429	0	1	0	1	0	45.9911717061429	0
4	46.1278815338638	0	1	0	1	0	46.1278815338638	0
4.01	46.265139121347	0	1	0	1	0	46.265139121347	0
4.02	46.402943447197	0	1	0	1	0	46.402943447197	0
4.03	46.5412935001563	0	1	0	1	0	46.5412935001563	0
4.04	46.6801882789797	0	1	0	1	0	46.6801882789797	0
4.05	46.8196267923111	0	1	0	1	0	46.8196267923111	0
4.06	46.9596080585611	0	1	0	1	0	46.9596080585611	0
4.07	47.1001311057876	0	1	0	1	0	47.1001311057876	0
4.08	47.2411949715772	0	1	0	1	0	47.2411949715772	0
4.09	47.3827987029292	0	1	0	1	0	47.3827987029292	0
4.1	47.52494135614	0	1	0	1	0	47.52494135614	0
4.11	47.6676219966907	0	1	0	1	0	47.6676219966907	0
4.12	47.8108396991355	0	1	0	1	0	47.8108396991355	0
4.13	47.9545935469915	0	1	0	1	0	47.9545935469915	0
4.14	48.098882632631	0	1	0	1	0	48.098882632631	0
4.15	48.2437060571742	0	1	0	1	0	48.2437060571742	0
4.16	48.3890629303845	0	1	0	1	0	48.3890629303845	0
4.17	48.534952370565	0	1	0	1	0	48.534952370565	0
4.18	48.6813735044557	0	1	0	1	0	48.6813735044557	0
4.19	48.8283254671334	0	1	0	1	0	48.8283254671334	0
4.2	48.9758074019123	0	1	0	1	0	48.9758074019123	0
4.21	49.123818460246	0	1	0	1	0	49.123818460246	0
4.22	49.2723578016313	0	1	0	1	0	49.2723578016313	0
4.23	49.421424593513	0	1	0	1	0	49.421424593513	0
4.24	49.5710180111902	0	1	0	1	0	49.5710180111902	0
4.25	49.7211372377238	0	1	0	1	0	49.7211372377238	0
4.26	49.8717814638456	0	1	0	1	0	49.8717814638456	0
4.27	50.0229498878684	0	1	0	1	0	50.0229498878684	0
4.28	50.1746417155972	0	1	0	1	0	50.1746417155972	0
4.29	50.3268561602423	0	1	0	1	0	50.3268561602423	0
4.3	50.479592442333	0	1	0	1	0	50.479592442333	0
4.31	50.6328497896323	0	1	0	1	0	50.6328497896323	0
4.32	50.7866274370539	0	1	0	1	0	50.7866274370539	0
4.33	50.9409246265793	0	1	0	1	0	50.9409246265793	0
4.34	51.0957406071761	0	1	0	1	0	51.0957406071761	0
4.35	51.2510746347181	0	1	0	1	0	51.2510746347181	0
4.36	51.4069259719058	0	1	0	1	0	51.4069259719058	0
4.37	51.5632938881887	0	1	0	1	0	51.5632938881887	0
4.38	51.7201776596877	0	1	0	1	0	51.7201776596877	0
4.39	51.8775765691197	0	1	0	1	0	51.8775765691197	0
4.4	52.0354899057221	0	1	0	1	0	52.0354899057221	0
4.41	52.1939169651792	0	1	0	1	0	52.1939169651792	0
4.42	52.3528570495494	0	1	0	1	0	52.3528570495494	0
4.43	52.5123094671926	0	1	0	1	0	52.5123094671926	0
4.44	52.6722735327002	0	1	0	1	0	52.6722735327002	0
4.45	52.8327485668243	0	1	0	1	0	52.8327485668243	0
4.46	52.993733896409	0	1	0	1	0	52.993733896409	0
4.47	53.155228854322	0	1	0	1	0	53.155228854322	0
4.48	53.3172327793877	0	1	0	1	0	53.3172327793877	0
4.49	53.4797450163207	0	1	0	1	0	53.4797450163207	0
4.5	53.6427649156604	0	1	0	1	0	53.6427649156604	0
4.51	53.8062918337062	0	1	0	1	0	53.8062918337062	0
4.52	53.9703251324542	0	1	0	1	0	53.9703251324542	0
4.53	54.1348641795339	0	1	0	1	0	54.1348641795339	0
4.54	54.2999083481463	0	1	0	1	0	54.2999083481463	0
4.55	54.465457017003	0	1	0	1	0	54.465457017003	0
4.56	54.6315095702653	0	1	0	1	0	54.6315095702653	0
4.57	54.7980653974847	0	1	0	1	0	54.7980653974847	0
4.58	54.9651238935444	0	1	0	1	0	54.9651238935444	0
4.59	55.1326844586006	0	1	0	1	0	55.1326844586006	0
4.6	55.3007464980259	0	1	0	1	0	55.3007464980259	0
4.61	55.469309422352	0	1	0	1	0	55.469309422352	0
4.62	55.6383726472145	0	1	0	1	0	55.6383726472145	0
4.63	55.8079355932974	0	1	0	1	0	55.8079355932974	0
4.64	55.9779976862787	0	1	0	1	0	55.9779976862787	0
4.65	56.148558356777	0	1	0	1	0	56.148558356777	0
4.66	56.3196170402982	0	1	0	1	0	56.3196170402982	0
4.67	56.4911731771833	0	1	0	1	0	56.4911731771833	0
4.68	56.6632262125565	0	1	0	1	0	56.6632262125565	0
4.69	56.8357755962748	0	1	0	1	0	56.8357755962748	0
4.7	57.008820782877	0	1	0	1	0	57.008820782877	0
4.71	57.1823612315342	0	1	0	1	0	57.1823612315342	0
4.72	57.3563964060011	0	1	0	1	0	57.3563964060011	0
4.73	57.530925774567	0	1	0	1	0	57.530925774567	0
4.74	57.7059488100083	0	1	0	1	0	57.7059488100083	0
4.75	57.8814649895411	0	1	0	1	0	57.8814649895411	0
4.76	58.0574737947747	0	1	0	1	0	58.0574737947747	0
4.77	58.2339747116656	0	1	0	1	0	58.2339747116656	0
4.78	58.4109672304717	0	1	0	1	0	58.4109672304717	0
4.79	58.5884508457077	0	1	0	1	0	58.5884508457077	0
4.8	58.7664250561008	0	1	0	1	0	58.7664250561008	0
4.81	58.9448893645467	0	1	0	1	0	58.9448893645467	0
4.82	59.1238432780663	0	1	0	1	0	59.1238432780663	0
4.83	59.3032863077635	0	1	0	1	0	59.3032863077635	0
4.84	59.4832179687822	0	1	0	1	0	59.4832179687822	0
4.85	59.6636377802656	0	1	0	1	0	59.6636377802656	0
4.86	59.8445452653142	0	1	0	1	0	59.8445452653142	0
4.87	60.0259399509456	0	1	0	1	0	60.0259399509456	0
4.88	60.2078213680546	0	1	0	1	0	60.2078213680546	0
4.89	60.3901890513728	0	1	0	1	0	60.3901890513728	0
4.9	60.5730425394303	0	1	0	1	0	60.5730425394303	0
4.91	60.7563813745164	0	1	0	1	0	60.7563813745164	0
4.92	60.9402051026417	0	1	0	1	0	60.9402051026417	0
4.93	61.1245132735003	0	1	0	1	0	61.1245132735003	0
