# GHZ S RI R 50
1	52.4560976143032	0	1	0	1	0	52.4560976143032	0
1.01	52.0435399673278	0	1	0	1	0	52.0435399673278	0
1.02	51.6403483406276	0	1	0	1	0	51.6403483406276	0
1.03	51.2462624549205	0	1	0	1	0	51.2462624549205	0
1.04	50.8610320416663	0	1	0	1	0	50.8610320416663	0
1.05	50.4844163663645	0	1	0	1	0	50.4844163663645	0
1.06	50.1161837788352	0	1	0	1	0	50.1161837788352	0
1.07	49.7561112887183	0	1	0	1	0	49.7561112887183	0
1.08	49.403984164556	0	1	0	1	0	49.403984164556	0
1.09	49.059595554944	0	1	0	1	0	49.059595554944	0
1.1	48.7227461303472	0	1	0	1	0	48.7227461303472	0
1.11	48.3932437442769	0	1	0	1	0	48.3932437442769	0
1.12	48.0709031126189	0	1	0	1	0	48.0709031126189	0
1.13	47.7555455099887	0	1	0	1	0	47.7555455099887	0
1.14	47.4469984820681	0	1	0	1	0	47.4469984820681	0
1.15	47.1450955729496	0	1	0	1	0	47.1450955729496	0
1.16	46.8496760665851	0	1	0	1	0	46.8496760665851	0
1.17	46.5605847414917	0	1	0	1	0	46.5605847414917	0
1.18	46.2776716379321	0	1	0	1	0	46.2776716379321	0
1.19	46.0007918368322	0	1	0	1	0	46.0007918368322	0
1.2	45.7298052497539	0	1	0	1	0	45.7298052497539	0
1.21	45.4645764192816	0	1	0	1	0	45.4645764192816	0
1.22	45.2049743292266	0	1	0	1	0	45.2049743292266	0
1.23	44.9508722240892	0	1	0	1	0	44.9508722240892	0
1.24	44.702147437257	0	1	0	1	0	44.702147437257	0
1.25	44.4586812274488	0	1	0	1	0	44.4586812274488	0
1.26	44.2203586229482	0	1	0	1	0	44.2203586229482	0
1.27	43.9870682731952	0	1	0	1	0	43.9870682731952	0
1.28	43.7587023073346	0	1	0	1	0	43.7587023073346	0
1.29	43.5351561993441	0	1	0	1	0	43.5351561993441	0
1.3	43.3163286393866	0	1	0	1	0	43.3163286393866	0
1.31	43.1021214110552	0	1	0	1	0	43.1021214110552	0
1.32	42.8924392741978	0	1	0	1	0	42.8924392741978	0
1.33	42.6871898530277	0	1	0	1	0	42.6871898530277	0
1.34	42.4862835292443	0	1	0	1	0	42.4862835292443	0
1.35	42.2896333399043	0	1	0	1	0	42.2896333399043	0
1.36	42.0971548797977	0	1	0	1	0	42.0971548797977	0
1.37	41.9087662081004	0	1	0	1	0	41.9087662081004	0
1.38	41.7243877590847	0	1	0	1	0	41.7243877590847	0
1.39	41.543942256684	0	1	0	1	0	41.543942256684	0
1.4	41.3673546327193	0	1	0	1	0	41.3673546327193	0
1.41	41.1945519486054	0	1	0	1	0	41.1945519486054	0
1.42	41.0254633203652	0	1	0	1	0	41.0254633203652	0
1.43	40.8600198467901	0	1	0	1	0	40.8600198467901	0
1.44	40.6981545405939	0	1	0	1	0	40.6981545405939	0
1.45	40.5398022624156	0	1	0	1	0	40.5398022624156	0
1.46	40.3848996575344	0	1	0	1	0	40.3848996575344	0
1.47	40.2333850951671	0	1	0	1	0	40.2333850951671	0
1.48	40.0851986102277	0	1	0	1	0	40.0851986102277	0
1.49	39.940281847431	0	1	0	1	0	39.940281847431	0
1.5	39.7985780076328	0	1	0	1	0	39.7985780076328	0
1.51	39.6600317963019	0	1	0	1	0	39.6600317963019	0
1.52	39.5245893740264	0	1	0	1	0	39.5245893740264	0
1.53	39.3921983089607	0	1	0	1	0	39.3921983089607	0
1.54	39.2628075311255	0	1	0	1	0	39.2628075311255	0
1.55	39.1363672884761	0	1	0	1	0	39.1363672884761	0
1.56	39.0128291046615	0	1	0	1	0	39.0128291046615	0
1.57	38.892145738397	0	1	0	1	0	38.892145738397	0
1.58	38.7742711443797	0	1	0	1	0	38.7742711443797	0
1.59	38.659160435679	0	1	0	1	0	38.659160435679	0
1.6	38.5467698475377	0	1	0	1	0	38.5467698475377	0
1.61	38.4370567025218	0	1	0	1	0	38.4370567025218	0
1.62	38.329979376961	0	1	0	1	0	38.329979376961	0
1.63	38.2254972686248	0	1	0	1	0	38.2254972686248	0
1.64	38.123570765581	0	1	0	1	0	38.123570765581	0
1.65	38.0241612161866	0	1	0	1	0	38.0241612161866	0
1.66	37.9272309001637	0	1	0	1	0	37.9272309001637	0
1.67	37.8327430007138	0	1	0	1	0	37.8327430007138	0
1.68	37.7406615776291	0	1	0	1	0	37.7406615776291	0
1.69	37.6509515413575	0	1	0	1	0	37.6509515413575	0
1.7	37.5635786279835	0	1	0	1	0	37.5635786279835	0
1.71	37.4785093750865	0	1	0	1	0	37.4785093750865	0
1.72	37.395711098442	0	1	0	1	0	37.395711098442	0
1.73	37.3151518695298	0	1	0	1	0	37.3151518695298	0
1.74	37.2368004938191	0	1	0	1	0	37.2368004938191	0
1.75	37.1606264897964	0	1	0	1	0	37.1606264897964	0
1.76	37.0866000687104	0	1	0	1	0	37.0866000687104	0
1.77	37.0146921150016	0	1	0	1	0	37.0146921150016	0
1.78	36.9448741673928	0	1	0	1	0	36.9448741673928	0
1.79	36.877118400613	0	1	0	1	0	36.877118400613	0
1.8	36.8113976077305	0	1	0	1	0	36.8113976077305	0
1.81	36.747685183072	0	1	0	1	0	36.747685183072	0
1.82	36.685955105704	0	1	0	1	0	36.685955105704	0
1.83	36.6261819234567	0	1	0	1	0	36.6261819234567	0
1.84	36.5683407374683	0	1	0	1	0	36.5683407374683	0
1.85	36.5124071872308	0	1	0	1	0	36.5124071872308	0
1.86	36.458357436118	0	1	0	1	0	36.458357436118	0
1.87	36.4061681573781	0	1	0	1	0	36.4061681573781	0
1.88	36.3558165205734	0	1	0	1	0	36.3558165205734	0
1.89	36.3072801784497	0	1	0	1	0	36.3072801784497	0
1.9	36.2605372542215	0	1	0	1	0	36.2605372542215	0
1.91	36.2155663292559	0	1	0	1	0	36.2155663292559	0
1.92	36.1723464311414	0	1	0	1	0	36.1723464311414	0
1.93	36.1308570221281	0	1	0	1	0	36.1308570221281	0
1.94	36.0910779879245	0	1	0	1	0	36.0910779879245	0
1.95	36.0529896268402	0	1	0	1	0	36.0529896268402	0
1.96	36.0165726392602	0	1	0	1	0	36.0165726392602	0
1.97	35.9818081174397	0	1	0	1	0	35.9818081174397	0
1.98	35.9486775356084	0	1	0	1	0	35.9486775356084	0
1.99	35.9171627403737	0	1	0	1	0	35.9171627403737	0
2	35.8872459414105	0	1	0	1	0	35.8872459414105	0
2.01	35.8589097024301	0	1	0	1	0	35.8589097024301	0
2.02	35.8321369324169	0	1	0	1	0	35.8321369324169	0
2.03	35.8069108771241	0	1	0	1	0	35.8069108771241	0
2.04	35.7832151108195	0	1	0	1	0	35.7832151108195	0
2.05	35.761033528273	0	1	0	1	0	35.761033528273	0
2.06	35.7403503369774	0	1	0	1	0	35.7403503369774	0
2.07	35.7211500495947	0	1	0	1	0	35.7211500495947	0
2.08	35.7034174766204	0	1	0	1	0	35.7034174766204	0
2.09	35.6871377192582	0	1	0	1	0	35.6871377192582	0
2.1	35.6722961624982	0	1	0	1	0	35.6722961624982	0
2.11	35.6588784683927	0	1	0	1	0	35.6588784683927	0
2.12	35.6468705695209	0	1	0	1	0	35.6468705695209	0
2.13	35.6362586626392	0	1	0	1	0	35.6362586626392	0
2.14	35.6270292025085	0	1	0	1	0	35.6270292025085	0
2.15	35.619168895894	0	1	0	1	0	35.619168895894	0
2.16	35.612664695732	0	1	0	1	0	35.612664695732	0
2.17	35.6075037954578	0	1	0	1	0	35.6075037954578	0
2.18	35.6036736234893	0	1	0	1	0	35.6036736234893	0
2.19	35.6011618378626	0	1	0	1	0	35.6011618378626	0
2.2	35.5999563210129	0	1	0	1	0	35.5999563210129	0
2.21	35.600045174698	0	1	0	1	0	35.600045174698	0
2.22	35.6014167150583	0	1	0	1	0	35.6014167150583	0
2.23	35.6040594678104	0	1	0	1	0	35.6040594678104	0
2.24	35.6079621635686	0	1	0	1	0	35.6079621635686	0
2.25	35.6131137332918	0	1	0	1	0	35.6131137332918	0
2.26	35.6195033038514	0	1	0	1	0	35.6195033038514	0
2.27	35.6271201937155	0	1	0	1	0	35.6271201937155	0
2.28	35.6359539087476	0	1	0	1	0	35.6359539087476	0
2.29	35.645994138115	0	1	0	1	0	35.645994138115	0
2.3	35.6572307503036	0	1	0	1	0	35.6572307503036	0
2.31	35.669653789237	0	1	0	1	0	35.669653789237	0
2.32	35.6832534704952	0	1	0	1	0	35.6832534704952	0
2.33	35.698020177631	0	1	0	1	0	35.698020177631	0
2.34	35.713944458581	0	1	0	1	0	35.713944458581	0
2.35	35.731017022168	0	1	0	1	0	35.731017022168	0
2.36	35.7492287346923	0	1	0	1	0	35.7492287346923	0
2.37	35.7685706166096	0	1	0	1	0	35.7685706166096	0
2.38	35.7890338392922	0	1	0	1	0	35.7890338392922	0
2.39	35.8106097218718	0	1	0	1	0	35.8106097218718	0
2.4	35.8332897281614	0	1	0	1	0	35.8332897281614	0
2.41	35.8570654636534	0	1	0	1	0	35.8570654636534	0
2.42	35.8819286725924	0	1	0	1	0	35.8819286725924	0
2.43	35.90787123512	0	1	0	1	0	35.90787123512	0
2.44	35.9348851644906	0	1	0	1	0	35.9348851644906	0
2.45	35.9629626043542	0	1	0	1	0	35.9629626043542	0
2.46	35.9920958261063	0	1	0	1	0	35.9920958261063	0
2.47	36.0222772263022	0	1	0	1	0	36.0222772263022	0
2.48	36.0534993241332	0	1	0	1	0	36.0534993241332	0
2.49	36.0857547589643	0	1	0	1	0	36.0857547589643	0
2.5	36.1190362879308	0	1	0	1	0	36.1190362879308	0
2.51	36.1533367835919	0	1	0	1	0	36.1533367835919	0
2.52	36.1886492316408	0	1	0	1	0	36.1886492316408	0
2.53	36.2249667286691	0	1	0	1	0	36.2249667286691	0
2.54	36.2622824799833	0	1	0	1	0	36.2622824799833	0
2.55	36.3005897974732	0	1	0	1	0	36.3005897974732	0
2.56	36.3398820975306	0	1	0	1	0	36.3398820975306	0
2.57	36.3801528990157	0	1	0	1	0	36.3801528990157	0
2.58	36.4213958212716	0	1	0	1	0	36.4213958212716	0
2.59	36.4636045821843	0	1	0	1	0	36.4636045821843	0
2.6	36.5067729962878	0	1	0	1	0	36.5067729962878	0
2.61	36.5508949729123	0	1	0	1	0	36.5508949729123	0
2.62	36.5959645143757	0	1	0	1	0	36.5959645143757	0
2.63	36.641975714215	0	1	0	1	0	36.641975714215	0
2.64	36.6889227554592	0	1	0	1	0	36.6889227554592	0
2.65	36.7367999089408	0	1	0	1	0	36.7367999089408	0
2.66	36.785601531645	0	1	0	1	0	36.785601531645	0
2.67	36.8353220650966	0	1	0	1	0	36.8353220650966	0
2.68	36.8859560337828	0	1	0	1	0	36.8859560337828	0
2.69	36.937498043611	0	1	0	1	0	36.937498043611	0
2.7	36.9899427804009	0	1	0	1	0	36.9899427804009	0
2.71	37.0432850084107	0	1	0	1	0	37.0432850084107	0
2.72	37.0975195688944	0	1	0	1	0	37.0975195688944	0
2.73	37.1526413786923	0	1	0	1	0	37.1526413786923	0
2.74	37.2086454288513	0	1	0	1	0	37.2086454288513	0
2.75	37.2655267832757	0	1	0	1	0	37.2655267832757	0
2.76	37.3232805774075	0	1	0	1	0	37.3232805774075	0
2.77	37.3819020169352	0	1	0	1	0	37.3819020169352	0
2.78	37.4413863765299	0	1	0	1	0	37.4413863765299	0
2.79	37.5017289986096	0	1	0	1	0	37.5017289986096	0
2.8	37.562925292129	0	1	0	1	0	37.562925292129	0
2.81	37.6249707313958	0	1	0	1	0	37.6249707313958	0
2.82	37.6878608549121	0	1	0	1	0	37.6878608549121	0
2.83	37.7515912642398	0	1	0	1	0	37.7515912642398	0
2.84	37.8161576228907	0	1	0	1	0	37.8161576228907	0
2.85	37.8815556552396	0	1	0	1	0	37.8815556552396	0
2.86	37.9477811454604	0	1	0	1	0	37.9477811454604	0
2.87	38.014829936484	0	1	0	1	0	38.014829936484	0
2.88	38.0826979289783	0	1	0	1	0	38.0826979289783	0
2.89	38.1513810803496	0	1	0	1	0	38.1513810803496	0
2.9	38.2208754037638	0	1	0	1	0	38.2208754037638	0
2.91	38.291176967189	0	1	0	1	0	38.291176967189	0
2.92	38.3622818924565	0	1	0	1	0	38.3622818924565	0
2.93	38.4341863543419	0	1	0	1	0	38.4341863543419	0
2.94	38.5068865796648	0	1	0	1	0	38.5068865796648	0
2.95	38.5803788464064	0	1	0	1	0	38.5803788464064	0
2.96	38.6546594828457	0	1	0	1	0	38.6546594828457	0
2.97	38.7297248667121	0	1	0	1	0	38.7297248667121	0
2.98	38.8055714243566	0	1	0	1	0	38.8055714243566	0
2.99	38.8821956299376	0	1	0	1	0	38.8821956299376	0
3	38.9595940046253	0	1	0	1	0	38.9595940046253	0
3.01	39.0377631158199	0	1	0	1	0	39.0377631158199	0
3.02	39.1166995763864	0	1	0	1	0	39.1166995763864	0
3.03	39.1964000439047	0	1	0	1	0	39.1964000439047	0
3.04	39.2768612199338	0	1	0	1	0	39.2768612199338	0
3.05	39.358079849291	0	1	0	1	0	39.358079849291	0
3.06	39.4400527193448	0	1	0	1	0	39.4400527193448	0
3.07	39.5227766593224	0	1	0	1	0	39.5227766593224	0
3.08	39.6062485396296	0	1	0	1	0	39.6062485396296	0
3.09	39.690465271185	0	1	0	1	0	39.690465271185	0
3.1	39.7754238047661	0	1	0	1	0	39.7754238047661	0
3.11	39.8611211303687	0	1	0	1	0	39.8611211303687	0
3.12	39.9475542765786	0	1	0	1	0	39.9475542765786	0
3.13	40.0347203099547	0	1	0	1	0	40.0347203099547	0
3.14	40.1226163344247	0	1	0	1	0	40.1226163344247	0
3.15	40.2112394906919	0	1	0	1	0	40.2112394906919	0
3.16	40.3005869556531	0	1	0	1	0	40.3005869556531	0
3.17	40.3906559418279	0	1	0	1	0	40.3906559418279	0
3.18	40.4814436967985	0	1	0	1	0	40.4814436967985	0
3.19	40.5729475026602	0	1	0	1	0	40.5729475026602	0
3.2	40.6651646754822	0	1	0	1	0	40.6651646754822	0
3.21	40.7580925647782	0	1	0	1	0	40.7580925647782	0
3.22	40.8517285529873	0	1	0	1	0	40.8517285529873	0
3.23	40.946070054964	0	1	0	1	0	40.946070054964	0
3.24	41.0411145174785	0	1	0	1	0	41.0411145174785	0
3.25	41.1368594187251	0	1	0	1	0	41.1368594187251	0
3.26	41.2333022678407	0	1	0	1	0	41.2333022678407	0
3.27	41.3304406044313	0	1	0	1	0	41.3304406044313	0
3.28	41.4282719981077	0	1	0	1	0	41.4282719981077	0
3.29	41.5267940480298	0	1	0	1	0	41.5267940480298	0
3.3	41.6260043824581	0	1	0	1	0	41.6260043824581	0
3.31	41.7259006583152	0	1	0	1	0	41.7259006583152	0
3.32	41.8264805607529	0	1	0	1	0	41.8264805607529	0
3.33	41.9277418027295	0	1	0	1	0	41.9277418027295	0
3.34	42.0296821245929	0	1	0	1	0	42.0296821245929	0
3.35	42.1322992936717	0	1	0	1	0	42.1322992936717	0
3.36	42.2355911038741	0	1	0	1	0	42.2355911038741	0
3.37	42.3395553752934	0	1	0	1	0	42.3395553752934	0
3.38	42.4441899538205	0	1	0	1	0	42.4441899538205	0
3.39	42.5494927107636	0	1	0	1	0	42.5494927107636	0
3.4	42.6554615424743	0	1	0	1	0	42.6554615424743	0
3.41	42.7620943699804	0	1	0	1	0	42.7620943699804	0
3.42	42.8693891386253	0	1	0	1	0	42.8693891386253	0
3.43	42.9773438177132	0	1	0	1	0	42.9773438177132	0
3.44	43.0859564001612	0	1	0	1	0	43.0859564001612	0
3.45	43.1952249021568	0	1	0	1	0	43.1952249021568	0
3.46	43.3051473628219	0	1	0	1	0	43.3051473628219	0
3.47	43.4157218438821	0	1	0	1	0	43.4157218438821	0
3.48	43.5269464293419	0	1	0	1	0	43.5269464293419	0
3.49	43.6388192251659	0	1	0	1	0	43.6388192251659	0
3.5	43.7513383589647	0	1	0	1	0	43.7513383589647	0
3.51	43.8645019796865	0	1	0	1	0	43.8645019796865	0
3.52	43.9783082573144	0	1	0	1	0	43.9783082573144	0
3.53	44.0927553825682	0	1	0	1	0	44.0927553825682	0
3.54	44.2078415666114	0	1	0	1	0	44.2078415666114	0
3.55	44.3235650407635	0	1	0	1	0	44.3235650407635	0
3.56	44.439924056217	0	1	0	1	0	44.439924056217	0
3.57	44.5569168837585	0	1	0	1	0	44.5569168837585	0
3.58	44.6745418134957	0	1	0	1	0	44.6745418134957	0
3.59	44.792797154588	0	1	0	1	0	44.792797154588	0
3.6	44.9116812349818	0	1	0	1	0	44.9116812349818	0
3.61	45.0311924011505	0	1	0	1	0	45.0311924011505	0
3.62	45.1513290178385	0	1	0	1	0	45.1513290178385	0
3.63	45.2720894678096	0	1	0	1	0	45.2720894678096	0
3.64	45.3934721515992	0	1	0	1	0	45.3934721515992	0
3.65	45.5154754872713	0	1	0	1	0	45.5154754872713	0
3.66	45.6380979101788	0	1	0	1	0	45.6380979101788	0
3.67	45.7613378727279	0	1	0	1	0	45.7613378727279	0
3.68	45.8851938441465	0	1	0	1	0	45.8851938441465	0
3.69	46.0096643102562	0	1	0	1	0	46.0096643102562	0
3.7	46.1347477732483	0	1	0	1	0	46.1347477732483	0
3.71	46.2604427514626	0	1	0	1	0	46.2604427514626	0
3.72	46.3867477791711	0	1	0	1	0	46.3867477791711	0
3.73	46.5136614063638	0	1	0	1	0	46.5136614063638	0
3.74	46.641182198539	0	1	0	1	0	46.641182198539	0
3.75	46.7693087364963	0	1	0	1	0	46.7693087364963	0
3.76	46.8980396161331	0	1	0	1	0	46.8980396161331	0
3.77	47.0273734482446	0	1	0	1	0	47.0273734482446	0
3.78	47.1573088583264	0	1	0	1	0	47.1573088583264	0
3.79	47.2878444863809	0	1	0	1	0	47.2878444863809	0
3.8	47.4189789867261	0	1	0	1	0	47.4189789867261	0
3.81	47.5507110278081	0	1	0	1	0	47.5507110278081	0
3.82	47.6830392920158	0	1	0	1	0	47.6830392920158	0
3.83	47.8159624754991	0	1	0	1	0	47.8159624754991	0
3.84	47.9494792879896	0	1	0	1	0	47.9494792879896	0
3.85	48.0835884526246	0	1	0	1	0	48.0835884526246	0
3.86	48.2182887057727	0	1	0	1	0	48.2182887057727	0
3.87	48.3535787968636	0	1	0	1	0	48.3535787968636	0
3.88	48.4894574882193	0	1	0	1	0	48.4894574882193	0
3.89	48.6259235548887	0	1	0	1	0	48.6259235548887	0
3.9	48.7629757844842	0	1	0	1	0	48.7629757844842	0
3.91	48.9006129770212	0	1	0	1	0	48.9006129770212	0
3.92	49.0388339447599	0	1	0	1	0	49.0388339447599	0
3.93	49.1776375120492	0	1	0	1	0	49.1776375120492	0
3.94	49.3170225151739	0	1	0	1	0	49.3170225151739	0
3.95	49.456987802203	0	1	0	1	0	49.456987802203	0
3.96	49.5975322328413	0	1	0	1	0	49.5975322328413	0
3.97	49.7386546782826	0	1	0	1	0	49.7386546782826	0
3.98	49.8803540210656	0	1	0	1	0	49.8803540210656	0
3.99	50.0226291549315	0	1	0	1	0	50.0226291549315	0
4	50.1654789846842	0	1	0	1	0	50.1654789846842	0
4.01	50.3089024260523	0	1	0	1	0	50.3089024260523	0
4.02	50.452898405553	0	1	0	1	0	50.452898405553	0
4.03	50.5974658603584	0	1	0	1	0	50.5974658603584	0
4.04	50.742603738164	0	1	0	1	0	50.742603738164	0
4.05	50.8883109970579	0	1	0	1	0	50.8883109970579	0
4.06	51.0345866053938	0	1	0	1	0	51.0345866053938	0
4.07	51.1814295416642	0	1	0	1	0	51.1814295416642	0
4.08	51.3288387943764	0	1	0	1	0	51.3288387943764	0
4.09	51.4768133619301	0	1	0	1	0	51.4768133619301	0
4.1	51.6253522524966	0	1	0	1	0	51.6253522524966	0
4.11	51.7744544839003	0	1	0	1	0	51.7744544839003	0
4.12	51.924119083501	0	1	0	1	0	51.924119083501	0
4.13	52.0743450880788	0	1	0	1	0	52.0743450880788	0
4.14	52.2251315437205	0	1	0	1	0	52.2251315437205	0
4.15	52.3764775057068	0	1	0	1	0	52.3764775057068	0
4.16	52.5283820384028	0	1	0	1	0	52.5283820384028	0
4.17	52.680844215148	0	1	0	1	0	52.680844215148	0
4.18	52.8338631181497	0	1	0	1	0	52.8338631181497	0
4.19	52.9874378383771	0	1	0	1	0	52.9874378383771	0
4.2	53.1415674754565	0	1	0	1	0	53.1415674754565	0
4.21	53.2962511375691	0	1	0	1	0	53.2962511375691	0
4.22	53.4514879413492	0	1	0	1	0	53.4514879413492	0
4.23	53.6072770117844	0	1	0	1	0	53.6072770117844	0
4.24	53.7636174821173	0	1	0	1	0	53.7636174821173	0
4.25	53.9205084937482	0	1	0	1	0	53.9205084937482	0
4.26	54.0779491961392	0	1	0	1	0	54.0779491961392	0
4.27	54.2359387467201	0	1	0	1	0	54.2359387467201	0
4.28	54.3944763107952	0	1	0	1	0	54.3944763107952	0
4.29	54.5535610614514	0	1	0	1	0	54.5535610614514	0
4.3	54.7131921794679	0	1	0	1	0	54.7131921794679	0
4.31	54.8733688532269	0	1	0	1	0	54.8733688532269	0
4.32	55.0340902786256	0	1	0	1	0	55.0340902786256	0
4.33	55.1953556589892	0	1	0	1	0	55.1953556589892	0
4.34	55.3571642049858	0	1	0	1	0	55.3571642049858	0
4.35	55.5195151345415	0	1	0	1	0	55.5195151345415	0
4.36	55.6824076727575	0	1	0	1	0	55.6824076727575	0
4.37	55.8458410518279	0	1	0	1	0	55.8458410518279	0
4.38	56.0098145109587	0	1	0	1	0	56.0098145109587	0
4.39	56.174327296288	0	1	0	1	0	56.174327296288	0
4.4	56.3393786608071	0	1	0	1	0	56.3393786608071	0
4.41	56.504967864283	0	1	0	1	0	56.504967864283	0
4.42	56.6710941731815	0	1	0	1	0	56.6710941731815	0
4.43	56.8377568605919	0	1	0	1	0	56.8377568605919	0
4.44	57.0049552061522	0	1	0	1	0	57.0049552061522	0
4.45	57.1726884959755	0	1	0	1	0	57.1726884959755	0
4.46	57.3409560225774	0	1	0	1	0	57.3409560225774	0
4.47	57.5097570848048	0	1	0	1	0	57.5097570848048	0
4.48	57.6790909877644	0	1	0	1	0	57.6790909877644	0
4.49	57.8489570427538	0	1	0	1	0	57.8489570427538	0
4.5	58.0193545671925	0	1	0	1	0	58.0193545671925	0
4.51	58.1902828845536	0	1	0	1	0	58.1902828845536	0
4.52	58.3617413242974	0	1	0	1	0	58.3617413242974	0
4.53	58.533729221805	0	1	0	1	0	58.533729221805	0
4.54	58.7062459183132	0	1	0	1	0	58.7062459183132	0
4.55	58.8792907608501	0	1	0	1	0	58.8792907608501	0
4.56	59.0528631021717	0	1	0	1	0	59.0528631021717	0
4.57	59.226962300699	0	1	0	1	0	59.226962300699	0
4.58	59.4015877204564	0	1	0	1	0	59.4015877204564	0
4.59	59.5767387310107	0	1	0	1	0	59.5767387310107	0
4.6	59.7524147074105	0	1	0	1	0	59.7524147074105	0
4.61	59.928615030127	0	1	0	1	0	59.928615030127	0
4.62	60.1053390849955	0	1	0	1	0	60.1053390849955	0
4.63	60.2825862631571	0	1	0	1	0	60.2825862631571	0
4.64	60.4603559610016	0	1	0	1	0	60.4603559610016	0
4.65	60.6386475801114	0	1	0	1	0	60.6386475801114	0
4.66	60.8174605272052	0	1	0	1	0	60.8174605272052	0
4.67	60.9967942140836	0	1	0	1	0	60.9967942140836	0
4.68	61.1766480575745	0	1	0	1	0	61.1766480575745	0
4.69	61.3570214794795	0	1	0	1	0	61.3570214794795	0
4.7	61.537913906521	0	1	0	1	0	61.537913906521	0
4.71	61.71932477029	0	1	0	1	0	61.71932477029	0
4.72	61.9012535071947	0	1	0	1	0	61.9012535071947	0
4.73	62.0836995584093	0	1	0	1	0	62.0836995584093	0
4.74	62.2666623698236	0	1	0	1	0	62.2666623698236	0
4.75	62.450141391994	0	1	0	1	0	62.450141391994	0
4.76	62.6341360800938	0	1	0	1	0	62.6341360800938	0
4.77	62.8186458938651	0	1	0	1	0	62.8186458938651	0
4.78	63.0036702975712	0	1	0	1	0	63.0036702975712	0
4.79	63.1892087599488	0	1	0	1	0	63.1892087599488	0
4.8	63.3752607541622	0	1	0	1	0	63.3752607541622	0
4.81	63.5618257577566	0	1	0	1	0	63.5618257577566	0
4.82	63.748903252613	0	1	0	1	0	63.748903252613	0
4.83	63.9364927249034	0	1	0	1	0	63.9364927249034	0
4.84	64.124593665046	0	1	0	1	0	64.124593665046	0
4.85	64.313205567662	0	1	0	1	0	64.313205567662	0
4.86	64.502327931532	0	1	0	1	0	64.502327931532	0
4.87	64.6919602595533	0	1	0	1	0	64.6919602595533	0
4.88	64.882102058698	0	1	0	1	0	64.882102058698	0
4.89	65.0727528399711	0	1	0	1	0	65.0727528399711	0
4.9	65.2639121183693	0	1	0	1	0	65.2639121183693	0
4.91	65.4555794128404	0	1	0	1	0	65.4555794128404	0
4.92	65.6477542462434	0	1	0	1	0	65.6477542462434	0
4.93	65.8404361453085	0	1	0	1	0	65.8404361453085	0
