# GHZ S RI R 50
1	55.9598166776171	0	1	0	1	0	55.9598166776171	0
1.01	55.5131324555947	0	1	0	1	0	55.5131324555947	0
1.02	55.0762421717664	0	1	0	1	0	55.0762421717664	0
1.03	54.6488707179886	0	1	0	1	0	54.6488707179886	0
1.04	54.2307535671997	0	1	0	1	0	54.2307535671997	0
1.05	53.8216362695596	0	1	0	1	0	53.8216362695596	0
1.06	53.4212739771091	0	1	0	1	0	53.4212739771091	0
1.07	53.0294309950836	0	1	0	1	0	53.0294309950836	0
1.08	52.6458803581543	0	1	0	1	0	52.6458803581543	0
1.09	52.2704034299951	0	1	0	1	0	52.2704034299951	0
1.1	51.9027895246921	0	1	0	1	0	51.9027895246921	0
1.11	51.5428355486162	0	1	0	1	0	51.5428355486162	0
1.12	51.1903456614826	0	1	0	1	0	51.1903456614826	0
1.13	50.8451309554056	0	1	0	1	0	50.8451309554056	0
1.14	50.5070091508465	0	1	0	1	0	50.5070091508465	0
1.15	50.1758043084246	0	1	0	1	0	50.1758043084246	0
1.16	49.8513465556342	0	1	0	1	0	49.8513465556342	0
1.17	49.5334718275768	0	1	0	1	0	49.5334718275768	0
1.18	49.2220216208757	0	1	0	1	0	49.2220216208757	0
1.19	48.916842759999	0	1	0	1	0	48.916842759999	0
1.2	48.6177871752656	0	1	0	1	0	48.6177871752656	0
1.21	48.3247116918603	0	1	0	1	0	48.3247116918603	0
1.22	48.0374778292236	0	1	0	1	0	48.0374778292236	0
1.23	47.7559516102293	0	1	0	1	0	47.7559516102293	0
1.24	47.4800033795937	0	1	0	1	0	47.4800033795937	0
1.25	47.2095076310023	0	1	0	1	0	47.2095076310023	0
1.26	46.9443428424681	0	1	0	1	0	46.9443428424681	0
1.27	46.684391319468	0	1	0	1	0	46.684391319468	0
1.28	46.4295390454331	0	1	0	1	0	46.4295390454331	0
1.29	46.1796755391917	0	1	0	1	0	46.1796755391917	0
1.3	45.9346937189929	0	1	0	1	0	45.9346937189929	0
1.31	45.6944897727576	0	1	0	1	0	45.6944897727576	0
1.32	45.4589630342272	0	1	0	1	0	45.4589630342272	0
1.33	45.2280158646997	0	1	0	1	0	45.2280158646997	0
1.34	45.0015535400615	0	1	0	1	0	45.0015535400615	0
1.35	44.779484142839	0	1	0	1	0	44.779484142839	0
1.36	44.5617184590141	0	1	0	1	0	44.5617184590141	0
1.37	44.3481698793572	0	1	0	1	0	44.3481698793572	0
1.38	44.1387543050514	0	1	0	1	0	44.1387543050514	0
1.39	43.9333900573896	0	1	0	1	0	43.9333900573896	0
1.4	43.7319977913419	0	1	0	1	0	43.7319977913419	0
1.41	43.5345004128014	0	1	0	1	0	43.5345004128014	0
1.42	43.3408229993261	0	1	0	1	0	43.3408229993261	0
1.43	43.1508927242066	0	1	0	1	0	43.1508927242066	0
1.44	42.9646387836978	0	1	0	1	0	42.9646387836978	0
1.45	42.7819923272613	0	1	0	1	0	42.7819923272613	0
1.46	42.6028863906747	0	1	0	1	0	42.6028863906747	0
1.47	42.4272558318714	0	1	0	1	0	42.4272558318714	0
1.48	42.2550372693813	0	1	0	1	0	42.2550372693813	0
1.49	42.0861690232501	0	1	0	1	0	42.0861690232501	0
1.5	41.9205910583223	0	1	0	1	0	41.9205910583223	0
1.51	41.7582449297778	0	1	0	1	0	41.7582449297778	0
1.52	41.599073730818	0	1	0	1	0	41.599073730818	0
1.53	41.4430220424037	0	1	0	1	0	41.4430220424037	0
1.54	41.2900358849512	0	1	0	1	0	41.2900358849512	0
1.55	41.1400626718985	0	1	0	1	0	41.1400626718985	0
1.56	40.9930511650568	0	1	0	1	0	40.9930511650568	0
1.57	40.848951431669	0	1	0	1	0	40.848951431669	0
1.58	40.7077148030985	0	1	0	1	0	40.7077148030985	0
1.59	40.5692938350766	0	1	0	1	0	40.5692938350766	0
1.6	40.4336422694415	0	1	0	1	0	40.4336422694415	0
1.61	40.3007149973027	0	1	0	1	0	40.3007149973027	0
1.62	40.1704680235692	0	1	0	1	0	40.1704680235692	0
1.63	40.0428584327842	0	1	0	1	0	40.0428584327842	0
1.64	39.9178443562094	0	1	0	1	0	39.9178443562094	0
1.65	39.7953849401062	0	1	0	1	0	39.7953849401062	0
1.66	39.6754403151633	0	1	0	1	0	39.6754403151633	0
1.67	39.5579715670233	0	1	0	1	0	39.5579715670233	0
1.68	39.4429407078607	0	1	0	1	0	39.4429407078607	0
1.69	39.3303106489705	0	1	0	1	0	39.3303106489705	0
1.7	39.2200451743229	0	1	0	1	0	39.2200451743229	0
1.71	39.1121089150467	0	1	0	1	0	39.1121089150467	0
1.72	39.0064673248027	0	1	0	1	0	39.0064673248027	0
1.73	38.9030866560109	0	1	0	1	0	38.9030866560109	0
1.74	38.8019339368977	0	1	0	1	0	38.8019339368977	0
1.75	38.7029769493302	0	1	0	1	0	38.7029769493302	0
1.76	38.6061842074056	0	1	0	1	0	38.6061842074056	0
1.77	38.511524936767	0	1	0	1	0	38.511524936767	0
1.78	38.4189690546162	0	1	0	1	0	38.4189690546162	0
1.79	38.3284871503961	0	1	0	1	0	38.3284871503961	0
1.8	38.2400504671178	0	1	0	1	0	38.2400504671178	0
1.81	38.1536308833056	0	1	0	1	0	38.1536308833056	0
1.82	38.0692008955384	0	1	0	1	0	38.0692008955384	0
1.83	37.986733601563	0	1	0	1	0	37.986733601563	0
1.84	37.9062026839574	0	1	0	1	0	37.9062026839574	0
1.85	37.8275823943252	0	1	0	1	0	37.8275823943252	0
1.86	37.7508475379988	0	1	0	1	0	37.7508475379988	0
1.87	37.6759734592341	0	1	0	1	0	37.6759734592341	0
1.88	37.6029360268773	0	1	0	1	0	37.6029360268773	0
1.89	37.5317116204866	0	1	0	1	0	37.5317116204866	0
1.9	37.4622771168931	0	1	0	1	0	37.4622771168931	0
1.91	37.3946098771823	0	1	0	1	0	37.3946098771823	0
1.92	37.328687734084	0	1	0	1	0	37.328687734084	0
1.93	37.2644889797534	0	1	0	1	0	37.2644889797534	0
1.94	37.2019923539297	0	1	0	1	0	37.2019923539297	0
1.95	37.1411770324604	0	1	0	1	0	37.1411770324604	0
1.96	37.0820226161757	0	1	0	1	0	37.0820226161757	0
1.97	37.0245091201019	0	1	0	1	0	37.0245091201019	0
1.98	36.9686169630023	0	1	0	1	0	36.9686169630023	0
1.99	36.9143269572328	0	1	0	1	0	36.9143269572328	0
2	36.8616202989024	0	1	0	1	0	36.8616202989024	0
2.01	36.8104785583266	0	1	0	1	0	36.8104785583266	0
2.02	36.7608836707654	0	1	0	1	0	36.7608836707654	0
2.03	36.712817927434	0	1	0	1	0	36.712817927434	0
2.04	36.666263966779	0	1	0	1	0	36.666263966779	0
2.05	36.6212047660087	0	1	0	1	0	36.6212047660087	0
2.06	36.5776236328712	0	1	0	1	0	36.5776236328712	0
2.07	36.5355041976703	0	1	0	1	0	36.5355041976703	0
2.08	36.4948304055114	0	1	0	1	0	36.4948304055114	0
2.09	36.4555865087709	0	1	0	1	0	36.4555865087709	0
2.1	36.4177570597795	0	1	0	1	0	36.4177570597795	0
2.11	36.3813269037153	0	1	0	1	0	36.3813269037153	0
2.12	36.3462811716959	0	1	0	1	0	36.3462811716959	0
2.13	36.3126052740671	0	1	0	1	0	36.3126052740671	0
2.14	36.2802848938782	0	1	0	1	0	36.2802848938782	0
2.15	36.2493059805408	0	1	0	1	0	36.2493059805408	0
2.16	36.2196547436621	0	1	0	1	0	36.2196547436621	0
2.17	36.1913176470505	0	1	0	1	0	36.1913176470505	0
2.18	36.1642814028845	0	1	0	1	0	36.1642814028845	0
2.19	36.138532966043	0	1	0	1	0	36.138532966043	0
2.2	36.1140595285885	0	1	0	1	0	36.1140595285885	0
2.21	36.0908485144016	0	1	0	1	0	36.0908485144016	0
2.22	36.0688875739596	0	1	0	1	0	36.0688875739596	0
2.23	36.0481645792558	0	1	0	1	0	36.0481645792558	0
2.24	36.0286676188552	0	1	0	1	0	36.0286676188552	0
2.25	36.0103849930816	0	1	0	1	0	36.0103849930816	0
2.26	35.9933052093326	0	1	0	1	0	35.9933052093326	0
2.27	35.9774169775188	0	1	0	1	0	35.9774169775188	0
2.28	35.9627092056225	0	1	0	1	0	35.9627092056225	0
2.29	35.9491709953729	0	1	0	1	0	35.9491709953729	0
2.3	35.9367916380344	0	1	0	1	0	35.9367916380344	0
2.31	35.9255606103042	0	1	0	1	0	35.9255606103042	0
2.32	35.9154675703156	0	1	0	1	0	35.9154675703156	0
2.33	35.9065023537447	0	1	0	1	0	35.9065023537447	0
2.34	35.8986549700167	0	1	0	1	0	35.8986549700167	0
2.35	35.8919155986092	0	1	0	1	0	35.8919155986092	0
2.36	35.8862745854494	0	1	0	1	0	35.8862745854494	0
2.37	35.8817224394023	0	1	0	1	0	35.8817224394023	0
2.38	35.8782498288479	0	1	0	1	0	35.8782498288479	0
2.39	35.8758475783437	0	1	0	1	0	35.8758475783437	0
2.4	35.8745066653714	0	1	0	1	0	35.8745066653714	0
2.41	35.8742182171643	0	1	0	1	0	35.8742182171643	0
2.42	35.8749735076125	0	1	0	1	0	35.8749735076125	0
2.43	35.8767639542461	0	1	0	1	0	35.8767639542461	0
2.44	35.8795811152913	0	1	0	1	0	35.8795811152913	0
2.45	35.8834166867994	0	1	0	1	0	35.8834166867994	0
2.46	35.8882624998448	0	1	0	1	0	35.8882624998448	0
2.47	35.8941105177928	0	1	0	1	0	35.8941105177928	0
2.48	35.9009528336312	0	1	0	1	0	35.9009528336312	0
2.49	35.9087816673686	0	1	0	1	0	35.9087816673686	0
2.5	35.9175893634932	0	1	0	1	0	35.9175893634932	0
2.51	35.9273683884933	0	1	0	1	0	35.9273683884933	0
2.52	35.9381113284371	0	1	0	1	0	35.9381113284371	0
2.53	35.9498108866088	0	1	0	1	0	35.9498108866088	0
2.54	35.9624598812017	0	1	0	1	0	35.9624598812017	0
2.55	35.9760512430647	0	1	0	1	0	35.9760512430647	0
2.56	35.9905780135023	0	1	0	1	0	35.9905780135023	0
2.57	36.0060333421256	0	1	0	1	0	36.0060333421256	0
2.58	36.0224104847531	0	1	0	1	0	36.0224104847531	0
2.59	36.0397028013608	0	1	0	1	0	36.0397028013608	0
2.6	36.0579037540787	0	1	0	1	0	36.0579037540787	0
2.61	36.0770069052342	0	1	0	1	0	36.0770069052342	0
2.62	36.0970059154395	0	1	0	1	0	36.0970059154395	0
2.63	36.1178945417238	0	1	0	1	0	36.1178945417238	0
2.64	36.1396666357063	0	1	0	1	0	36.1396666357063	0
2.65	36.1623161418122	0	1	0	1	0	36.1623161418122	0
2.66	36.185837095528	0	1	0	1	0	36.185837095528	0
2.67	36.210223621696	0	1	0	1	0	36.210223621696	0
2.68	36.2354699328477	0	1	0	1	0	36.2354699328477	0
2.69	36.2615703275735	0	1	0	1	0	36.2615703275735	0
2.7	36.2885191889289	0	1	0	1	0	36.2885191889289	0
2.71	36.3163109828766	0	1	0	1	0	36.3163109828766	0
2.72	36.3449402567623	0	1	0	1	0	36.3449402567623	0
2.73	36.3744016378236	0	1	0	1	0	36.3744016378236	0
2.74	36.4046898317331	0	1	0	1	0	36.4046898317331	0
2.75	36.4357996211716	0	1	0	1	0	36.4357996211716	0
2.76	36.467725864433	0	1	0	1	0	36.467725864433	0
2.77	36.5004634940601	0	1	0	1	0	36.5004634940601	0
2.78	36.5340075155084	0	1	0	1	0	36.5340075155084	0
2.79	36.5683530058399	0	1	0	1	0	36.5683530058399	0
2.8	36.6034951124443	0	1	0	1	0	36.6034951124443	0
2.81	36.6394290517876	0	1	0	1	0	36.6394290517876	0
2.82	36.6761501081873	0	1	0	1	0	36.6761501081873	0
2.83	36.7136536326137	0	1	0	1	0	36.7136536326137	0
2.84	36.7519350415163	0	1	0	1	0	36.7519350415163	0
2.85	36.7909898156754	0	1	0	1	0	36.7909898156754	0
2.86	36.8308134990768	0	1	0	1	0	36.8308134990768	0
2.87	36.8714016978112	0	1	0	1	0	36.8714016978112	0
2.88	36.912750078996	0	1	0	1	0	36.912750078996	0
2.89	36.954854369719	0	1	0	1	0	36.954854369719	0
2.9	36.9977103560049	0	1	0	1	0	36.9977103560049	0
2.91	37.0413138818023	0	1	0	1	0	37.0413138818023	0
2.92	37.0856608479922	0	1	0	1	0	37.0856608479922	0
2.93	37.1307472114161	0	1	0	1	0	37.1307472114161	0
2.94	37.1765689839246	0	1	0	1	0	37.1765689839246	0
2.95	37.2231222314448	0	1	0	1	0	37.2231222314448	0
2.96	37.2704030730671	0	1	0	1	0	37.2704030730671	0
2.97	37.3184076801498	0	1	0	1	0	37.3184076801498	0
2.98	37.3671322754425	0	1	0	1	0	37.3671322754425	0
2.99	37.4165731322266	0	1	0	1	0	37.4165731322266	0
3	37.4667265734731	0	1	0	1	0	37.4667265734731	0
3.01	37.5175889710171	0	1	0	1	0	37.5175889710171	0
3.02	37.5691567447489	0	1	0	1	0	37.5691567447489	0
3.03	37.6214263618208	0	1	0	1	0	37.6214263618208	0
3.04	37.6743943358704	0	1	0	1	0	37.6743943358704	0
3.05	37.7280572262576	0	1	0	1	0	37.7280572262576	0
3.06	37.7824116373181	0	1	0	1	0	37.7824116373181	0
3.07	37.8374542176311	0	1	0	1	0	37.8374542176311	0
3.08	37.8931816593003	0	1	0	1	0	37.8931816593003	0
3.09	37.9495906972504	0	1	0	1	0	37.9495906972504	0
3.1	38.0066781085358	0	1	0	1	0	38.0066781085358	0
3.11	38.0644407116639	0	1	0	1	0	38.0644407116639	0
3.12	38.1228753659303	0	1	0	1	0	38.1228753659303	0
3.13	38.1819789707674	0	1	0	1	0	38.1819789707674	0
3.14	38.2417484651053	0	1	0	1	0	38.2417484651053	0
3.15	38.3021808267447	0	1	0	1	0	38.3021808267447	0
3.16	38.3632730717423	0	1	0	1	0	38.3632730717423	0
3.17	38.4250222538067	0	1	0	1	0	38.4250222538067	0
3.18	38.4874254637071	0	1	0	1	0	38.4874254637071	0
3.19	38.5504798286919	0	1	0	1	0	38.5504798286919	0
3.2	38.6141825119188	0	1	0	1	0	38.6141825119188	0
3.21	38.6785307118959	0	1	0	1	0	38.6785307118959	0
3.22	38.7435216619322	0	1	0	1	0	38.7435216619322	0
3.23	38.809152629599	0	1	0	1	0	38.809152629599	0
3.24	38.8754209162016	0	1	0	1	0	38.8754209162016	0
3.25	38.9423238562598	0	1	0	1	0	38.9423238562598	0
3.26	39.0098588169988	0	1	0	1	0	39.0098588169988	0
3.27	39.0780231978488	0	1	0	1	0	39.0780231978488	0
3.28	39.1468144299545	0	1	0	1	0	39.1468144299545	0
3.29	39.2162299756928	0	1	0	1	0	39.2162299756928	0
3.3	39.2862673281995	0	1	0	1	0	39.2862673281995	0
3.31	39.3569240109051	0	1	0	1	0	39.3569240109051	0
3.32	39.4281975770782	0	1	0	1	0	39.4281975770782	0
3.33	39.5000856093774	0	1	0	1	0	39.5000856093774	0
3.34	39.5725857194117	0	1	0	1	0	39.5725857194117	0
3.35	39.6456955473082	0	1	0	1	0	39.6456955473082	0
3.36	39.7194127612875	0	1	0	1	0	39.7194127612875	0
3.37	39.7937350572474	0	1	0	1	0	39.7937350572474	0
3.38	39.8686601583529	0	1	0	1	0	39.8686601583529	0
3.39	39.9441858146346	0	1	0	1	0	39.9441858146346	0
3.4	40.0203098025931	0	1	0	1	0	40.0203098025931	0
3.41	40.0970299248112	0	1	0	1	0	40.0970299248112	0
3.42	40.1743440095725	0	1	0	1	0	40.1743440095725	0
3.43	40.2522499104866	0	1	0	1	0	40.2522499104866	0
3.44	40.3307455061214	0	1	0	1	0	40.3307455061214	0
3.45	40.4098286996409	0	1	0	1	0	40.4098286996409	0
3.46	40.4894974184499	0	1	0	1	0	40.4894974184499	0
3.47	40.5697496138451	0	1	0	1	0	40.5697496138451	0
3.48	40.6505832606712	0	1	0	1	0	40.6505832606712	0
3.49	40.7319963569841	0	1	0	1	0	40.7319963569841	0
3.5	40.8139869237188	0	1	0	1	0	40.8139869237188	0
3.51	40.896553004364	0	1	0	1	0	40.896553004364	0
3.52	40.9796926646414	0	1	0	1	0	40.9796926646414	0
3.53	41.0634039921907	0	1	0	1	0	41.0634039921907	0
3.54	41.1476850962604	0	1	0	1	0	41.1476850962604	0
3.55	41.2325341074032	0	1	0	1	0	41.2325341074032	0
3.56	41.3179491771768	0	1	0	1	0	41.3179491771768	0
3.57	41.4039284778497	0	1	0	1	0	41.4039284778497	0
3.58	41.490470202112	0	1	0	1	0	41.490470202112	0
3.59	41.5775725627911	0	1	0	1	0	41.5775725627911	0
3.6	41.6652337925716	0	1	0	1	0	41.6652337925716	0
3.61	41.7534521437208	0	1	0	1	0	41.7534521437208	0
3.62	41.8422258878177	0	1	0	1	0	41.8422258878177	0
3.63	41.9315533154876	0	1	0	1	0	41.9315533154876	0
3.64	42.0214327361399	0	1	0	1	0	42.0214327361399	0
3.65	42.111862477711	0	1	0	1	0	42.111862477711	0
3.66	42.2028408864113	0	1	0	1	0	42.2028408864113	0
3.67	42.2943663264762	0	1	0	1	0	42.2943663264762	0
3.68	42.3864371799212	0	1	0	1	0	42.3864371799212	0
3.69	42.4790518463006	0	1	0	1	0	42.4790518463006	0
3.7	42.5722087424712	0	1	0	1	0	42.5722087424712	0
3.71	42.6659063023585	0	1	0	1	0	42.6659063023585	0
3.72	42.7601429767276	0	1	0	1	0	42.7601429767276	0
3.73	42.8549172329573	0	1	0	1	0	42.8549172329573	0
3.74	42.9502275548183	0	1	0	1	0	42.9502275548183	0
3.75	43.0460724422541	0	1	0	1	0	43.0460724422541	0
3.76	43.1424504111664	0	1	0	1	0	43.1424504111664	0
3.77	43.2393599932034	0	1	0	1	0	43.2393599932034	0
3.78	43.3367997355511	0	1	0	1	0	43.3367997355511	0
3.79	43.434768200729	0	1	0	1	0	43.434768200729	0
3.8	43.5332639663878	0	1	0	1	0	43.5332639663878	0
3.81	43.632285625111	0	1	0	1	0	43.632285625111	0
3.82	43.7318317842194	0	1	0	1	0	43.7318317842194	0
3.83	43.8319010655789	0	1	0	1	0	43.8319010655789	0
3.84	43.9324921054107	0	1	0	1	0	43.9324921054107	0
3.85	44.0336035541055	0	1	0	1	0	44.0336035541055	0
3.86	44.1352340760393	0	1	0	1	0	44.1352340760393	0
3.87	44.2373823493931	0	1	0	1	0	44.2373823493931	0
3.88	44.3400470659749	0	1	0	1	0	44.3400470659749	0
3.89	44.4432269310445	0	1	0	1	0	44.4432269310445	0
3.9	44.5469206631411	0	1	0	1	0	44.5469206631411	0
3.91	44.6511269939136	0	1	0	1	0	44.6511269939136	0
3.92	44.7558446679531	0	1	0	1	0	44.7558446679531	0
3.93	44.8610724426284	0	1	0	1	0	44.8610724426284	0
3.94	44.966809087924	0	1	0	1	0	44.966809087924	0
3.95	45.0730533862801	0	1	0	1	0	45.0730533862801	0
3.96	45.1798041324355	0	1	0	1	0	45.1798041324355	0
3.97	45.2870601332727	0	1	0	1	0	45.2870601332727	0
3.98	45.3948202076655	0	1	0	1	0	45.3948202076655	0
3.99	45.5030831863283	0	1	0	1	0	45.5030831863283	0
4	45.6118479116685	0	1	0	1	0	45.6118479116685	0
4.01	45.7211132376406	0	1	0	1	0	45.7211132376406	0
4.02	45.8308780296024	0	1	0	1	0	45.8308780296024	0
4.03	45.9411411641737	0	1	0	1	0	45.9411411641737	0
4.04	46.0519015290969	0	1	0	1	0	46.0519015290969	0
4.05	46.1631580230998	0	1	0	1	0	46.1631580230998	0
4.06	46.2749095557599	0	1	0	1	0	46.2749095557599	0
4.07	46.3871550473716	0	1	0	1	0	46.3871550473716	0
4.08	46.4998934288146	0	1	0	1	0	46.4998934288146	0
4.09	46.6131236414243	0	1	0	1	0	46.6131236414243	0
4.1	46.726844636865	0	1	0	1	0	46.726844636865	0
4.11	46.8410553770034	0	1	0	1	0	46.8410553770034	0
4.12	46.9557548337854	0	1	0	1	0	46.9557548337854	0
4.13	47.0709419891136	0	1	0	1	0	47.0709419891136	0
4.14	47.1866158347275	0	1	0	1	0	47.1866158347275	0
4.15	47.3027753720847	0	1	0	1	0	47.3027753720847	0
4.16	47.4194196122441	0	1	0	1	0	47.4194196122441	0
4.17	47.536547575751	0	1	0	1	0	47.536547575751	0
4.18	47.6541582925233	0	1	0	1	0	47.6541582925233	0
4.19	47.77225080174	0	1	0	1	0	47.77225080174	0
4.2	47.8908241517307	0	1	0	1	0	47.8908241517307	0
4.21	48.0098773998668	0	1	0	1	0	48.0098773998668	0
4.22	48.129409612455	0	1	0	1	0	48.129409612455	0
4.23	48.2494198646309	0	1	0	1	0	48.2494198646309	0
4.24	48.3699072402553	0	1	0	1	0	48.3699072402553	0
4.25	48.4908708318115	0	1	0	1	0	48.4908708318115	0
4.26	48.6123097403042	0	1	0	1	0	48.6123097403042	0
4.27	48.7342230751596	0	1	0	1	0	48.7342230751596	0
4.28	48.8566099541267	0	1	0	1	0	48.8566099541267	0
4.29	48.979469503181	0	1	0	1	0	48.979469503181	0
4.3	49.1028008564284	0	1	0	1	0	49.1028008564284	0
4.31	49.2266031560106	0	1	0	1	0	49.2266031560106	0
4.32	49.3508755520129	0	1	0	1	0	49.3508755520129	0
4.33	49.4756172023716	0	1	0	1	0	49.4756172023716	0
4.34	49.6008272727844	0	1	0	1	0	49.6008272727844	0
4.35	49.7265049366202	0	1	0	1	0	49.7265049366202	0
4.36	49.8526493748322	0	1	0	1	0	49.8526493748322	0
4.37	49.9792597758702	0	1	0	1	0	49.9792597758702	0
4.38	50.1063353355957	0	1	0	1	0	50.1063353355957	0
4.39	50.233875257197	0	1	0	1	0	50.233875257197	0
4.4	50.3618787511062	0	1	0	1	0	50.3618787511062	0
4.41	50.4903450349171	0	1	0	1	0	50.4903450349171	0
4.42	50.619273333304	0	1	0	1	0	50.619273333304	0
4.43	50.7486628779418	0	1	0	1	0	50.7486628779418	0
4.44	50.8785129074276	0	1	0	1	0	50.8785129074276	0
4.45	51.0088226672022	0	1	0	1	0	51.0088226672022	0
4.46	51.1395914094739	0	1	0	1	0	51.1395914094739	0
4.47	51.2708183931426	0	1	0	1	0	51.2708183931426	0
4.48	51.4025028837252	0	1	0	1	0	51.4025028837252	0
4.49	51.534644153282	0	1	0	1	0	51.534644153282	0
4.5	51.6672414803435	0	1	0	1	0	51.6672414803435	0
4.51	51.8002941498396	0	1	0	1	0	51.8002941498396	0
4.52	51.9338014530276	0	1	0	1	0	51.9338014530276	0
4.53	52.0677626874237	0	1	0	1	0	52.0677626874237	0
4.54	52.2021771567328	0	1	0	1	0	52.2021771567328	0
4.55	52.3370441707815	0	1	0	1	0	52.3370441707815	0
4.56	52.4723630454502	0	1	0	1	0	52.4723630454502	0
4.57	52.6081331026075	0	1	0	1	0	52.6081331026075	0
4.58	52.7443536700444	0	1	0	1	0	52.7443536700444	0
4.59	52.88102408141	0	1	0	1	0	52.88102408141	0
4.6	53.0181436761477	0	1	0	1	0	53.0181436761477	0
4.61	53.1557117994324	0	1	0	1	0	53.1557117994324	0
4.62	53.2937278021085	0	1	0	1	0	53.2937278021085	0
4.63	53.4321910406288	0	1	0	1	0	53.4321910406288	0
4.64	53.5711008769937	0	1	0	1	0	53.5711008769937	0
4.65	53.7104566786918	0	1	0	1	0	53.7104566786918	0
4.66	53.8502578186411	0	1	0	1	0	53.8502578186411	0
4.67	53.9905036751307	0	1	0	1	0	53.9905036751307	0
4.68	54.1311936317635	0	1	0	1	0	54.1311936317635	0
4.69	54.2723270773994	0	1	0	1	0	54.2723270773994	0
4.7	54.4139034060997	0	1	0	1	0	54.4139034060997	0
4.71	54.5559220170713	0	1	0	1	0	54.5559220170713	0
4.72	54.6983823146131	0	1	0	1	0	54.6983823146131	0
4.73	54.8412837080612	0	1	0	1	0	54.8412837080612	0
4.74	54.9846256117364	0	1	0	1	0	54.9846256117364	0
4.75	55.1284074448914	0	1	0	1	0	55.1284074448914	0
4.76	55.2726286316594	0	1	0	1	0	55.2726286316594	0
4.77	55.4172886010024	0	1	0	1	0	55.4172886010024	0
4.78	55.5623867866611	0	1	0	1	0	55.5623867866611	0
4.79	55.7079226271047	0	1	0	1	0	55.7079226271047	0
4.8	55.8538955654822	0	1	0	1	0	55.8538955654822	0
4.81	56.000305049573	0	1	0	1	0	56.000305049573	0
4.82	56.1471505317393	0	1	0	1	0	56.1471505317393	0
4.83	56.2944314688789	0	1	0	1	0	56.2944314688789	0
4.84	56.4421473223776	0	1	0	1	0	56.4421473223776	0
4.85	56.5902975580638	0	1	0	1	0	56.5902975580638	0
4.86	56.7388816461621	0	1	0	1	0	56.7388816461621	0
4.87	56.8878990612485	0	1	0	1	0	56.8878990612485	0
4.88	57.0373492822058	0	1	0	1	0	57.0373492822058	0
4.89	57.1872317921796	0	1	0	1	0	57.1872317921796	0
4.9	57.3375460785345	0	1	0	1	0	57.3375460785345	0
4.91	57.4882916328114	0	1	0	1	0	57.4882916328114	0
4.92	57.6394679506853	0	1	0	1	0	57.6394679506853	0
4.93	57.7910745319227	0	1	0	1	0	57.7910745319227	0
