# GHZ S RI R 50
1	58.5887110208745	0	1	0	1	0	58.5887110208745	0
1.01	58.0951733810702	0	1	0	1	0	58.0951733810702	0
1.02	57.6125248832805	0	1	0	1	0	57.6125248832805	0
1.03	57.1404602508714	0	1	0	1	0	57.1404602508714	0
1.04	56.6786859486178	0	1	0	1	0	56.6786859486178	0
1.05	56.2269196235889	0	1	0	1	0	56.2269196235889	0
1.06	55.7848895776814	0	1	0	1	0	55.7848895776814	0
1.07	55.3523342697305	0	1	0	1	0	55.3523342697305	0
1.08	54.9290018452814	0	1	0	1	0	54.9290018452814	0
1.09	54.5146496922442	0	1	0	1	0	54.5146496922442	0
1.1	54.1090440207871	0	1	0	1	0	54.1090440207871	0
1.11	53.7119594659372	0	1	0	1	0	53.7119594659372	0
1.12	53.3231787114703	0	1	0	1	0	53.3231787114703	0
1.13	52.9424921337722	0	1	0	1	0	52.9424921337722	0
1.14	52.5696974644431	0	1	0	1	0	52.5696974644431	0
1.15	52.2045994705058	0	1	0	1	0	52.2045994705058	0
1.16	51.8470096511547	0	1	0	1	0	51.8470096511547	0
1.17	51.4967459500563	0	1	0	1	0	51.4967459500563	0
1.18	51.1536324822782	0	1	0	1	0	51.1536324822782	0
1.19	50.8174992749865	0	1	0	1	0	50.8174992749865	0
1.2	50.4881820211084	0	1	0	1	0	50.4881820211084	0
1.21	50.1655218452101	0	1	0	1	0	50.1655218452101	0
1.22	49.8493650808881	0	1	0	1	0	49.8493650808881	0
1.23	49.5395630590206	0	1	0	1	0	49.5395630590206	0
1.24	49.2359719062637	0	1	0	1	0	49.2359719062637	0
1.25	48.9384523532206	0	1	0	1	0	48.9384523532206	0
1.26	48.6468695517452	0	1	0	1	0	48.6468695517452	0
1.27	48.3610929008772	0	1	0	1	0	48.3610929008772	0
1.28	48.0809958809361	0	1	0	1	0	48.0809958809361	0
1.29	47.8064558953323	0	1	0	1	0	47.8064558953323	0
1.3	47.5373541196792	0	1	0	1	0	47.5373541196792	0
1.31	47.2735753578155	0	1	0	1	0	47.2735753578155	0
1.32	47.0150079043727	0	1	0	1	0	47.0150079043727	0
1.33	46.7615434135424	0	1	0	1	0	46.7615434135424	0
1.34	46.5130767737192	0	1	0	1	0	46.5130767737192	0
1.35	46.2695059877158	0	1	0	1	0	46.2695059877158	0
1.36	46.0307320582622	0	1	0	1	0	46.0307320582622	0
1.37	45.7966588785196	0	1	0	1	0	45.7966588785196	0
1.38	45.5671931273546	0	1	0	1	0	45.5671931273546	0
1.39	45.342244169134	0	1	0	1	0	45.342244169134	0
1.4	45.1217239578145	0	1	0	1	0	45.1217239578145	0
1.41	44.9055469451123	0	1	0	1	0	44.9055469451123	0
1.42	44.6936299925549	0	1	0	1	0	44.6936299925549	0
1.43	44.4858922872213	0	1	0	1	0	44.4858922872213	0
1.44	44.2822552609938	0	1	0	1	0	44.2822552609938	0
1.45	44.0826425131512	0	1	0	1	0	44.0826425131512	0
1.46	43.8869797361425	0	1	0	1	0	43.8869797361425	0
1.47	43.6951946443912	0	1	0	1	0	43.6951946443912	0
1.48	43.5072169059847	0	1	0	1	0	43.5072169059847	0
1.49	43.3229780771157	0	1	0	1	0	43.3229780771157	0
1.5	43.1424115391451	0	1	0	1	0	43.1424115391451	0
1.51	42.9654524381656	0	1	0	1	0	42.9654524381656	0
1.52	42.7920376269521	0	1	0	1	0	42.7920376269521	0
1.53	42.6221056091872	0	1	0	1	0	42.6221056091872	0
1.54	42.4555964858603	0	1	0	1	0	42.4555964858603	0
1.55	42.2924519037419	0	1	0	1	0	42.2924519037419	0
1.56	42.1326150058391	0	1	0	1	0	42.1326150058391	0
1.57	41.9760303837447	0	1	0	1	0	41.9760303837447	0
1.58	41.8226440317963	0	1	0	1	0	41.8226440317963	0
1.59	41.672403302964	0	1	0	1	0	41.672403302964	0
1.6	41.5252568663942	0	1	0	1	0	41.5252568663942	0
1.61	41.3811546665336	0	1	0	1	0	41.3811546665336	0
1.62	41.2400478837688	0	1	0	1	0	41.2400478837688	0
1.63	41.1018888965134	0	1	0	1	0	41.1018888965134	0
1.64	40.9666312446834	0	1	0	1	0	40.9666312446834	0
1.65	40.8342295944996	0	1	0	1	0	40.8342295944996	0
1.66	40.7046397045633	0	1	0	1	0	40.7046397045633	0
1.67	40.5778183931499	0	1	0	1	0	40.5778183931499	0
1.68	40.4537235066709	0	1	0	1	0	40.4537235066709	0
1.69	40.3323138892563	0	1	0	1	0	40.3323138892563	0
1.7	40.2135493534091	0	1	0	1	0	40.2135493534091	0
1.71	40.0973906516909	0	1	0	1	0	40.0973906516909	0
1.72	39.9837994493944	0	1	0	1	0	39.9837994493944	0
1.73	39.8727382981639	0	1	0	1	0	39.8727382981639	0
1.74	39.7641706105255	0	1	0	1	0	39.7641706105255	0
1.75	39.6580606352904	0	1	0	1	0	39.6580606352904	0
1.76	39.5543734337967	0	1	0	1	0	39.5543734337967	0
1.77	39.453074856957	0	1	0	1	0	39.453074856957	0
1.78	39.3541315230789	0	1	0	1	0	39.3541315230789	0
1.79	39.2575107964297	0	1	0	1	0	39.2575107964297	0
1.8	39.1631807665152	0	1	0	1	0	39.1631807665152	0
1.81	39.0711102280455	0	1	0	1	0	39.0711102280455	0
1.82	38.9812686615613	0	1	0	1	0	38.9812686615613	0
1.83	38.8936262146952	0	1	0	1	0	38.8936262146952	0
1.84	38.8081536840444	0	1	0	1	0	38.8081536840444	0
1.85	38.7248224976309	0	1	0	1	0	38.7248224976309	0
1.86	38.643604697928	0	1	0	1	0	38.643604697928	0
1.87	38.5644729254309	0	1	0	1	0	38.5644729254309	0
1.88	38.4874004027518	0	1	0	1	0	38.4874004027518	0
1.89	38.4123609192204	0	1	0	1	0	38.4123609192204	0
1.9	38.3393288159696	0	1	0	1	0	38.3393288159696	0
1.91	38.2682789714911	0	1	0	1	0	38.2682789714911	0
1.92	38.1991867876411	0	1	0	1	0	38.1991867876411	0
1.93	38.1320281760822	0	1	0	1	0	38.1320281760822	0
1.94	38.0667795451434	0	1	0	1	0	38.0667795451434	0
1.95	38.0034177870856	0	1	0	1	0	38.0034177870856	0
1.96	37.9419202657563	0	1	0	1	0	37.9419202657563	0
1.97	37.8822648046201	0	1	0	1	0	37.8822648046201	0
1.98	37.8244296751525	0	1	0	1	0	37.8244296751525	0
1.99	37.7683935855834	0	1	0	1	0	37.7683935855834	0
2	37.7141356699779	0	1	0	1	0	37.7141356699779	0
2.01	37.6616354776436	0	1	0	1	0	37.6616354776436	0
2.02	37.6108729628525	0	1	0	1	0	37.6108729628525	0
2.03	37.5618284748662	0	1	0	1	0	37.5618284748662	0
2.04	37.5144827482547	0	1	0	1	0	37.5144827482547	0
2.05	37.4688168934991	0	1	0	1	0	37.4688168934991	0
2.06	37.4248123878673	0	1	0	1	0	37.4248123878673	0
2.07	37.3824510665541	0	1	0	1	0	37.3824510665541	0
2.08	37.3417151140778	0	1	0	1	0	37.3417151140778	0
2.09	37.3025870559226	0	1	0	1	0	37.3025870559226	0
2.1	37.2650497504208	0	1	0	1	0	37.2650497504208	0
2.11	37.2290863808652	0	1	0	1	0	37.2290863808652	0
2.12	37.1946804478448	0	1	0	1	0	37.1946804478448	0
2.13	37.1618157617968	0	1	0	1	0	37.1618157617968	0
2.14	37.1304764357672	0	1	0	1	0	37.1304764357672	0
2.15	37.1006468783729	0	1	0	1	0	37.1006468783729	0
2.16	37.0723117869606	0	1	0	1	0	37.0723117869606	0
2.17	37.045456140953	0	1	0	1	0	37.045456140953	0
2.18	37.0200651953801	0	1	0	1	0	37.0200651953801	0
2.19	36.9961244745864	0	1	0	1	0	36.9961244745864	0
2.2	36.9736197661099	0	1	0	1	0	36.9736197661099	0
2.21	36.9525371147281	0	1	0	1	0	36.9525371147281	0
2.22	36.9328628166635	0	1	0	1	0	36.9328628166635	0
2.23	36.9145834139466	0	1	0	1	0	36.9145834139466	0
2.24	36.8976856889287	0	1	0	1	0	36.8976856889287	0
2.25	36.8821566589415	0	1	0	1	0	36.8821566589415	0
2.26	36.8679835710985	0	1	0	1	0	36.8679835710985	0
2.27	36.8551538972335	0	1	0	1	0	36.8551538972335	0
2.28	36.8436553289729	0	1	0	1	0	36.8436553289729	0
2.29	36.8334757729364	0	1	0	1	0	36.8334757729364	0
2.3	36.8246033460634	0	1	0	1	0	36.8246033460634	0
2.31	36.8170263710606	0	1	0	1	0	36.8170263710606	0
2.32	36.8107333719672	0	1	0	1	0	36.8107333719672	0
2.33	36.8057130698349	0	1	0	1	0	36.8057130698349	0
2.34	36.8019543785175	0	1	0	1	0	36.8019543785175	0
2.35	36.7994464005697	0	1	0	1	0	36.7994464005697	0
2.36	36.7981784232481	0	1	0	1	0	36.7981784232481	0
2.37	36.7981399146156	0	1	0	1	0	36.7981399146156	0
2.38	36.7993205197421	0	1	0	1	0	36.7993205197421	0
2.39	36.8017100570019	0	1	0	1	0	36.8017100570019	0
2.4	36.8052985144631	0	1	0	1	0	36.8052985144631	0
2.41	36.8100760463668	0	1	0	1	0	36.8100760463668	0
2.42	36.8160329696941	0	1	0	1	0	36.8160329696941	0
2.43	36.8231597608172	0	1	0	1	0	36.8231597608172	0
2.44	36.8314470522334	0	1	0	1	0	36.8314470522334	0
2.45	36.8408856293789	0	1	0	1	0	36.8408856293789	0
2.46	36.8514664275202	0	1	0	1	0	36.8514664275202	0
2.47	36.8631805287208	0	1	0	1	0	36.8631805287208	0
2.48	36.8760191588824	0	1	0	1	0	36.8760191588824	0
2.49	36.8899736848556	0	1	0	1	0	36.8899736848556	0
2.5	36.9050356116217	0	1	0	1	0	36.9050356116217	0
2.51	36.9211965795406	0	1	0	1	0	36.9211965795406	0
2.52	36.938448361665	0	1	0	1	0	36.938448361665	0
2.53	36.9567828611179	0	1	0	1	0	36.9567828611179	0
2.54	36.9761921085322	0	1	0	1	0	36.9761921085322	0
2.55	36.9966682595503	0	1	0	1	0	36.9966682595503	0
2.56	37.018203592383	0	1	0	1	0	37.018203592383	0
2.57	37.0407905054242	0	1	0	1	0	37.0407905054242	0
2.58	37.0644215149226	0	1	0	1	0	37.0644215149226	0
2.59	37.0890892527057	0	1	0	1	0	37.0890892527057	0
2.6	37.1147864639577	0	1	0	1	0	37.1147864639577	0
2.61	37.1415060050477	0	1	0	1	0	37.1415060050477	0
2.62	37.1692408414077	0	1	0	1	0	37.1692408414077	0
2.63	37.1979840454596	0	1	0	1	0	37.1979840454596	0
2.64	37.2277287945883	0	1	0	1	0	37.2277287945883	0
2.65	37.2584683691619	0	1	0	1	0	37.2584683691619	0
2.66	37.2901961505953	0	1	0	1	0	37.2901961505953	0
2.67	37.3229056194585	0	1	0	1	0	37.3229056194585	0
2.68	37.3565903536261	0	1	0	1	0	37.3565903536261	0
2.69	37.3912440264693	0	1	0	1	0	37.3912440264693	0
2.7	37.4268604050869	0	1	0	1	0	37.4268604050869	0
2.71	37.4634333485765	0	1	0	1	0	37.4634333485765	0
2.72	37.5009568063428	0	1	0	1	0	37.5009568063428	0
2.73	37.5394248164441	0	1	0	1	0	37.5394248164441	0
2.74	37.5788315039743	0	1	0	1	0	37.5788315039743	0
2.75	37.6191710794805	0	1	0	1	0	37.6191710794805	0
2.76	37.6604378374148	0	1	0	1	0	37.6604378374148	0
2.77	37.7026261546201	0	1	0	1	0	37.7026261546201	0
2.78	37.7457304888478	0	1	0	1	0	37.7457304888478	0
2.79	37.7897453773081	0	1	0	1	0	37.7897453773081	0
2.8	37.8346654352513	0	1	0	1	0	37.8346654352513	0
2.81	37.8804853545787	0	1	0	1	0	37.8804853545787	0
2.82	37.9271999024838	0	1	0	1	0	37.9271999024838	0
2.83	37.974803920122	0	1	0	1	0	37.974803920122	0
2.84	38.0232923213087	0	1	0	1	0	38.0232923213087	0
2.85	38.0726600912442	0	1	0	1	0	38.0726600912442	0
2.86	38.1229022852658	0	1	0	1	0	38.1229022852658	0
2.87	38.174014027626	0	1	0	1	0	38.174014027626	0
2.88	38.2259905102961	0	1	0	1	0	38.2259905102961	0
2.89	38.2788269917943	0	1	0	1	0	38.2788269917943	0
2.9	38.3325187960389	0	1	0	1	0	38.3325187960389	0
2.91	38.3870613112239	0	1	0	1	0	38.3870613112239	0
2.92	38.4424499887189	0	1	0	1	0	38.4424499887189	0
2.93	38.4986803419908	0	1	0	1	0	38.4986803419908	0
2.94	38.5557479455478	0	1	0	1	0	38.5557479455478	0
2.95	38.6136484339046	0	1	0	1	0	38.6136484339046	0
2.96	38.6723775005693	0	1	0	1	0	38.6723775005693	0
2.97	38.7319308970494	0	1	0	1	0	38.7319308970494	0
2.98	38.7923044318796	0	1	0	1	0	38.7923044318796	0
2.99	38.8534939696675	0	1	0	1	0	38.8534939696675	0
3	38.9154954301593	0	1	0	1	0	38.9154954301593	0
3.01	38.9783047873238	0	1	0	1	0	38.9783047873238	0
3.02	39.0419180684548	0	1	0	1	0	39.0419180684548	0
3.03	39.106331353291	0	1	0	1	0	39.106331353291	0
3.04	39.1715407731534	0	1	0	1	0	39.1715407731534	0
3.05	39.2375425101	0	1	0	1	0	39.2375425101	0
3.06	39.3043327960965	0	1	0	1	0	39.3043327960965	0
3.07	39.3719079122032	0	1	0	1	0	39.3719079122032	0
3.08	39.4402641877787	0	1	0	1	0	39.4402641877787	0
3.09	39.5093979996978	0	1	0	1	0	39.5093979996978	0
3.1	39.5793057715854	0	1	0	1	0	39.5793057715854	0
3.11	39.6499839730646	0	1	0	1	0	39.6499839730646	0
3.12	39.72142911902	0	1	0	1	0	39.72142911902	0
3.13	39.7936377688742	0	1	0	1	0	39.7936377688742	0
3.14	39.866606525879	0	1	0	1	0	39.866606525879	0
3.15	39.9403320364194	0	1	0	1	0	39.9403320364194	0
3.16	40.0148109893311	0	1	0	1	0	40.0148109893311	0
3.17	40.0900401152314	0	1	0	1	0	40.0900401152314	0
3.18	40.1660161858616	0	1	0	1	0	40.1660161858616	0
3.19	40.2427360134428	0	1	0	1	0	40.2427360134428	0
3.2	40.3201964500433	0	1	0	1	0	40.3201964500433	0
3.21	40.3983943869583	0	1	0	1	0	40.3983943869583	0
3.22	40.4773267540999	0	1	0	1	0	40.4773267540999	0
3.23	40.5569905194004	0	1	0	1	0	40.5569905194004	0
3.24	40.6373826882245	0	1	0	1	0	40.6373826882245	0
3.25	40.7185003027945	0	1	0	1	0	40.7185003027945	0
3.26	40.800340441624	0	1	0	1	0	40.800340441624	0
3.27	40.8829002189638	0	1	0	1	0	40.8829002189638	0
3.28	40.9661767842564	0	1	0	1	0	40.9661767842564	0
3.29	41.0501673216018	0	1	0	1	0	41.0501673216018	0
3.3	41.1348690492321	0	1	0	1	0	41.1348690492321	0
3.31	41.2202792189957	0	1	0	1	0	41.2202792189957	0
3.32	41.3063951158516	0	1	0	1	0	41.3063951158516	0
3.33	41.3932140573717	0	1	0	1	0	41.3932140573717	0
3.34	41.4807333932527	0	1	0	1	0	41.4807333932527	0
3.35	41.5689505048371	0	1	0	1	0	41.5689505048371	0
3.36	41.6578628046413	0	1	0	1	0	41.6578628046413	0
3.37	41.7474677358943	0	1	0	1	0	41.7474677358943	0
3.38	41.8377627720822	0	1	0	1	0	41.8377627720822	0
3.39	41.9287454165029	0	1	0	1	0	41.9287454165029	0
3.4	42.020413201827	0	1	0	1	0	42.020413201827	0
3.41	42.1127636896674	0	1	0	1	0	42.1127636896674	0
3.42	42.2057944701564	0	1	0	1	0	42.2057944701564	0
3.43	42.2995031615294	0	1	0	1	0	42.2995031615294	0
3.44	42.3938874097169	0	1	0	1	0	42.3938874097169	0
3.45	42.4889448879428	0	1	0	1	0	42.4889448879428	0
3.46	42.5846732963305	0	1	0	1	0	42.5846732963305	0
3.47	42.6810703615146	0	1	0	1	0	42.6810703615146	0
3.48	42.7781338362604	0	1	0	1	0	42.7781338362604	0
3.49	42.8758614990895	0	1	0	1	0	42.8758614990895	0
3.5	42.974251153912	0	1	0	1	0	42.974251153912	0
3.51	43.0733006296644	0	1	0	1	0	43.0733006296644	0
3.52	43.1730077799545	0	1	0	1	0	43.1730077799545	0
3.53	43.2733704827119	0	1	0	1	0	43.2733704827119	0
3.54	43.3743866398442	0	1	0	1	0	43.3743866398442	0
3.55	43.4760541768997	0	1	0	1	0	43.4760541768997	0
3.56	43.5783710427349	0	1	0	1	0	43.5783710427349	0
3.57	43.6813352091885	0	1	0	1	0	43.6813352091885	0
3.58	43.7849446707601	0	1	0	1	0	43.7849446707601	0
3.59	43.8891974442949	0	1	0	1	0	43.8891974442949	0
3.6	43.9940915686729	0	1	0	1	0	43.9940915686729	0
3.61	44.0996251045042	0	1	0	1	0	44.0996251045042	0
3.62	44.2057961338283	0	1	0	1	0	44.2057961338283	0
3.63	44.3126027598196	0	1	0	1	0	44.3126027598196	0
3.64	44.4200431064966	0	1	0	1	0	44.4200431064966	0
3.65	44.5281153184364	0	1	0	1	0	44.5281153184364	0
3.66	44.6368175604941	0	1	0	1	0	44.6368175604941	0
3.67	44.7461480175263	0	1	0	1	0	44.7461480175263	0
3.68	44.8561048941194	0	1	0	1	0	44.8561048941194	0
3.69	44.9666864143224	0	1	0	1	0	44.9666864143224	0
3.7	45.0778908213835	0	1	0	1	0	45.0778908213835	0
3.71	45.1897163774921	0	1	0	1	0	45.1897163774921	0
3.72	45.3021613635232	0	1	0	1	0	45.3021613635232	0
3.73	45.4152240787877	0	1	0	1	0	45.4152240787877	0
3.74	45.5289028407858	0	1	0	1	0	45.5289028407858	0
3.75	45.6431959849642	0	1	0	1	0	45.6431959849642	0
3.76	45.7581018644777	0	1	0	1	0	45.7581018644777	0
3.77	45.8736188499541	0	1	0	1	0	45.8736188499541	0
3.78	45.9897453292635	0	1	0	1	0	45.9897453292635	0
3.79	46.1064797072903	0	1	0	1	0	46.1064797072903	0
3.8	46.2238204057098	0	1	0	1	0	46.2238204057098	0
3.81	46.3417658627675	0	1	0	1	0	46.3417658627675	0
3.82	46.4603145330624	0	1	0	1	0	46.4603145330624	0
3.83	46.5794648873335	0	1	0	1	0	46.5794648873335	0
3.84	46.6992154122495	0	1	0	1	0	46.6992154122495	0
3.85	46.8195646102021	0	1	0	1	0	46.8195646102021	0
3.86	46.9405109991023	0	1	0	1	0	46.9405109991023	0
3.87	47.0620531121796	0	1	0	1	0	47.0620531121796	0
3.88	47.1841894977853	0	1	0	1	0	47.1841894977853	0
3.89	47.3069187191971	0	1	0	1	0	47.3069187191971	0
3.9	47.4302393544289	0	1	0	1	0	47.4302393544289	0
3.91	47.5541499960414	0	1	0	1	0	47.5541499960414	0
3.92	47.678649250957	0	1	0	1	0	47.678649250957	0
3.93	47.803735740277	0	1	0	1	0	47.803735740277	0
3.94	47.9294080991018	0	1	0	1	0	47.9294080991018	0
3.95	48.0556649763534	0	1	0	1	0	48.0556649763534	0
3.96	48.1825050346011	0	1	0	1	0	48.1825050346011	0
3.97	48.3099269498896	0	1	0	1	0	48.3099269498896	0
3.98	48.4379294115697	0	1	0	1	0	48.4379294115697	0
3.99	48.5665111221316	0	1	0	1	0	48.5665111221316	0
4	48.6956707970404	0	1	0	1	0	48.6956707970404	0
4.01	48.8254071645746	0	1	0	1	0	48.8254071645746	0
4.02	48.9557189656668	0	1	0	1	0	48.9557189656668	0
4.03	49.0866049537464	0	1	0	1	0	49.0866049537464	0
4.04	49.218063894585	0	1	0	1	0	49.218063894585	0
4.05	49.3500945661443	0	1	0	1	0	49.3500945661443	0
4.06	49.4826957584257	0	1	0	1	0	49.4826957584257	0
4.07	49.6158662733225	0	1	0	1	0	49.6158662733225	0
4.08	49.749604924474	0	1	0	1	0	49.749604924474	0
4.09	49.8839105371223	0	1	0	1	0	49.8839105371223	0
4.1	50.0187819479705	0	1	0	1	0	50.0187819479705	0
4.11	50.154218005043	0	1	0	1	0	50.154218005043	0
4.12	50.290217567549	0	1	0	1	0	50.290217567549	0
4.13	50.4267795057459	0	1	0	1	0	50.4267795057459	0
4.14	50.5639027008069	0	1	0	1	0	50.5639027008069	0
4.15	50.7015860446891	0	1	0	1	0	50.7015860446891	0
4.16	50.8398284400035	0	1	0	1	0	50.8398284400035	0
4.17	50.978628799888	0	1	0	1	0	50.978628799888	0
4.18	51.1179860478808	0	1	0	1	0	51.1179860478808	0
4.19	51.2578991177968	0	1	0	1	0	51.2578991177968	0
4.2	51.398366953605	0	1	0	1	0	51.398366953605	0
4.21	51.5393885093078	0	1	0	1	0	51.5393885093078	0
4.22	51.6809627488224	0	1	0	1	0	51.6809627488224	0
4.23	51.8230886458635	0	1	0	1	0	51.8230886458635	0
4.24	51.9657651838276	0	1	0	1	0	51.9657651838276	0
4.25	52.1089913556794	0	1	0	1	0	52.1089913556794	0
4.26	52.2527661638392	0	1	0	1	0	52.2527661638392	0
4.27	52.3970886200723	0	1	0	1	0	52.3970886200723	0
4.28	52.5419577453801	0	1	0	1	0	52.5419577453801	0
4.29	52.6873725698918	0	1	0	1	0	52.6873725698918	0
4.3	52.8333321327589	0	1	0	1	0	52.8333321327589	0
4.31	52.9798354820502	0	1	0	1	0	52.9798354820502	0
4.32	53.1268816746488	0	1	0	1	0	53.1268816746488	0
4.33	53.27446977615	0	1	0	1	0	53.27446977615	0
4.34	53.4225988607612	0	1	0	1	0	53.4225988607612	0
4.35	53.571268011203	0	1	0	1	0	53.571268011203	0
4.36	53.7204763186112	0	1	0	1	0	53.7204763186112	0
4.37	53.8702228824408	0	1	0	1	0	53.8702228824408	0
4.38	54.0205068103709	0	1	0	1	0	54.0205068103709	0
4.39	54.1713272182112	0	1	0	1	0	54.1713272182112	0
4.4	54.3226832298094	0	1	0	1	0	54.3226832298094	0
4.41	54.4745739769602	0	1	0	1	0	54.4745739769602	0
4.42	54.6269985993154	0	1	0	1	0	54.6269985993154	0
4.43	54.779956244295	0	1	0	1	0	54.779956244295	0
4.44	54.9334460670002	0	1	0	1	0	54.9334460670002	0
4.45	55.0874672301265	0	1	0	1	0	55.0874672301265	0
4.46	55.242018903879	0	1	0	1	0	55.242018903879	0
4.47	55.3971002658883	0	1	0	1	0	55.3971002658883	0
4.48	55.5527105011275	0	1	0	1	0	55.5527105011275	0
4.49	55.7088488018305	0	1	0	1	0	55.7088488018305	0
4.5	55.8655143674114	0	1	0	1	0	55.8655143674114	0
4.51	56.0227064043849	0	1	0	1	0	56.0227064043849	0
4.52	56.1804241262876	0	1	0	1	0	56.1804241262876	0
4.53	56.3386667536007	0	1	0	1	0	56.3386667536007	0
4.54	56.4974335136731	0	1	0	1	0	56.4974335136731	0
4.55	56.6567236406466	0	1	0	1	0	56.6567236406466	0
4.56	56.8165363753809	0	1	0	1	0	56.8165363753809	0
4.57	56.9768709653802	0	1	0	1	0	56.9768709653802	0
4.58	57.1377266647209	0	1	0	1	0	57.1377266647209	0
4.59	57.2991027339796	0	1	0	1	0	57.2991027339796	0
4.6	57.4609984401628	0	1	0	1	0	57.4609984401628	0
4.61	57.623413056637	0	1	0	1	0	57.623413056637	0
4.62	57.7863458630599	0	1	0	1	0	57.7863458630599	0
4.63	57.9497961453125	0	1	0	1	0	57.9497961453125	0
4.64	58.113763195432	0	1	0	1	0	58.113763195432	0
4.65	58.2782463115455	0	1	0	1	0	58.2782463115455	0
4.66	58.4432447978047	0	1	0	1	0	58.4432447978047	0
4.67	58.6087579643218	0	1	0	1	0	58.6087579643218	0
4.68	58.7747851271052	0	1	0	1	0	58.7747851271052	0
4.69	58.9413256079968	0	1	0	1	0	58.9413256079968	0
4.7	59.1083787346105	0	1	0	1	0	59.1083787346105	0
4.71	59.27594384027	0	1	0	1	0	59.27594384027	0
4.72	59.4440202639491	0	1	0	1	0	59.4440202639491	0
4.73	59.6126073502117	0	1	0	1	0	59.6126073502117	0
4.74	59.7817044491525	0	1	0	1	0	59.7817044491525	0
4.75	59.9513109163393	0	1	0	1	0	59.9513109163393	0
4.76	60.1214261127555	0	1	0	1	0	60.1214261127555	0
4.77	60.2920494047427	0	1	0	1	0	60.2920494047427	0
4.78	60.4631801639453	0	1	0	1	0	60.4631801639453	0
4.79	60.634817767255	0	1	0	1	0	60.634817767255	0
4.8	60.806961596756	0	1	0	1	0	60.806961596756	0
4.81	60.979611039671	0	1	0	1	0	60.979611039671	0
4.82	61.1527654883081	0	1	0	1	0	61.1527654883081	0
4.83	61.326424340008	0	1	0	1	0	61.326424340008	0
4.84	61.5005869970921	0	1	0	1	0	61.5005869970921	0
4.85	61.6752528668111	0	1	0	1	0	61.6752528668111	0
4.86	61.8504213612943	0	1	0	1	0	61.8504213612943	0
4.87	62.0260918974994	0	1	0	1	0	62.0260918974994	0
4.88	62.2022638971632	0	1	0	1	0	62.2022638971632	0
4.89	62.3789367867527	0	1	0	1	0	62.3789367867527	0
4.9	62.5561099974169	0	1	0	1	0	62.5561099974169	0
4.91	62.7337829649387	0	1	0	1	0	62.7337829649387	0
4.92	62.9119551296886	0	1	0	1	0	62.9119551296886	0
4.93	63.0906259365772	0	1	0	1	0	63.0906259365772	0
