# GHZ S RI R 50
1	51.5429794549519	0	1	0	1	0	51.5429794549519	0
1.01	51.1195035918712	0	1	0	1	0	51.1195035918712	0
1.02	50.7054646304282	0	1	0	1	0	50.7054646304282	0
1.03	50.3005988227662	0	1	0	1	0	50.3005988227662	0
1.04	49.9046525651765	0	1	0	1	0	49.9046525651765	0
1.05	49.5173819150442	0	1	0	1	0	49.5173819150442	0
1.06	49.1385521351361	0	1	0	1	0	49.1385521351361	0
1.07	48.7679372634427	0	1	0	1	0	48.7679372634427	0
1.08	48.4053197069177	0	1	0	1	0	48.4053197069177	0
1.09	48.0504898575809	0	1	0	1	0	48.0504898575809	0
1.1	47.7032457295603	0	1	0	1	0	47.7032457295603	0
1.11	47.3633926157543	0	1	0	1	0	47.3633926157543	0
1.12	47.0307427628859	0	1	0	1	0	47.0307427628859	0
1.13	46.7051150638123	0	1	0	1	0	46.7051150638123	0
1.14	46.386334766027	0	1	0	1	0	46.386334766027	0
1.15	46.0742331953717	0	1	0	1	0	46.0742331953717	0
1.16	45.7686474940382	0	1	0	1	0	45.7686474940382	0
1.17	45.4694203720069	0	1	0	1	0	45.4694203720069	0
1.18	45.1763998711229	0	1	0	1	0	45.1763998711229	0
1.19	44.8894391410688	0	1	0	1	0	44.8894391410688	0
1.2	44.6083962265375	0	1	0	1	0	44.6083962265375	0
1.21	44.3331338649596	0	1	0	1	0	44.3331338649596	0
1.22	44.0635192941775	0	1	0	1	0	44.0635192941775	0
1.23	43.7994240695024	0	1	0	1	0	43.7994240695024	0
1.24	43.5407238896224	0	1	0	1	0	43.5407238896224	0
1.25	43.2872984308677	0	1	0	1	0	43.2872984308677	0
1.26	43.0390311893675	0	1	0	1	0	43.0390311893675	0
1.27	42.7958093306641	0	1	0	1	0	42.7958093306641	0
1.28	42.5575235463768	0	1	0	1	0	42.5575235463768	0
1.29	42.324067917532	0	1	0	1	0	42.324067917532	0
1.3	42.0953397842014	0	1	0	1	0	42.0953397842014	0
1.31	41.8712396211111	0	1	0	1	0	41.8712396211111	0
1.32	41.6516709189045	0	1	0	1	0	41.6516709189045	0
1.33	41.436540070762	0	1	0	1	0	41.436540070762	0
1.34	41.2257562640975	0	1	0	1	0	41.2257562640975	0
1.35	41.0192313770682	0	1	0	1	0	41.0192313770682	0
1.36	40.8168798796502	0	1	0	1	0	40.8168798796502	0
1.37	40.6186187390465	0	1	0	1	0	40.6186187390465	0
1.38	40.4243673292079	0	1	0	1	0	40.4243673292079	0
1.39	40.2340473442593	0	1	0	1	0	40.2340473442593	0
1.4	40.0475827156363	0	1	0	1	0	40.0475827156363	0
1.41	39.8648995327479	0	1	0	1	0	39.8648995327479	0
1.42	39.6859259669917	0	1	0	1	0	39.6859259669917	0
1.43	39.5105921989568	0	1	0	1	0	39.5105921989568	0
1.44	39.3388303486606	0	1	0	1	0	39.3388303486606	0
1.45	39.1705744086715	0	1	0	1	0	39.1705744086715	0
1.46	39.0057601799809	0	1	0	1	0	39.0057601799809	0
1.47	38.8443252104918	0	1	0	1	0	38.8443252104918	0
1.48	38.686208736002	0	1	0	1	0	38.686208736002	0
1.49	38.5313516235627	0	1	0	1	0	38.5313516235627	0
1.5	38.379696317104	0	1	0	1	0	38.379696317104	0
1.51	38.23118678522	0	1	0	1	0	38.23118678522	0
1.52	38.0857684710155	0	1	0	1	0	38.0857684710155	0
1.53	37.9433882439193	0	1	0	1	0	37.9433882439193	0
1.54	37.8039943533751	0	1	0	1	0	37.8039943533751	0
1.55	37.6675363843248	0	1	0	1	0	37.6675363843248	0
1.56	37.5339652144042	0	1	0	1	0	37.5339652144042	0
1.57	37.4032329727741	0	1	0	1	0	37.4032329727741	0
1.58	37.2752930005154	0	1	0	1	0	37.2752930005154	0
1.59	37.1500998125184	0	1	0	1	0	37.1500998125184	0
1.6	37.0276090608009	0	1	0	1	0	37.0276090608009	0
1.61	36.9077774991941	0	1	0	1	0	36.9077774991941	0
1.62	36.7905629493357	0	1	0	1	0	36.7905629493357	0
1.63	36.6759242679154	0	1	0	1	0	36.6759242679154	0
1.64	36.5638213151182	0	1	0	1	0	36.5638213151182	0
1.65	36.4542149242154	0	1	0	1	0	36.4542149242154	0
1.66	36.3470668722551	0	1	0	1	0	36.3470668722551	0
1.67	36.2423398518052	0	1	0	1	0	36.2423398518052	0
1.68	36.1399974437055	0	1	0	1	0	36.1399974437055	0
1.69	36.0400040907881	0	1	0	1	0	36.0400040907881	0
1.7	35.9423250725241	0	1	0	1	0	35.9423250725241	0
1.71	35.846926480561	0	1	0	1	0	35.846926480561	0
1.72	35.7537751951123	0	1	0	1	0	35.7537751951123	0
1.73	35.6628388621671	0	1	0	1	0	35.6628388621671	0
1.74	35.574085871485	0	1	0	1	0	35.574085871485	0
1.75	35.487485335345	0	1	0	1	0	35.487485335345	0
1.76	35.40300706802	0	1	0	1	0	35.40300706802	0
1.77	35.3206215659463	0	1	0	1	0	35.3206215659463	0
1.78	35.2402999885615	0	1	0	1	0	35.2402999885615	0
1.79	35.1620141397851	0	1	0	1	0	35.1620141397851	0
1.8	35.085736450116	0	1	0	1	0	35.085736450116	0
1.81	35.0114399593242	0	1	0	1	0	35.0114399593242	0
1.82	34.9390982997118	0	1	0	1	0	34.9390982997118	0
1.83	34.8686856799244	0	1	0	1	0	34.8686856799244	0
1.84	34.800176869289	0	1	0	1	0	34.800176869289	0
1.85	34.7335471826606	0	1	0	1	0	34.7335471826606	0
1.86	34.6687724657578	0	1	0	1	0	34.6687724657578	0
1.87	34.6058290809681	0	1	0	1	0	34.6058290809681	0
1.88	34.544693893607	0	1	0	1	0	34.544693893607	0
1.89	34.485344258613	0	1	0	1	0	34.485344258613	0
1.9	34.4277580076626	0	1	0	1	0	34.4277580076626	0
1.91	34.3719134366905	0	1	0	1	0	34.3719134366905	0
1.92	34.3177892937995	0	1	0	1	0	34.3177892937995	0
1.93	34.2653647675459	0	1	0	1	0	34.2653647675459	0
1.94	34.2146194755883	0	1	0	1	0	34.2146194755883	0
1.95	34.1655334536845	0	1	0	1	0	34.1655334536845	0
1.96	34.1180871450257	0	1	0	1	0	34.1180871450257	0
1.97	34.0722613898958	0	1	0	1	0	34.0722613898958	0
1.98	34.0280374156436	0	1	0	1	0	34.0280374156436	0
1.99	33.9853968269576	0	1	0	1	0	33.9853968269576	0
2	33.9443215964326	0	1	0	1	0	33.9443215964326	0
2.01	33.9047940554178	0	1	0	1	0	33.9047940554178	0
2.02	33.8667968851363	0	1	0	1	0	33.8667968851363	0
2.03	33.8303131080685	0	1	0	1	0	33.8303131080685	0
2.04	33.7953260795867	0	1	0	1	0	33.7953260795867	0
2.05	33.761819479837	0	1	0	1	0	33.761819479837	0
2.06	33.7297773058554	0	1	0	1	0	33.7297773058554	0
2.07	33.6991838639142	0	1	0	1	0	33.6991838639142	0
2.08	33.670023762088	0	1	0	1	0	33.670023762088	0
2.09	33.6422819030338	0	1	0	1	0	33.6422819030338	0
2.1	33.6159434769771	0	1	0	1	0	33.6159434769771	0
2.11	33.5909939548972	0	1	0	1	0	33.5909939548972	0
2.12	33.5674190819061	0	1	0	1	0	33.5674190819061	0
2.13	33.5452048708131	0	1	0	1	0	33.5452048708131	0
2.14	33.5243375958703	0	1	0	1	0	33.5243375958703	0
2.15	33.5048037866926	0	1	0	1	0	33.5048037866926	0
2.16	33.4865902223465	0	1	0	1	0	33.4865902223465	0
2.17	33.4696839256023	0	1	0	1	0	33.4696839256023	0
2.18	33.4540721573446	0	1	0	1	0	33.4540721573446	0
2.19	33.4397424111359	0	1	0	1	0	33.4397424111359	0
2.2	33.4266824079286	0	1	0	1	0	33.4266824079286	0
2.21	33.4148800909201	0	1	0	1	0	33.4148800909201	0
2.22	33.4043236205476	0	1	0	1	0	33.4043236205476	0
2.23	33.3950013696172	0	1	0	1	0	33.3950013696172	0
2.24	33.3869019185633	0	1	0	1	0	33.3869019185633	0
2.25	33.3800140508349	0	1	0	1	0	33.3800140508349	0
2.26	33.3743267484042	0	1	0	1	0	33.3743267484042	0
2.27	33.3698291873932	0	1	0	1	0	33.3698291873932	0
2.28	33.366510733817	0	1	0	1	0	33.366510733817	0
2.29	33.3643609394369	0	1	0	1	0	33.3643609394369	0
2.3	33.3633695377226	0	1	0	1	0	33.3633695377226	0
2.31	33.3635264399196	0	1	0	1	0	33.3635264399196	0
2.32	33.364821731217	0	1	0	1	0	33.364821731217	0
2.33	33.3672456670155	0	1	0	1	0	33.3672456670155	0
2.34	33.3707886692902	0	1	0	1	0	33.3707886692902	0
2.35	33.3754413230462	0	1	0	1	0	33.3754413230462	0
2.36	33.3811943728649	0	1	0	1	0	33.3811943728649	0
2.37	33.3880387195373	0	1	0	1	0	33.3880387195373	0
2.38	33.3959654167823	0	1	0	1	0	33.3959654167823	0
2.39	33.4049656680473	0	1	0	1	0	33.4049656680473	0
2.4	33.415030823389	0	1	0	1	0	33.415030823389	0
2.41	33.4261523764314	0	1	0	1	0	33.4261523764314	0
2.42	33.4383219614001	0	1	0	1	0	33.4383219614001	0
2.43	33.4515313502286	0	1	0	1	0	33.4515313502286	0
2.44	33.465772449737	0	1	0	1	0	33.465772449737	0
2.45	33.4810372988786	0	1	0	1	0	33.4810372988786	0
2.46	33.4973180660551	0	1	0	1	0	33.4973180660551	0
2.47	33.5146070464953	0	1	0	1	0	33.5146070464953	0
2.48	33.5328966596986	0	1	0	1	0	33.5328966596986	0
2.49	33.5521794469397	0	1	0	1	0	33.5521794469397	0
2.5	33.5724480688326	0	1	0	1	0	33.5724480688326	0
2.51	33.5936953029538	0	1	0	1	0	33.5936953029538	0
2.52	33.6159140415215	0	1	0	1	0	33.6159140415215	0
2.53	33.6390972891298	0	1	0	1	0	33.6390972891298	0
2.54	33.6632381605367	0	1	0	1	0	33.6632381605367	0
2.55	33.688329878504	0	1	0	1	0	33.688329878504	0
2.56	33.7143657716878	0	1	0	1	0	33.7143657716878	0
2.57	33.7413392725784	0	1	0	1	0	33.7413392725784	0
2.58	33.7692439154879	0	1	0	1	0	33.7692439154879	0
2.59	33.7980733345847	0	1	0	1	0	33.7980733345847	0
2.6	33.8278212619729	0	1	0	1	0	33.8278212619729	0
2.61	33.8584815258165	0	1	0	1	0	33.8584815258165	0
2.62	33.8900480485059	0	1	0	1	0	33.8900480485059	0
2.63	33.9225148448665	0	1	0	1	0	33.9225148448665	0
2.64	33.9558760204085	0	1	0	1	0	33.9558760204085	0
2.65	33.9901257696151	0	1	0	1	0	33.9901257696151	0
2.66	34.0252583742709	0	1	0	1	0	34.0252583742709	0
2.67	34.0612682018265	0	1	0	1	0	34.0612682018265	0
2.68	34.0981497038002	0	1	0	1	0	34.0981497038002	0
2.69	34.1358974142159	0	1	0	1	0	34.1358974142159	0
2.7	34.1745059480749	0	1	0	1	0	34.1745059480749	0
2.71	34.2139699998616	0	1	0	1	0	34.2139699998616	0
2.72	34.254284342083	0	1	0	1	0	34.254284342083	0
2.73	34.2954438238392	0	1	0	1	0	34.2954438238392	0
2.74	34.337443369426	0	1	0	1	0	34.337443369426	0
2.75	34.3802779769677	0	1	0	1	0	34.3802779769677	0
2.76	34.4239427170795	0	1	0	1	0	34.4239427170795	0
2.77	34.4684327315588	0	1	0	1	0	34.4684327315588	0
2.78	34.5137432321057	0	1	0	1	0	34.5137432321057	0
2.79	34.5598694990693	0	1	0	1	0	34.5598694990693	0
2.8	34.6068068802225	0	1	0	1	0	34.6068068802225	0
2.81	34.6545507895621	0	1	0	1	0	34.6545507895621	0
2.82	34.7030967061344	0	1	0	1	0	34.7030967061344	0
2.83	34.7524401728864	0	1	0	1	0	34.7524401728864	0
2.84	34.8025767955403	0	1	0	1	0	34.8025767955403	0
2.85	34.8535022414922	0	1	0	1	0	34.8535022414922	0
2.86	34.9052122387345	0	1	0	1	0	34.9052122387345	0
2.87	34.9577025747995	0	1	0	1	0	34.9577025747995	0
2.88	35.0109690957259	0	1	0	1	0	35.0109690957259	0
2.89	35.065007705047	0	1	0	1	0	35.065007705047	0
2.9	35.1198143627987	0	1	0	1	0	35.1198143627987	0
2.91	35.1753850845494	0	1	0	1	0	35.1753850845494	0
2.92	35.2317159404486	0	1	0	1	0	35.2317159404486	0
2.93	35.2888030542955	0	1	0	1	0	35.2888030542955	0
2.94	35.346642602627	0	1	0	1	0	35.346642602627	0
2.95	35.4052308138234	0	1	0	1	0	35.4052308138234	0
2.96	35.4645639672328	0	1	0	1	0	35.4645639672328	0
2.97	35.5246383923132	0	1	0	1	0	35.5246383923132	0
2.98	35.5854504677917	0	1	0	1	0	35.5854504677917	0
2.99	35.6469966208402	0	1	0	1	0	35.6469966208402	0
3	35.7092733262687	0	1	0	1	0	35.7092733262687	0
3.01	35.7722771057332	0	1	0	1	0	35.7722771057332	0
3.02	35.8360045269608	0	1	0	1	0	35.8360045269608	0
3.03	35.900452202989	0	1	0	1	0	35.900452202989	0
3.04	35.9656167914205	0	1	0	1	0	35.9656167914205	0
3.05	36.0314949936929	0	1	0	1	0	36.0314949936929	0
3.06	36.0980835543621	0	1	0	1	0	36.0980835543621	0
3.07	36.1653792604004	0	1	0	1	0	36.1653792604004	0
3.08	36.2333789405076	0	1	0	1	0	36.2333789405076	0
3.09	36.3020794644358	0	1	0	1	0	36.3020794644358	0
3.1	36.3714777423278	0	1	0	1	0	36.3714777423278	0
3.11	36.4415707240669	0	1	0	1	0	36.4415707240669	0
3.12	36.5123553986406	0	1	0	1	0	36.5123553986406	0
3.13	36.583828793516	0	1	0	1	0	36.583828793516	0
3.14	36.6559879740265	0	1	0	1	0	36.6559879740265	0
3.15	36.7288300427715	0	1	0	1	0	36.7288300427715	0
3.16	36.8023521390259	0	1	0	1	0	36.8023521390259	0
3.17	36.8765514381626	0	1	0	1	0	36.8765514381626	0
3.18	36.951425151084	0	1	0	1	0	36.951425151084	0
3.19	37.0269705236656	0	1	0	1	0	37.0269705236656	0
3.2	37.1031848362096	0	1	0	1	0	37.1031848362096	0
3.21	37.1800654029083	0	1	0	1	0	37.1800654029083	0
3.22	37.2576095713183	0	1	0	1	0	37.2576095713183	0
3.23	37.3358147218437	0	1	0	1	0	37.3358147218437	0
3.24	37.4146782672291	0	1	0	1	0	37.4146782672291	0
3.25	37.4941976520626	0	1	0	1	0	37.4941976520626	0
3.26	37.5743703522867	0	1	0	1	0	37.5743703522867	0
3.27	37.6551938747195	0	1	0	1	0	37.6551938747195	0
3.28	37.7366657565837	0	1	0	1	0	37.7366657565837	0
3.29	37.8187835650443	0	1	0	1	0	37.8187835650443	0
3.3	37.9015448967556	0	1	0	1	0	37.9015448967556	0
3.31	37.9849473774152	0	1	0	1	0	37.9849473774152	0
3.32	38.0689886613267	0	1	0	1	0	38.0689886613267	0
3.33	38.1536664309702	0	1	0	1	0	38.1536664309702	0
3.34	38.2389783965806	0	1	0	1	0	38.2389783965806	0
3.35	38.3249222957334	0	1	0	1	0	38.3249222957334	0
3.36	38.4114958929376	0	1	0	1	0	38.4114958929376	0
3.37	38.4986969792361	0	1	0	1	0	38.4986969792361	0
3.38	38.5865233718134	0	1	0	1	0	38.5865233718134	0
3.39	38.6749729136101	0	1	0	1	0	38.6749729136101	0
3.4	38.7640434729438	0	1	0	1	0	38.7640434729438	0
3.41	38.8537329431372	0	1	0	1	0	38.8537329431372	0
3.42	38.9440392421524	0	1	0	1	0	38.9440392421524	0
3.43	39.0349603122321	0	1	0	1	0	39.0349603122321	0
3.44	39.1264941195461	0	1	0	1	0	39.1264941195461	0
3.45	39.218638653845	0	1	0	1	0	39.218638653845	0
3.46	39.3113919281193	0	1	0	1	0	39.3113919281193	0
3.47	39.4047519782644	0	1	0	1	0	39.4047519782644	0
3.48	39.4987168627517	0	1	0	1	0	39.4987168627517	0
3.49	39.5932846623052	0	1	0	1	0	39.5932846623052	0
3.5	39.6884534795831	0	1	0	1	0	39.6884534795831	0
3.51	39.7842214388662	0	1	0	1	0	39.7842214388662	0
3.52	39.8805866857498	0	1	0	1	0	39.8805866857498	0
3.53	39.9775473868428	0	1	0	1	0	39.9775473868428	0
3.54	40.07510172947	0	1	0	1	0	40.07510172947	0
3.55	40.1732479213808	0	1	0	1	0	40.1732479213808	0
3.56	40.2719841904623	0	1	0	1	0	40.2719841904623	0
3.57	40.3713087844573	0	1	0	1	0	40.3713087844573	0
3.58	40.4712199706867	0	1	0	1	0	40.4712199706867	0
3.59	40.5717160357771	0	1	0	1	0	40.5717160357771	0
3.6	40.6727952853926	0	1	0	1	0	40.6727952853926	0
3.61	40.774456043971	0	1	0	1	0	40.774456043971	0
3.62	40.8766966544648	0	1	0	1	0	40.8766966544648	0
3.63	40.9795154780859	0	1	0	1	0	40.9795154780859	0
3.64	41.0829108940546	0	1	0	1	0	41.0829108940546	0
3.65	41.1868812993537	0	1	0	1	0	41.1868812993537	0
3.66	41.2914251084847	0	1	0	1	0	41.2914251084847	0
3.67	41.3965407532303	0	1	0	1	0	41.3965407532303	0
3.68	41.5022266824186	0	1	0	1	0	41.5022266824186	0
3.69	41.6084813616928	0	1	0	1	0	41.6084813616928	0
3.7	41.7153032732838	0	1	0	1	0	41.7153032732838	0
3.71	41.8226909157864	0	1	0	1	0	41.8226909157864	0
3.72	41.9306428039396	0	1	0	1	0	41.9306428039396	0
3.73	42.0391574684102	0	1	0	1	0	42.0391574684102	0
3.74	42.1482334555798	0	1	0	1	0	42.1482334555798	0
3.75	42.2578693273351	0	1	0	1	0	42.2578693273351	0
3.76	42.368063660862	0	1	0	1	0	42.368063660862	0
3.77	42.4788150484427	0	1	0	1	0	42.4788150484427	0
3.78	42.5901220972556	0	1	0	1	0	42.5901220972556	0
3.79	42.7019834291793	0	1	0	1	0	42.7019834291793	0
3.8	42.8143976805988	0	1	0	1	0	42.8143976805988	0
3.81	42.9273635022154	0	1	0	1	0	42.9273635022154	0
3.82	43.040879558859	0	1	0	1	0	43.040879558859	0
3.83	43.154944529304	0	1	0	1	0	43.154944529304	0
3.84	43.2695571060874	0	1	0	1	0	43.2695571060874	0
3.85	43.3847159953305	0	1	0	1	0	43.3847159953305	0
3.86	43.5004199165625	0	1	0	1	0	43.5004199165625	0
3.87	43.6166676025473	0	1	0	1	0	43.6166676025473	0
3.88	43.7334577991133	0	1	0	1	0	43.7334577991133	0
3.89	43.8507892649852	0	1	0	1	0	43.8507892649852	0
3.9	43.9686607716188	0	1	0	1	0	43.9686607716188	0
3.91	44.087071103038	0	1	0	1	0	44.087071103038	0
3.92	44.2060190556746	0	1	0	1	0	44.2060190556746	0
3.93	44.3255034382107	0	1	0	1	0	44.3255034382107	0
3.94	44.4455230714227	0	1	0	1	0	44.4455230714227	0
3.95	44.5660767880287	0	1	0	1	0	44.5660767880287	0
3.96	44.6871634325374	0	1	0	1	0	44.6871634325374	0
3.97	44.8087818610999	0	1	0	1	0	44.8087818610999	0
3.98	44.930930941363	0	1	0	1	0	44.930930941363	0
3.99	45.0536095523258	0	1	0	1	0	45.0536095523258	0
4	45.1768165841969	0	1	0	1	0	45.1768165841969	0
4.01	45.3005509382557	0	1	0	1	0	45.3005509382557	0
4.02	45.4248115267137	0	1	0	1	0	45.4248115267137	0
4.03	45.5495972725795	0	1	0	1	0	45.5495972725795	0
4.04	45.674907109525	0	1	0	1	0	45.674907109525	0
4.05	45.8007399817537	0	1	0	1	0	45.8007399817537	0
4.06	45.9270948438709	0	1	0	1	0	45.9270948438709	0
4.07	46.0539706607563	0	1	0	1	0	46.0539706607563	0
4.08	46.1813664074377	0	1	0	1	0	46.1813664074377	0
4.09	46.309281068967	0	1	0	1	0	46.309281068967	0
4.1	46.4377136402982	0	1	0	1	0	46.4377136402982	0
4.11	46.5666631261667	0	1	0	1	0	46.5666631261667	0
4.12	46.6961285409707	0	1	0	1	0	46.6961285409707	0
4.13	46.826108908654	0	1	0	1	0	46.826108908654	0
4.14	46.9566032625911	0	1	0	1	0	46.9566032625911	0
4.15	47.0876106454733	0	1	0	1	0	47.0876106454733	0
4.16	47.2191301091968	0	1	0	1	0	47.2191301091968	0
4.17	47.3511607147524	0	1	0	1	0	47.3511607147524	0
4.18	47.4837015321164	0	1	0	1	0	47.4837015321164	0
4.19	47.6167516401438	0	1	0	1	0	47.6167516401438	0
4.2	47.7503101264624	0	1	0	1	0	47.7503101264624	0
4.21	47.8843760873687	0	1	0	1	0	47.8843760873687	0
4.22	48.0189486277248	0	1	0	1	0	48.0189486277248	0
4.23	48.1540268608577	0	1	0	1	0	48.1540268608577	0
4.24	48.2896099084592	0	1	0	1	0	48.2896099084592	0
4.25	48.4256969004876	0	1	0	1	0	48.4256969004876	0
4.26	48.5622869750705	0	1	0	1	0	48.5622869750705	0
4.27	48.6993792784093	0	1	0	1	0	48.6993792784093	0
4.28	48.8369729646848	0	1	0	1	0	48.8369729646848	0
4.29	48.9750671959641	0	1	0	1	0	48.9750671959641	0
4.3	49.1136611421094	0	1	0	1	0	49.1136611421094	0
4.31	49.2527539806867	0	1	0	1	0	49.2527539806867	0
4.32	49.3923448968776	0	1	0	1	0	49.3923448968776	0
4.33	49.5324330833905	0	1	0	1	0	49.5324330833905	0
4.34	49.6730177403745	0	1	0	1	0	49.6730177403745	0
4.35	49.8140980753336	0	1	0	1	0	49.8140980753336	0
4.36	49.9556733030425	0	1	0	1	0	49.9556733030425	0
4.37	50.0977426454631	0	1	0	1	0	50.0977426454631	0
4.38	50.2403053316628	0	1	0	1	0	50.2403053316628	0
4.39	50.3833605977335	0	1	0	1	0	50.3833605977335	0
4.4	50.5269076867116	0	1	0	1	0	50.5269076867116	0
4.41	50.6709458484994	0	1	0	1	0	50.6709458484994	0
4.42	50.8154743397876	0	1	0	1	0	50.8154743397876	0
4.43	50.9604924239782	0	1	0	1	0	50.9604924239782	0
4.44	51.1059993711094	0	1	0	1	0	51.1059993711094	0
4.45	51.2519944577809	0	1	0	1	0	51.2519944577809	0
4.46	51.3984769670801	0	1	0	1	0	51.3984769670801	0
4.47	51.5454461885098	0	1	0	1	0	51.5454461885098	0
4.48	51.6929014179168	0	1	0	1	0	51.6929014179168	0
4.49	51.8408419574205	0	1	0	1	0	51.8408419574205	0
4.5	51.9892671153441	0	1	0	1	0	51.9892671153441	0
4.51	52.1381762061451	0	1	0	1	0	52.1381762061451	0
4.52	52.2875685503479	0	1	0	1	0	52.2875685503479	0
4.53	52.4374434744768	0	1	0	1	0	52.4374434744768	0
4.54	52.5878003109895	0	1	0	1	0	52.5878003109895	0
4.55	52.7386383982125	0	1	0	1	0	52.7386383982125	0
4.56	52.8899570802763	0	1	0	1	0	52.8899570802763	0
4.57	53.041755707052	0	1	0	1	0	53.041755707052	0
4.58	53.1940336340889	0	1	0	1	0	53.1940336340889	0
4.59	53.3467902225521	0	1	0	1	0	53.3467902225521	0
4.6	53.5000248391622	0	1	0	1	0	53.5000248391622	0
4.61	53.6537368561343	0	1	0	1	0	53.6537368561343	0
4.62	53.8079256511189	0	1	0	1	0	53.8079256511189	0
4.63	53.9625906071434	0	1	0	1	0	53.9625906071434	0
4.64	54.1177311125537	0	1	0	1	0	54.1177311125537	0
4.65	54.2733465609573	0	1	0	1	0	54.2733465609573	0
4.66	54.4294363511669	0	1	0	1	0	54.4294363511669	0
4.67	54.5859998871443	0	1	0	1	0	54.5859998871443	0
4.68	54.7430365779459	0	1	0	1	0	54.7430365779459	0
4.69	54.900545837668	0	1	0	1	0	54.900545837668	0
4.7	55.0585270853933	0	1	0	1	0	55.0585270853933	0
4.71	55.2169797451382	0	1	0	1	0	55.2169797451382	0
4.72	55.3759032458	0	1	0	1	0	55.3759032458	0
4.73	55.5352970211058	0	1	0	1	0	55.5352970211058	0
4.74	55.6951605095613	0	1	0	1	0	55.6951605095613	0
4.75	55.8554931544006	0	1	0	1	0	55.8554931544006	0
4.76	56.0162944035366	0	1	0	1	0	56.0162944035366	0
4.77	56.1775637095118	0	1	0	1	0	56.1775637095118	0
4.78	56.3393005294498	0	1	0	1	0	56.3393005294498	0
4.79	56.5015043250078	0	1	0	1	0	56.5015043250078	0
4.8	56.6641745623291	0	1	0	1	0	56.6641745623291	0
4.81	56.8273107119966	0	1	0	1	0	56.8273107119966	0
4.82	56.9909122489866	0	1	0	1	0	56.9909122489866	0
4.83	57.1549786526236	0	1	0	1	0	57.1549786526236	0
4.84	57.3195094065351	0	1	0	1	0	57.3195094065351	0
4.85	57.4845039986072	0	1	0	1	0	57.4845039986072	0
4.86	57.6499619209412	0	1	0	1	0	57.6499619209412	0
4.87	57.8158826698099	0	1	0	1	0	57.8158826698099	0
4.88	57.9822657456151	0	1	0	1	0	57.9822657456151	0
4.89	58.1491106528451	0	1	0	1	0	58.1491106528451	0
4.9	58.3164169000334	0	1	0	1	0	58.3164169000334	0
4.91	58.4841839997172	0	1	0	1	0	58.4841839997172	0
4.92	58.6524114683969	0	1	0	1	0	58.6524114683969	0
4.93	58.8210988264957	0	1	0	1	0	58.8210988264957	0
