# GHZ S RI R 50
1	58.153448098748	0	1	0	1	0	58.153448098748	0
1.01	57.6710701037953	0	1	0	1	0	57.6710701037953	0
1.02	57.1993227038003	0	1	0	1	0	57.1993227038003	0
1.03	56.7379077630735	0	1	0	1	0	56.7379077630735	0
1.04	56.2865386126828	0	1	0	1	0	56.2865386126828	0
1.05	55.8449395044174	0	1	0	1	0	55.8449395044174	0
1.06	55.4128450956593	0	1	0	1	0	55.4128450956593	0
1.07	54.9899999631408	0	1	0	1	0	54.9899999631408	0
1.08	54.576158143715	0	1	0	1	0	54.576158143715	0
1.09	54.1710827004057	0	1	0	1	0	54.1710827004057	0
1.1	53.7745453121268	0	1	0	1	0	53.7745453121268	0
1.11	53.386325885579	0	1	0	1	0	53.386325885579	0
1.12	53.0062121879378	0	1	0	1	0	53.0062121879378	0
1.13	52.6339994990455	0	1	0	1	0	52.6339994990455	0
1.14	52.2694902819073	0	1	0	1	0	52.2694902819073	0
1.15	51.9124938703808	0	1	0	1	0	51.9124938703808	0
1.16	51.562826173018	0	1	0	1	0	51.562826173018	0
1.17	51.2203093920956	0	1	0	1	0	51.2203093920956	0
1.18	50.8847717569318	0	1	0	1	0	50.8847717569318	0
1.19	50.5560472706492	0	1	0	1	0	50.5560472706492	0
1.2	50.2339754695998	0	1	0	1	0	50.2339754695998	0
1.21	49.9184011947188	0	1	0	1	0	49.9184011947188	0
1.22	49.6091743741239	0	1	0	1	0	49.6091743741239	0
1.23	49.3061498163193	0	1	0	1	0	49.3061498163193	0
1.24	49.0091870134059	0	1	0	1	0	49.0091870134059	0
1.25	48.718149953737	0	1	0	1	0	48.718149953737	0
1.26	48.4329069434964	0	1	0	1	0	48.4329069434964	0
1.27	48.1533304367045	0	1	0	1	0	48.1533304367045	0
1.28	47.8792968731933	0	1	0	1	0	47.8792968731933	0
1.29	47.6106865241183	0	1	0	1	0	47.6106865241183	0
1.3	47.347383344599	0	1	0	1	0	47.347383344599	0
1.31	47.0892748331102	0	1	0	1	0	47.0892748331102	0
1.32	46.8362518972641	0	1	0	1	0	46.8362518972641	0
1.33	46.5882087256464	0	1	0	1	0	46.5882087256464	0
1.34	46.3450426653931	0	1	0	1	0	46.3450426653931	0
1.35	46.106654105206	0	1	0	1	0	46.106654105206	0
1.36	45.8729463635314	0	1	0	1	0	45.8729463635314	0
1.37	45.6438255816344	0	1	0	1	0	45.6438255816344	0
1.38	45.4192006213231	0	1	0	1	0	45.4192006213231	0
1.39	45.1989829670878	0	1	0	1	0	45.1989829670878	0
1.4	44.9830866324329	0	1	0	1	0	44.9830866324329	0
1.41	44.7714280701962	0	1	0	1	0	44.7714280701962	0
1.42	44.5639260866566	0	1	0	1	0	44.5639260866566	0
1.43	44.3605017592463	0	1	0	1	0	44.3605017592463	0
1.44	44.1610783576907	0	1	0	1	0	44.1610783576907	0
1.45	43.9655812684127	0	1	0	1	0	43.9655812684127	0
1.46	43.7739379220427	0	1	0	1	0	43.7739379220427	0
1.47	43.5860777238877	0	1	0	1	0	43.5860777238877	0
1.48	43.4019319872195	0	1	0	1	0	43.4019319872195	0
1.49	43.2214338692489	0	1	0	1	0	43.2214338692489	0
1.5	43.0445183096612	0	1	0	1	0	43.0445183096612	0
1.51	42.8711219715934	0	1	0	1	0	42.8711219715934	0
1.52	42.7011831849425	0	1	0	1	0	42.7011831849425	0
1.53	42.5346418918954	0	1	0	1	0	42.5346418918954	0
1.54	42.3714395945824	0	1	0	1	0	42.3714395945824	0
1.55	42.2115193047562	0	1	0	1	0	42.2115193047562	0
1.56	42.0548254954066	0	1	0	1	0	42.0548254954066	0
1.57	41.9013040542242	0	1	0	1	0	41.9013040542242	0
1.58	41.7509022388316	0	1	0	1	0	41.7509022388316	0
1.59	41.6035686337038	0	1	0	1	0	41.6035686337038	0
1.6	41.4592531087036	0	1	0	1	0	41.4592531087036	0
1.61	41.3179067791633	0	1	0	1	0	41.3179067791633	0
1.62	41.1794819674439	0	1	0	1	0	41.1794819674439	0
1.63	41.0439321659098	0	1	0	1	0	41.0439321659098	0
1.64	40.9112120012582	0	1	0	1	0	40.9112120012582	0
1.65	40.7812772001448	0	1	0	1	0	40.7812772001448	0
1.66	40.6540845560532	0	1	0	1	0	40.6540845560532	0
1.67	40.5295918973534	0	1	0	1	0	40.5295918973534	0
1.68	40.407758056502	0	1	0	1	0	40.407758056502	0
1.69	40.2885428403351	0	1	0	1	0	40.2885428403351	0
1.7	40.1719070014105	0	1	0	1	0	40.1719070014105	0
1.71	40.0578122103549	0	1	0	1	0	40.0578122103549	0
1.72	39.9462210291754	0	1	0	1	0	39.9462210291754	0
1.73	39.8370968854978	0	1	0	1	0	39.8370968854978	0
1.74	39.730404047692	0	1	0	1	0	39.730404047692	0
1.75	39.6261076008508	0	1	0	1	0	39.6261076008508	0
1.76	39.5241734235878	0	1	0	1	0	39.5241734235878	0
1.77	39.4245681656212	0	1	0	1	0	39.4245681656212	0
1.78	39.3272592261139	0	1	0	1	0	39.3272592261139	0
1.79	39.2322147327389	0	1	0	1	0	39.2322147327389	0
1.8	39.1394035214434	0	1	0	1	0	39.1394035214434	0
1.81	39.0487951168827	0	1	0	1	0	39.0487951168827	0
1.82	38.9603597135001	0	1	0	1	0	38.9603597135001	0
1.83	38.8740681572264	0	1	0	1	0	38.8740681572264	0
1.84	38.7898919277764	0	1	0	1	0	38.7898919277764	0
1.85	38.7078031215199	0	1	0	1	0	38.7078031215199	0
1.86	38.6277744349047	0	1	0	1	0	38.6277744349047	0
1.87	38.5497791484117	0	1	0	1	0	38.5497791484117	0
1.88	38.4737911110224	0	1	0	1	0	38.4737911110224	0
1.89	38.3997847251788	0	1	0	1	0	38.3997847251788	0
1.9	38.3277349322191	0	1	0	1	0	38.3277349322191	0
1.91	38.2576171982699	0	1	0	1	0	38.2576171982699	0
1.92	38.1894075005806	0	1	0	1	0	38.1894075005806	0
1.93	38.123082314281	0	1	0	1	0	38.123082314281	0
1.94	38.05861859955	0	1	0	1	0	38.05861859955	0
1.95	37.9959937891782	0	1	0	1	0	37.9959937891782	0
1.96	37.9351857765116	0	1	0	1	0	37.9351857765116	0
1.97	37.8761729037619	0	1	0	1	0	37.8761729037619	0
1.98	37.8189339506723	0	1	0	1	0	37.8189339506723	0
1.99	37.7634481235236	0	1	0	1	0	37.7634481235236	0
2	37.7096950444711	0	1	0	1	0	37.7096950444711	0
2.01	37.6576547411991	0	1	0	1	0	37.6576547411991	0
2.02	37.6073076368836	0	1	0	1	0	37.6073076368836	0
2.03	37.5586345404508	0	1	0	1	0	37.5586345404508	0
2.04	37.5116166371221	0	1	0	1	0	37.5116166371221	0
2.05	37.4662354792371	0	1	0	1	0	37.4662354792371	0
2.06	37.4224729773419	0	1	0	1	0	37.4224729773419	0
2.07	37.3803113915376	0	1	0	1	0	37.3803113915376	0
2.08	37.3397333230769	0	1	0	1	0	37.3397333230769	0
2.09	37.3007217062032	0	1	0	1	0	37.3007217062032	0
2.1	37.2632598002218	0	1	0	1	0	37.2632598002218	0
2.11	37.2273311817969	0	1	0	1	0	37.2273311817969	0
2.12	37.1929197374674	0	1	0	1	0	37.1929197374674	0
2.13	37.160009656372	0	1	0	1	0	37.160009656372	0
2.14	37.1285854231799	0	1	0	1	0	37.1285854231799	0
2.15	37.0986318112173	0	1	0	1	0	37.0986318112173	0
2.16	37.070133875786	0	1	0	1	0	37.070133875786	0
2.17	37.043076947666	0	1	0	1	0	37.043076947666	0
2.18	37.0174466267975	0	1	0	1	0	37.0174466267975	0
2.19	36.9932287761352	0	1	0	1	0	36.9932287761352	0
2.2	36.9704095156713	0	1	0	1	0	36.9704095156713	0
2.21	36.9489752166196	0	1	0	1	0	36.9489752166196	0
2.22	36.9289124957578	0	1	0	1	0	36.9289124957578	0
2.23	36.9102082099213	0	1	0	1	0	36.9102082099213	0
2.24	36.8928494506448	0	1	0	1	0	36.8928494506448	0
2.25	36.876823538947	0	1	0	1	0	36.876823538947	0
2.26	36.8621180202533	0	1	0	1	0	36.8621180202533	0
2.27	36.8487206594529	0	1	0	1	0	36.8487206594529	0
2.28	36.8366194360861	0	1	0	1	0	36.8366194360861	0
2.29	36.8258025396576	0	1	0	1	0	36.8258025396576	0
2.3	36.8162583650719	0	1	0	1	0	36.8162583650719	0
2.31	36.8079755081877	0	1	0	1	0	36.8079755081877	0
2.32	36.8009427614867	0	1	0	1	0	36.8009427614867	0
2.33	36.7951491098544	0	1	0	1	0	36.7951491098544	0
2.34	36.7905837264688	0	1	0	1	0	36.7905837264688	0
2.35	36.7872359687944	0	1	0	1	0	36.7872359687944	0
2.36	36.7850953746774	0	1	0	1	0	36.7850953746774	0
2.37	36.7841516585407	0	1	0	1	0	36.7841516585407	0
2.38	36.7843947076738	0	1	0	1	0	36.7843947076738	0
2.39	36.7858145786168	0	1	0	1	0	36.7858145786168	0
2.4	36.7884014936339	0	1	0	1	0	36.7884014936339	0
2.41	36.7921458372756	0	1	0	1	0	36.7921458372756	0
2.42	36.7970381530253	0	1	0	1	0	36.7970381530253	0
2.43	36.8030691400294	0	1	0	1	0	36.8030691400294	0
2.44	36.810229649907	0	1	0	1	0	36.810229649907	0
2.45	36.8185106836388	0	1	0	1	0	36.8185106836388	0
2.46	36.827903388531	0	1	0	1	0	36.827903388531	0
2.47	36.838399055253	0	1	0	1	0	36.838399055253	0
2.48	36.8499891149477	0	1	0	1	0	36.8499891149477	0
2.49	36.8626651364098	0	1	0	1	0	36.8626651364098	0
2.5	36.8764188233338	0	1	0	1	0	36.8764188233338	0
2.51	36.8912420116259	0	1	0	1	0	36.8912420116259	0
2.52	36.9071266667812	0	1	0	1	0	36.9071266667812	0
2.53	36.9240648813226	0	1	0	1	0	36.9240648813226	0
2.54	36.9420488723001	0	1	0	1	0	36.9420488723001	0
2.55	36.9610709788493	0	1	0	1	0	36.9610709788493	0
2.56	36.9811236598066	0	1	0	1	0	36.9811236598066	0
2.57	37.0021994913808	0	1	0	1	0	37.0021994913808	0
2.58	37.0242911648782	0	1	0	1	0	37.0242911648782	0
2.59	37.0473914844807	0	1	0	1	0	37.0473914844807	0
2.6	37.0714933650749	0	1	0	1	0	37.0714933650749	0
2.61	37.0965898301318	0	1	0	1	0	37.0965898301318	0
2.62	37.122674009634	0	1	0	1	0	37.122674009634	0
2.63	37.1497391380514	0	1	0	1	0	37.1497391380514	0
2.64	37.1777785523616	0	1	0	1	0	37.1777785523616	0
2.65	37.2067856901163	0	1	0	1	0	37.2067856901163	0
2.66	37.2367540875506	0	1	0	1	0	37.2367540875506	0
2.67	37.267677377735	0	1	0	1	0	37.267677377735	0
2.68	37.2995492887688	0	1	0	1	0	37.2995492887688	0
2.69	37.3323636420139	0	1	0	1	0	37.3323636420139	0
2.7	37.3661143503674	0	1	0	1	0	37.3661143503674	0
2.71	37.400795416573	0	1	0	1	0	37.400795416573	0
2.72	37.4364009315693	0	1	0	1	0	37.4364009315693	0
2.73	37.4729250728747	0	1	0	1	0	37.4729250728747	0
2.74	37.5103621030072	0	1	0	1	0	37.5103621030072	0
2.75	37.5487063679391	0	1	0	1	0	37.5487063679391	0
2.76	37.5879522955852	0	1	0	1	0	37.5879522955852	0
2.77	37.6280943943235	0	1	0	1	0	37.6280943943235	0
2.78	37.6691272515482	0	1	0	1	0	37.6691272515482	0
2.79	37.7110455322537	0	1	0	1	0	37.7110455322537	0
2.8	37.7538439776486	0	1	0	1	0	37.7538439776486	0
2.81	37.7975174037998	0	1	0	1	0	37.7975174037998	0
2.82	37.8420607003053	0	1	0	1	0	37.8420607003053	0
2.83	37.8874688289946	0	1	0	1	0	37.8874688289946	0
2.84	37.9337368226577	0	1	0	1	0	37.9337368226577	0
2.85	37.9808597837996	0	1	0	1	0	37.9808597837996	0
2.86	38.0288328834218	0	1	0	1	0	38.0288328834218	0
2.87	38.0776513598291	0	1	0	1	0	38.0776513598291	0
2.88	38.1273105174605	0	1	0	1	0	38.1273105174605	0
2.89	38.177805725746	0	1	0	1	0	38.177805725746	0
2.9	38.2291324179852	0	1	0	1	0	38.2291324179852	0
2.91	38.2812860902502	0	1	0	1	0	38.2812860902502	0
2.92	38.3342623003109	0	1	0	1	0	38.3342623003109	0
2.93	38.3880566665819	0	1	0	1	0	38.3880566665819	0
2.94	38.4426648670913	0	1	0	1	0	38.4426648670913	0
2.95	38.4980826384701	0	1	0	1	0	38.4980826384701	0
2.96	38.5543057749623	0	1	0	1	0	38.5543057749623	0
2.97	38.6113301274554	0	1	0	1	0	38.6113301274554	0
2.98	38.6691516025293	0	1	0	1	0	38.6691516025293	0
2.99	38.7277661615257	0	1	0	1	0	38.7277661615257	0
3	38.7871698196348	0	1	0	1	0	38.7871698196348	0
3.01	38.8473586450014	0	1	0	1	0	38.8473586450014	0
3.02	38.9083287578475	0	1	0	1	0	38.9083287578475	0
3.03	38.9700763296136	0	1	0	1	0	38.9700763296136	0
3.04	39.0325975821157	0	1	0	1	0	39.0325975821157	0
3.05	39.0958887867201	0	1	0	1	0	39.0958887867201	0
3.06	39.1599462635331	0	1	0	1	0	39.1599462635331	0
3.07	39.2247663806075	0	1	0	1	0	39.2247663806075	0
3.08	39.2903455531646	0	1	0	1	0	39.2903455531646	0
3.09	39.3566802428301	0	1	0	1	0	39.3566802428301	0
3.1	39.4237669568866	0	1	0	1	0	39.4237669568866	0
3.11	39.4916022475388	0	1	0	1	0	39.4916022475388	0
3.12	39.5601827111941	0	1	0	1	0	39.5601827111941	0
3.13	39.6295049877561	0	1	0	1	0	39.6295049877561	0
3.14	39.6995657599324	0	1	0	1	0	39.6995657599324	0
3.15	39.7703617525547	0	1	0	1	0	39.7703617525547	0
3.16	39.8418897319127	0	1	0	1	0	39.8418897319127	0
3.17	39.9141465051	0	1	0	1	0	39.9141465051	0
3.18	39.9871289193726	0	1	0	1	0	39.9871289193726	0
3.19	40.0608338615191	0	1	0	1	0	40.0608338615191	0
3.2	40.1352582572434	0	1	0	1	0	40.1352582572434	0
3.21	40.2103990705585	0	1	0	1	0	40.2103990705585	0
3.22	40.2862533031913	0	1	0	1	0	40.2862533031913	0
3.23	40.3628179939992	0	1	0	1	0	40.3628179939992	0
3.24	40.4400902183969	0	1	0	1	0	40.4400902183969	0
3.25	40.5180670877937	0	1	0	1	0	40.5180670877937	0
3.26	40.5967457490422	0	1	0	1	0	40.5967457490422	0
3.27	40.6761233838956	0	1	0	1	0	40.6761233838956	0
3.28	40.7561972084759	0	1	0	1	0	40.7561972084759	0
3.29	40.8369644727519	0	1	0	1	0	40.8369644727519	0
3.3	40.918422460026	0	1	0	1	0	40.918422460026	0
3.31	41.0005684864305	0	1	0	1	0	41.0005684864305	0
3.32	41.083399900434	0	1	0	1	0	41.083399900434	0
3.33	41.1669140823549	0	1	0	1	0	41.1669140823549	0
3.34	41.2511084438851	0	1	0	1	0	41.2511084438851	0
3.35	41.3359804276218	0	1	0	1	0	41.3359804276218	0
3.36	41.4215275066075	0	1	0	1	0	41.4215275066075	0
3.37	41.5077471838781	0	1	0	1	0	41.5077471838781	0
3.38	41.5946369920194	0	1	0	1	0	41.5946369920194	0
3.39	41.6821944927313	0	1	0	1	0	41.6821944927313	0
3.4	41.7704172763996	0	1	0	1	0	41.7704172763996	0
3.41	41.8593029616752	0	1	0	1	0	41.8593029616752	0
3.42	41.9488491950613	0	1	0	1	0	41.9488491950613	0
3.43	42.039053650507	0	1	0	1	0	42.039053650507	0
3.44	42.1299140290084	0	1	0	1	0	42.1299140290084	0
3.45	42.2214280582168	0	1	0	1	0	42.2214280582168	0
3.46	42.3135934920535	0	1	0	1	0	42.3135934920535	0
3.47	42.4064081103311	0	1	0	1	0	42.4064081103311	0
3.48	42.4998697183816	0	1	0	1	0	42.4998697183816	0
3.49	42.5939761466909	0	1	0	1	0	42.5939761466909	0
3.5	42.6887252505393	0	1	0	1	0	42.6887252505393	0
3.51	42.7841149096482	0	1	0	1	0	42.7841149096482	0
3.52	42.8801430278332	0	1	0	1	0	42.8801430278332	0
3.53	42.9768075326627	0	1	0	1	0	42.9768075326627	0
3.54	43.0741063751224	0	1	0	1	0	43.0741063751224	0
3.55	43.1720375292855	0	1	0	1	0	43.1720375292855	0
3.56	43.2705989919884	0	1	0	1	0	43.2705989919884	0
3.57	43.3697887825119	0	1	0	1	0	43.3697887825119	0
3.58	43.4696049422678	0	1	0	1	0	43.4696049422678	0
3.59	43.5700455344904	0	1	0	1	0	43.5700455344904	0
3.6	43.671108643934	0	1	0	1	0	43.671108643934	0
3.61	43.7727923765741	0	1	0	1	0	43.7727923765741	0
3.62	43.8750948593148	0	1	0	1	0	43.8750948593148	0
3.63	43.9780142397004	0	1	0	1	0	43.9780142397004	0
3.64	44.0815486856318	0	1	0	1	0	44.0815486856318	0
3.65	44.1856963850877	0	1	0	1	0	44.1856963850877	0
3.66	44.2904555458504	0	1	0	1	0	44.2904555458504	0
3.67	44.3958243952357	0	1	0	1	0	44.3958243952357	0
3.68	44.501801179828	0	1	0	1	0	44.501801179828	0
3.69	44.6083841652186	0	1	0	1	0	44.6083841652186	0
3.7	44.7155716357495	0	1	0	1	0	44.7155716357495	0
3.71	44.82336189426	0	1	0	1	0	44.82336189426	0
3.72	44.9317532618388	0	1	0	1	0	44.9317532618388	0
3.73	45.0407440775787	0	1	0	1	0	45.0407440775787	0
3.74	45.1503326983364	0	1	0	1	0	45.1503326983364	0
3.75	45.2605174984953	0	1	0	1	0	45.2605174984953	0
3.76	45.3712968697329	0	1	0	1	0	45.3712968697329	0
3.77	45.4826692207908	0	1	0	1	0	45.4826692207908	0
3.78	45.5946329772495	0	1	0	1	0	45.5946329772495	0
3.79	45.707186581306	0	1	0	1	0	45.707186581306	0
3.8	45.8203284915551	0	1	0	1	0	45.8203284915551	0
3.81	45.9340571827747	0	1	0	1	0	45.9340571827747	0
3.82	46.0483711457133	0	1	0	1	0	46.0483711457133	0
3.83	46.1632688868818	0	1	0	1	0	46.1632688868818	0
3.84	46.2787489283484	0	1	0	1	0	46.2787489283484	0
3.85	46.3948098075365	0	1	0	1	0	46.3948098075365	0
3.86	46.5114500770256	0	1	0	1	0	46.5114500770256	0
3.87	46.6286683043556	0	1	0	1	0	46.6286683043556	0
3.88	46.7464630718342	0	1	0	1	0	46.7464630718342	0
3.89	46.8648329763468	0	1	0	1	0	46.8648329763468	0
3.9	46.9837766291696	0	1	0	1	0	46.9837766291696	0
3.91	47.103292655786	0	1	0	1	0	47.103292655786	0
3.92	47.2233796957047	0	1	0	1	0	47.2233796957047	0
3.93	47.344036402282	0	1	0	1	0	47.344036402282	0
3.94	47.4652614425455	0	1	0	1	0	47.4652614425455	0
3.95	47.5870534970213	0	1	0	1	0	47.5870534970213	0
3.96	47.7094112595635	0	1	0	1	0	47.7094112595635	0
3.97	47.8323334371863	0	1	0	1	0	47.8323334371863	0
3.98	47.955818749899	0	1	0	1	0	47.955818749899	0
3.99	48.0798659305426	0	1	0	1	0	48.0798659305426	0
4	48.2044737246298	0	1	0	1	0	48.2044737246298	0
4.01	48.3296408901868	0	1	0	1	0	48.3296408901868	0
4.02	48.455366197598	0	1	0	1	0	48.455366197598	0
4.03	48.5816484294521	0	1	0	1	0	48.5816484294521	0
4.04	48.7084863803916	0	1	0	1	0	48.7084863803916	0
4.05	48.8358788569637	0	1	0	1	0	48.8358788569637	0
4.06	48.9638246774737	0	1	0	1	0	48.9638246774737	0
4.07	49.0923226718407	0	1	0	1	0	49.0923226718407	0
4.08	49.2213716814551	0	1	0	1	0	49.2213716814551	0
4.09	49.3509705590384	0	1	0	1	0	49.3509705590384	0
4.1	49.4811181685054	0	1	0	1	0	49.4811181685054	0
4.11	49.6118133848271	0	1	0	1	0	49.6118133848271	0
4.12	49.7430550938978	0	1	0	1	0	49.7430550938978	0
4.13	49.8748421924015	0	1	0	1	0	49.8748421924015	0
4.14	50.0071735876827	0	1	0	1	0	50.0071735876827	0
4.15	50.1400481976174	0	1	0	1	0	50.1400481976174	0
4.16	50.2734649504867	0	1	0	1	0	50.2734649504867	0
4.17	50.4074227848517	0	1	0	1	0	50.4074227848517	0
4.18	50.5419206494312	0	1	0	1	0	50.5419206494312	0
4.19	50.6769575029799	0	1	0	1	0	50.6769575029799	0
4.2	50.8125323141691	0	1	0	1	0	50.8125323141691	0
4.21	50.9486440614689	0	1	0	1	0	50.9486440614689	0
4.22	51.0852917330324	0	1	0	1	0	51.0852917330324	0
4.23	51.2224743265807	0	1	0	1	0	51.2224743265807	0
4.24	51.3601908492905	0	1	0	1	0	51.3601908492905	0
4.25	51.4984403176828	0	1	0	1	0	51.4984403176828	0
4.26	51.6372217575129	0	1	0	1	0	51.6372217575129	0
4.27	51.7765342036628	0	1	0	1	0	51.7765342036628	0
4.28	51.916376700034	0	1	0	1	0	51.916376700034	0
4.29	52.056748299443	0	1	0	1	0	52.056748299443	0
4.3	52.1976480635171	0	1	0	1	0	52.1976480635171	0
4.31	52.3390750625923	0	1	0	1	0	52.3390750625923	0
4.32	52.4810283756129	0	1	0	1	0	52.4810283756129	0
4.33	52.6235070900316	0	1	0	1	0	52.6235070900316	0
4.34	52.7665103017116	0	1	0	1	0	52.7665103017116	0
4.35	52.9100371148302	0	1	0	1	0	52.9100371148302	0
4.36	53.0540866417831	0	1	0	1	0	53.0540866417831	0
4.37	53.1986580030907	0	1	0	1	0	53.1986580030907	0
4.38	53.343750327305	0	1	0	1	0	53.343750327305	0
4.39	53.4893627509183	0	1	0	1	0	53.4893627509183	0
4.4	53.6354944182731	0	1	0	1	0	53.6354944182731	0
4.41	53.7821444814729	0	1	0	1	0	53.7821444814729	0
4.42	53.9293121002945	0	1	0	1	0	53.9293121002945	0
4.43	54.0769964421013	0	1	0	1	0	54.0769964421013	0
4.44	54.225196681758	0	1	0	1	0	54.225196681758	0
4.45	54.3739120015462	0	1	0	1	0	54.3739120015462	0
4.46	54.5231415910814	0	1	0	1	0	54.5231415910814	0
4.47	54.6728846472306	0	1	0	1	0	54.6728846472306	0
4.48	54.8231403740319	0	1	0	1	0	54.8231403740319	0
4.49	54.9739079826142	0	1	0	1	0	54.9739079826142	0
4.5	55.1251866911189	0	1	0	1	0	55.1251866911189	0
4.51	55.2769757246213	0	1	0	1	0	55.2769757246213	0
4.52	55.429274315055	0	1	0	1	0	55.429274315055	0
4.53	55.5820817011354	0	1	0	1	0	55.5820817011354	0
4.54	55.735397128285	0	1	0	1	0	55.735397128285	0
4.55	55.8892198485605	0	1	0	1	0	55.8892198485605	0
4.56	56.043549120579	0	1	0	1	0	56.043549120579	0
4.57	56.198384209447	0	1	0	1	0	56.198384209447	0
4.58	56.3537243866892	0	1	0	1	0	56.3537243866892	0
4.59	56.5095689301787	0	1	0	1	0	56.5095689301787	0
4.6	56.665917124068	0	1	0	1	0	56.665917124068	0
4.61	56.8227682587207	0	1	0	1	0	56.8227682587207	0
4.62	56.9801216306447	0	1	0	1	0	56.9801216306447	0
4.63	57.1379765424253	0	1	0	1	0	57.1379765424253	0
4.64	57.2963323026602	0	1	0	1	0	57.2963323026602	0
4.65	57.4551882258945	0	1	0	1	0	57.4551882258945	0
4.66	57.6145436325571	0	1	0	1	0	57.6145436325571	0
4.67	57.7743978488977	0	1	0	1	0	57.7743978488977	0
4.68	57.9347502069246	0	1	0	1	0	57.9347502069246	0
4.69	58.095600044343	0	1	0	1	0	58.095600044343	0
4.7	58.2569467044948	0	1	0	1	0	58.2569467044948	0
4.71	58.4187895362987	0	1	0	1	0	58.4187895362987	0
4.72	58.5811278941909	0	1	0	1	0	58.5811278941909	0
4.73	58.743961138067	0	1	0	1	0	58.743961138067	0
4.74	58.9072886332242	0	1	0	1	0	58.9072886332242	0
4.75	59.0711097503048	0	1	0	1	0	59.0711097503048	0
4.76	59.2354238652396	0	1	0	1	0	59.2354238652396	0
4.77	59.4002303591928	0	1	0	1	0	59.4002303591928	0
4.78	59.5655286185071	0	1	0	1	0	59.5655286185071	0
4.79	59.7313180346497	0	1	0	1	0	59.7313180346497	0
4.8	59.8975980041589	0	1	0	1	0	59.8975980041589	0
4.81	60.0643679285913	0	1	0	1	0	60.0643679285913	0
4.82	60.2316272144701	0	1	0	1	0	60.2316272144701	0
4.83	60.3993752732331	0	1	0	1	0	60.3993752732331	0
4.84	60.5676115211824	0	1	0	1	0	60.5676115211824	0
4.85	60.7363353794342	0	1	0	1	0	60.7363353794342	0
4.86	60.9055462738691	0	1	0	1	0	60.9055462738691	0
4.87	61.0752436350831	0	1	0	1	0	61.0752436350831	0
4.88	61.2454268983397	0	1	0	1	0	61.2454268983397	0
4.89	61.4160955035217	0	1	0	1	0	61.4160955035217	0
4.9	61.5872488950846	0	1	0	1	0	61.5872488950846	0
4.91	61.7588865220092	0	1	0	1	0	61.7588865220092	0
4.92	61.9310078377567	0	1	0	1	0	61.9310078377567	0
4.93	62.1036123002224	0	1	0	1	0	62.1036123002224	0
