# GHZ S RI R 50
1	51.5634366004277	0	1	0	1	0	51.5634366004277	0
1.01	51.1370567612674	0	1	0	1	0	51.1370567612674	0
1.02	50.7200920441261	0	1	0	1	0	50.7200920441261	0
1.03	50.3122785636627	0	1	0	1	0	50.3122785636627	0
1.04	49.9133625839722	0	1	0	1	0	49.9133625839722	0
1.05	49.5231000352793	0	1	0	1	0	49.5231000352793	0
1.06	49.1412560579891	0	1	0	1	0	49.1412560579891	0
1.07	48.7676045723043	0	1	0	1	0	48.7676045723043	0
1.08	48.4019278717536	0	1	0	1	0	48.4019278717536	0
1.09	48.0440162390942	0	1	0	1	0	48.0440162390942	0
1.1	47.6936675831646	0	1	0	1	0	47.6936675831646	0
1.11	47.3506870953677	0	1	0	1	0	47.3506870953677	0
1.12	47.0148869245564	0	1	0	1	0	47.0148869245564	0
1.13	46.6860858691816	0	1	0	1	0	46.6860858691816	0
1.14	46.3641090856434	0	1	0	1	0	46.3641090856434	0
1.15	46.0487878118584	0	1	0	1	0	46.0487878118584	0
1.16	45.7399591051255	0	1	0	1	0	45.7399591051255	0
1.17	45.4374655934338	0	1	0	1	0	45.4374655934338	0
1.18	45.1411552394175	0	1	0	1	0	45.1411552394175	0
1.19	44.8508811162098	0	1	0	1	0	44.8508811162098	0
1.2	44.5665011945067	0	1	0	1	0	44.5665011945067	0
1.21	44.2878781401875	0	1	0	1	0	44.2878781401875	0
1.22	44.0148791218896	0	1	0	1	0	44.0148791218896	0
1.23	43.7473756279695	0	1	0	1	0	43.7473756279695	0
1.24	43.4852432923207	0	1	0	1	0	43.4852432923207	0
1.25	43.2283617285519	0	1	0	1	0	43.2283617285519	0
1.26	42.9766143720623	0	1	0	1	0	42.9766143720623	0
1.27	42.7298883295768	0	1	0	1	0	42.7298883295768	0
1.28	42.4880742357353	0	1	0	1	0	42.4880742357353	0
1.29	42.2510661163516	0	1	0	1	0	42.2510661163516	0
1.3	42.0187612579839	0	1	0	1	0	42.0187612579839	0
1.31	41.7910600834783	0	1	0	1	0	41.7910600834783	0
1.32	41.5678660331708	0	1	0	1	0	41.5678660331708	0
1.33	41.3490854514473	0	1	0	1	0	41.3490854514473	0
1.34	41.1346274783835	0	1	0	1	0	41.1346274783835	0
1.35	40.9244039462013	0	1	0	1	0	40.9244039462013	0
1.36	40.7183292802924	0	1	0	1	0	40.7183292802924	0
1.37	40.5163204045771	0	1	0	1	0	40.5163204045771	0
1.38	40.3182966509782	0	1	0	1	0	40.3182966509782	0
1.39	40.124179672802	0	1	0	1	0	40.124179672802	0
1.4	39.9338933618317	0	1	0	1	0	39.9338933618317	0
1.41	39.7473637689487	0	1	0	1	0	39.7473637689487	0
1.42	39.5645190281085	0	1	0	1	0	39.5645190281085	0
1.43	39.3852892835054	0	1	0	1	0	39.3852892835054	0
1.44	39.2096066197726	0	1	0	1	0	39.2096066197726	0
1.45	39.0374049950711	0	1	0	1	0	39.0374049950711	0
1.46	38.8686201769269	0	1	0	1	0	38.8686201769269	0
1.47	38.7031896806886	0	1	0	1	0	38.7031896806886	0
1.48	38.5410527104792	0	1	0	1	0	38.5410527104792	0
1.49	38.3821501025259	0	1	0	1	0	38.3821501025259	0
1.5	38.2264242707561	0	1	0	1	0	38.2264242707561	0
1.51	38.0738191545566	0	1	0	1	0	38.0738191545566	0
1.52	37.924280168593	0	1	0	1	0	37.924280168593	0
1.53	37.7777541545988	0	1	0	1	0	37.7777541545988	0
1.54	37.6341893350416	0	1	0	1	0	37.6341893350416	0
1.55	37.4935352685833	0	1	0	1	0	37.4935352685833	0
1.56	37.3557428072536	0	1	0	1	0	37.3557428072536	0
1.57	37.2207640552597	0	1	0	1	0	37.2207640552597	0
1.58	37.0885523293605	0	1	0	1	0	37.0885523293605	0
1.59	36.959062120736	0	1	0	1	0	36.959062120736	0
1.6	36.8322490582869	0	1	0	1	0	36.8322490582869	0
1.61	36.7080698733013	0	1	0	1	0	36.7080698733013	0
1.62	36.5864823654306	0	1	0	1	0	36.5864823654306	0
1.63	36.4674453699176	0	1	0	1	0	36.4674453699176	0
1.64	36.3509187260235	0	1	0	1	0	36.3509187260235	0
1.65	36.2368632466032	0	1	0	1	0	36.2368632466032	0
1.66	36.1252406887803	0	1	0	1	0	36.1252406887803	0
1.67	36.0160137256751	0	1	0	1	0	36.0160137256751	0
1.68	35.9091459191434	0	1	0	1	0	35.9091459191434	0
1.69	35.8046016934824	0	1	0	1	0	35.8046016934824	0
1.7	35.7023463100642	0	1	0	1	0	35.7023463100642	0
1.71	35.6023458428609	0	1	0	1	0	35.6023458428609	0
1.72	35.5045671548217	0	1	0	1	0	35.5045671548217	0
1.73	35.4089778750703	0	1	0	1	0	35.4089778750703	0
1.74	35.3155463768888	0	1	0	1	0	35.3155463768888	0
1.75	35.2242417564554	0	1	0	1	0	35.2242417564554	0
1.76	35.1350338123081	0	1	0	1	0	35.1350338123081	0
1.77	35.0478930255037	0	1	0	1	0	35.0478930255037	0
1.78	34.9627905404461	0	1	0	1	0	34.9627905404461	0
1.79	34.8796981463568	0	1	0	1	0	34.8796981463568	0
1.8	34.7985882593639	0	1	0	1	0	34.7985882593639	0
1.81	34.7194339051834	0	1	0	1	0	34.7194339051834	0
1.82	34.6422087023729	0	1	0	1	0	34.6422087023729	0
1.83	34.5668868461335	0	1	0	1	0	34.5668868461335	0
1.84	34.4934430926403	0	1	0	1	0	34.4934430926403	0
1.85	34.4218527438808	0	1	0	1	0	34.4218527438808	0
1.86	34.3520916329824	0	1	0	1	0	34.3520916329824	0
1.87	34.284136110011	0	1	0	1	0	34.284136110011	0
1.88	34.2179630282228	0	1	0	1	0	34.2179630282228	0
1.89	34.153549730752	0	1	0	1	0	34.153549730752	0
1.9	34.0908740377193	0	1	0	1	0	34.0908740377193	0
1.91	34.0299142337458	0	1	0	1	0	34.0299142337458	0
1.92	33.9706490558562	0	1	0	1	0	33.9706490558562	0
1.93	33.9130576817586	0	1	0	1	0	33.9130576817586	0
1.94	33.8571197184866	0	1	0	1	0	33.8571197184866	0
1.95	33.8028151913913	0	1	0	1	0	33.8028151913913	0
1.96	33.7501245334695	0	1	0	1	0	33.7501245334695	0
1.97	33.6990285750177	0	1	0	1	0	33.6990285750177	0
1.98	33.649508533599	0	1	0	1	0	33.649508533599	0
1.99	33.601546004313	0	1	0	1	0	33.601546004313	0
2	33.5551229503573	0	1	0	1	0	33.5551229503573	0
2.01	33.5102216938709	0	1	0	1	0	33.5102216938709	0
2.02	33.4668249070493	0	1	0	1	0	33.4668249070493	0
2.03	33.4249156035227	0	1	0	1	0	33.4249156035227	0
2.04	33.3844771299874	0	1	0	1	0	33.3844771299874	0
2.05	33.345493158082	0	1	0	1	0	33.345493158082	0
2.06	33.3079476765009	0	1	0	1	0	33.3079476765009	0
2.07	33.2718249833355	0	1	0	1	0	33.2718249833355	0
2.08	33.2371096786373	0	1	0	1	0	33.2371096786373	0
2.09	33.2037866571934	0	1	0	1	0	33.2037866571934	0
2.1	33.1718411015092	0	1	0	1	0	33.1718411015092	0
2.11	33.1412584749906	0	1	0	1	0	33.1412584749906	0
2.12	33.1120245153189	0	1	0	1	0	33.1120245153189	0
2.13	33.0841252280122	0	1	0	1	0	33.0841252280122	0
2.14	33.0575468801678	0	1	0	1	0	33.0575468801678	0
2.15	33.032275994379	0	1	0	1	0	33.032275994379	0
2.16	33.0082993428204	0	1	0	1	0	33.0082993428204	0
2.17	32.9856039414978	0	1	0	1	0	32.9856039414978	0
2.18	32.9641770446551	0	1	0	1	0	32.9641770446551	0
2.19	32.9440061393358	0	1	0	1	0	32.9440061393358	0
2.2	32.9250789400913	0	1	0	1	0	32.9250789400913	0
2.21	32.9073833838343	0	1	0	1	0	32.9073833838343	0
2.22	32.8909076248303	0	1	0	1	0	32.8909076248303	0
2.23	32.8756400298246	0	1	0	1	0	32.8756400298246	0
2.24	32.8615691732987	0	1	0	1	0	32.8615691732987	0
2.25	32.848683832855	0	1	0	1	0	32.848683832855	0
2.26	32.8369729847219	0	1	0	1	0	32.8369729847219	0
2.27	32.8264257993797	0	1	0	1	0	32.8264257993797	0
2.28	32.8170316373	0	1	0	1	0	32.8170316373	0
2.29	32.8087800447977	0	1	0	1	0	32.8087800447977	0
2.3	32.8016607499911	0	1	0	1	0	32.8016607499911	0
2.31	32.7956636588665	0	1	0	1	0	32.7956636588665	0
2.32	32.7907788514449	0	1	0	1	0	32.7907788514449	0
2.33	32.7869965780472	0	1	0	1	0	32.7869965780472	0
2.34	32.7843072556558	0	1	0	1	0	32.7843072556558	0
2.35	32.7827014643681	0	1	0	1	0	32.7827014643681	0
2.36	32.7821699439409	0	1	0	1	0	32.7821699439409	0
2.37	32.782703590422	0	1	0	1	0	32.782703590422	0
2.38	32.7842934528669	0	1	0	1	0	32.7842934528669	0
2.39	32.7869307301376	0	1	0	1	0	32.7869307301376	0
2.4	32.7906067677817	0	1	0	1	0	32.7906067677817	0
2.41	32.7953130549893	0	1	0	1	0	32.7953130549893	0
2.42	32.801041221625	0	1	0	1	0	32.801041221625	0
2.43	32.8077830353333	0	1	0	1	0	32.8077830353333	0
2.44	32.8155303987154	0	1	0	1	0	32.8155303987154	0
2.45	32.8242753465751	0	1	0	1	0	32.8242753465751	0
2.46	32.8340100432314	0	1	0	1	0	32.8340100432314	0
2.47	32.8447267798968	0	1	0	1	0	32.8447267798968	0
2.48	32.8564179721195	0	1	0	1	0	32.8564179721195	0
2.49	32.8690761572858	0	1	0	1	0	32.8690761572858	0
2.5	32.8826939921842	0	1	0	1	0	32.8826939921842	0
2.51	32.8972642506262	0	1	0	1	0	32.8972642506262	0
2.52	32.9127798211249	0	1	0	1	0	32.9127798211249	0
2.53	32.929233704628	0	1	0	1	0	32.929233704628	0
2.54	32.9466190123043	0	1	0	1	0	32.9466190123043	0
2.55	32.9649289633828	0	1	0	1	0	32.9649289633828	0
2.56	32.9841568830422	0	1	0	1	0	32.9841568830422	0
2.57	33.0042962003492	0	1	0	1	0	33.0042962003492	0
2.58	33.0253404462456	0	1	0	1	0	33.0253404462456	0
2.59	33.0472832515814	0	1	0	1	0	33.0472832515814	0
2.6	33.0701183451935	0	1	0	1	0	33.0701183451935	0
2.61	33.0938395520285	0	1	0	1	0	33.0938395520285	0
2.62	33.118440791309	0	1	0	1	0	33.118440791309	0
2.63	33.1439160747403	0	1	0	1	0	33.1439160747403	0
2.64	33.17025950476	0	1	0	1	0	33.17025950476	0
2.65	33.1974652728252	0	1	0	1	0	33.1974652728252	0
2.66	33.2255276577396	0	1	0	1	0	33.2255276577396	0
2.67	33.2544410240177	0	1	0	1	0	33.2544410240177	0
2.68	33.2841998202856	0	1	0	1	0	33.2841998202856	0
2.69	33.314798577718	0	1	0	1	0	33.314798577718	0
2.7	33.346231908509	0	1	0	1	0	33.346231908509	0
2.71	33.3784945043775	0	1	0	1	0	33.3784945043775	0
2.72	33.4115811351055	0	1	0	1	0	33.4115811351055	0
2.73	33.4454866471081	0	1	0	1	0	33.4454866471081	0
2.74	33.4802059620353	0	1	0	1	0	33.4802059620353	0
2.75	33.5157340754041	0	1	0	1	0	33.5157340754041	0
2.76	33.55206605526	0	1	0	1	0	33.55206605526	0
2.77	33.5891970408681	0	1	0	1	0	33.5891970408681	0
2.78	33.6271222414324	0	1	0	1	0	33.6271222414324	0
2.79	33.6658369348419	0	1	0	1	0	33.6658369348419	0
2.8	33.7053364664444	0	1	0	1	0	33.7053364664444	0
2.81	33.745616247846	0	1	0	1	0	33.745616247846	0
2.82	33.7866717557366	0	1	0	1	0	33.7866717557366	0
2.83	33.8284985307396	0	1	0	1	0	33.8284985307396	0
2.84	33.8710921762867	0	1	0	1	0	33.8710921762867	0
2.85	33.9144483575157	0	1	0	1	0	33.9144483575157	0
2.86	33.9585628001919	0	1	0	1	0	33.9585628001919	0
2.87	34.0034312896517	0	1	0	1	0	34.0034312896517	0
2.88	34.0490496697688	0	1	0	1	0	34.0490496697688	0
2.89	34.0954138419407	0	1	0	1	0	34.0954138419407	0
2.9	34.1425197640978	0	1	0	1	0	34.1425197640978	0
2.91	34.1903634497313	0	1	0	1	0	34.1903634497313	0
2.92	34.2389409669421	0	1	0	1	0	34.2389409669421	0
2.93	34.288248437509	0	1	0	1	0	34.288248437509	0
2.94	34.3382820359758	0	1	0	1	0	34.3382820359758	0
2.95	34.3890379887568	0	1	0	1	0	34.3890379887568	0
2.96	34.4405125732606	0	1	0	1	0	34.4405125732606	0
2.97	34.4927021170319	0	1	0	1	0	34.4927021170319	0
2.98	34.5456029969099	0	1	0	1	0	34.5456029969099	0
2.99	34.5992116382044	0	1	0	1	0	34.5992116382044	0
3	34.6535245138875	0	1	0	1	0	34.6535245138875	0
3.01	34.7085381438024	0	1	0	1	0	34.7085381438024	0
3.02	34.7642490938868	0	1	0	1	0	34.7642490938868	0
3.03	34.8206539754127	0	1	0	1	0	34.8206539754127	0
3.04	34.8777494442406	0	1	0	1	0	34.8777494442406	0
3.05	34.9355322000886	0	1	0	1	0	34.9355322000886	0
3.06	34.9939989858156	0	1	0	1	0	34.9939989858156	0
3.07	35.0531465867191	0	1	0	1	0	35.0531465867191	0
3.08	35.1129718298457	0	1	0	1	0	35.1129718298457	0
3.09	35.173471583316	0	1	0	1	0	35.173471583316	0
3.1	35.2346427556618	0	1	0	1	0	35.2346427556618	0
3.11	35.2964822951767	0	1	0	1	0	35.2964822951767	0
3.12	35.3589871892787	0	1	0	1	0	35.3589871892787	0
3.13	35.4221544638852	0	1	0	1	0	35.4221544638852	0
3.14	35.4859811828	0	1	0	1	0	35.4859811828	0
3.15	35.550464447112	0	1	0	1	0	35.550464447112	0
3.16	35.6156013946052	0	1	0	1	0	35.6156013946052	0
3.17	35.6813891991797	0	1	0	1	0	35.6813891991797	0
3.18	35.7478250702843	0	1	0	1	0	35.7478250702843	0
3.19	35.8149062523588	0	1	0	1	0	35.8149062523588	0
3.2	35.8826300242877	0	1	0	1	0	35.8826300242877	0
3.21	35.9509936988632	0	1	0	1	0	35.9509936988632	0
3.22	36.0199946222593	0	1	0	1	0	36.0199946222593	0
3.23	36.0896301735145	0	1	0	1	0	36.0896301735145	0
3.24	36.159897764025	0	1	0	1	0	36.159897764025	0
3.25	36.2307948370464	0	1	0	1	0	36.2307948370464	0
3.26	36.302318867206	0	1	0	1	0	36.302318867206	0
3.27	36.3744673600218	0	1	0	1	0	36.3744673600218	0
3.28	36.447237851433	0	1	0	1	0	36.447237851433	0
3.29	36.5206279073364	0	1	0	1	0	36.5206279073364	0
3.3	36.5946351231334	0	1	0	1	0	36.5946351231334	0
3.31	36.669257123284	0	1	0	1	0	36.669257123284	0
3.32	36.7444915608691	0	1	0	1	0	36.7444915608691	0
3.33	36.8203361171607	0	1	0	1	0	36.8203361171607	0
3.34	36.8967885012001	0	1	0	1	0	36.8967885012001	0
3.35	36.9738464493835	0	1	0	1	0	36.9738464493835	0
3.36	37.0515077250545	0	1	0	1	0	37.0515077250545	0
3.37	37.1297701181047	0	1	0	1	0	37.1297701181047	0
3.38	37.2086314445807	0	1	0	1	0	37.2086314445807	0
3.39	37.2880895462987	0	1	0	1	0	37.2880895462987	0
3.4	37.368142290465	0	1	0	1	0	37.368142290465	0
3.41	37.4487875693041	0	1	0	1	0	37.4487875693041	0
3.42	37.5300232996931	0	1	0	1	0	37.5300232996931	0
3.43	37.6118474228018	0	1	0	1	0	37.6118474228018	0
3.44	37.6942579037399	0	1	0	1	0	37.6942579037399	0
3.45	37.7772527312101	0	1	0	1	0	37.7772527312101	0
3.46	37.8608299171671	0	1	0	1	0	37.8608299171671	0
3.47	37.9449874964825	0	1	0	1	0	37.9449874964825	0
3.48	38.0297235266158	0	1	0	1	0	38.0297235266158	0
3.49	38.1150360872901	0	1	0	1	0	38.1150360872901	0
3.5	38.2009232801751	0	1	0	1	0	38.2009232801751	0
3.51	38.2873832285733	0	1	0	1	0	38.2873832285733	0
3.52	38.3744140771139	0	1	0	1	0	38.3744140771139	0
3.53	38.4620139914497	0	1	0	1	0	38.4620139914497	0
3.54	38.5501811579608	0	1	0	1	0	38.5501811579608	0
3.55	38.6389137834623	0	1	0	1	0	38.6389137834623	0
3.56	38.7282100949175	0	1	0	1	0	38.7282100949175	0
3.57	38.8180683391559	0	1	0	1	0	38.8180683391559	0
3.58	38.9084867825951	0	1	0	1	0	38.9084867825951	0
3.59	38.9994637109686	0	1	0	1	0	38.9994637109686	0
3.6	39.0909974290572	0	1	0	1	0	39.0909974290572	0
3.61	39.1830862604256	0	1	0	1	0	39.1830862604256	0
3.62	39.2757285471622	0	1	0	1	0	39.2757285471622	0
3.63	39.3689226496247	0	1	0	1	0	39.3689226496247	0
3.64	39.4626669461887	0	1	0	1	0	39.4626669461887	0
3.65	39.5569598330011	0	1	0	1	0	39.5569598330011	0
3.66	39.6517997237373	0	1	0	1	0	39.6517997237373	0
3.67	39.7471850493622	0	1	0	1	0	39.7471850493622	0
3.68	39.8431142578955	0	1	0	1	0	39.8431142578955	0
3.69	39.9395858141806	0	1	0	1	0	39.9395858141806	0
3.7	40.0365981996571	0	1	0	1	0	40.0365981996571	0
3.71	40.1341499121372	0	1	0	1	0	40.1341499121372	0
3.72	40.2322394655858	0	1	0	1	0	40.2322394655858	0
3.73	40.3308653899037	0	1	0	1	0	40.3308653899037	0
3.74	40.4300262307146	0	1	0	1	0	40.4300262307146	0
3.75	40.5297205491558	0	1	0	1	0	40.5297205491558	0
3.76	40.6299469216715	0	1	0	1	0	40.6299469216715	0
3.77	40.7307039398099	0	1	0	1	0	40.7307039398099	0
3.78	40.8319902100235	0	1	0	1	0	40.8319902100235	0
3.79	40.9338043534726	0	1	0	1	0	40.9338043534726	0
3.8	41.0361450058313	0	1	0	1	0	41.0361450058313	0
3.81	41.1390108170975	0	1	0	1	0	41.1390108170975	0
3.82	41.2424004514051	0	1	0	1	0	41.2424004514051	0
3.83	41.34631258684	0	1	0	1	0	41.34631258684	0
3.84	41.4507459152575	0	1	0	1	0	41.4507459152575	0
3.85	41.5556991421043	0	1	0	1	0	41.5556991421043	0
3.86	41.6611709862423	0	1	0	1	0	41.6611709862423	0
3.87	41.7671601797748	0	1	0	1	0	41.7671601797748	0
3.88	41.8736654678765	0	1	0	1	0	41.8736654678765	0
3.89	41.980685608625	0	1	0	1	0	41.980685608625	0
3.9	42.0882193728356	0	1	0	1	0	42.0882193728356	0
3.91	42.1962655438985	0	1	0	1	0	42.1962655438985	0
3.92	42.304822917618	0	1	0	1	0	42.304822917618	0
3.93	42.4138903020552	0	1	0	1	0	42.4138903020552	0
3.94	42.5234665173719	0	1	0	1	0	42.5234665173719	0
3.95	42.6335503956777	0	1	0	1	0	42.6335503956777	0
3.96	42.744140780879	0	1	0	1	0	42.744140780879	0
3.97	42.8552365285305	0	1	0	1	0	42.8552365285305	0
3.98	42.9668365056889	0	1	0	1	0	42.9668365056889	0
3.99	43.0789395907688	0	1	0	1	0	43.0789395907688	0
4	43.1915446734005	0	1	0	1	0	43.1915446734005	0
4.01	43.3046506542904	0	1	0	1	0	43.3046506542904	0
4.02	43.4182564450832	0	1	0	1	0	43.4182564450832	0
4.03	43.5323609682261	0	1	0	1	0	43.5323609682261	0
4.04	43.646963156835	0	1	0	1	0	43.646963156835	0
4.05	43.762061954563	0	1	0	1	0	43.762061954563	0
4.06	43.8776563154707	0	1	0	1	0	43.8776563154707	0
4.07	43.9937452038981	0	1	0	1	0	43.9937452038981	0
4.08	44.1103275943386	0	1	0	1	0	44.1103275943386	0
4.09	44.2274024713153	0	1	0	1	0	44.2274024713153	0
4.1	44.3449688292581	0	1	0	1	0	44.3449688292581	0
4.11	44.4630256723836	0	1	0	1	0	44.4630256723836	0
4.12	44.5815720145762	0	1	0	1	0	44.5815720145762	0
4.13	44.7006068792711	0	1	0	1	0	44.7006068792711	0
4.14	44.8201292993388	0	1	0	1	0	44.8201292993388	0
4.15	44.9401383169715	0	1	0	1	0	44.9401383169715	0
4.16	45.0606329835714	0	1	0	1	0	45.0606329835714	0
4.17	45.1816123596396	0	1	0	1	0	45.1816123596396	0
4.18	45.3030755146677	0	1	0	1	0	45.3030755146677	0
4.19	45.4250215270306	0	1	0	1	0	45.4250215270306	0
4.2	45.5474494838804	0	1	0	1	0	45.5474494838804	0
4.21	45.6703584810425	0	1	0	1	0	45.6703584810425	0
4.22	45.7937476229125	0	1	0	1	0	45.7937476229125	0
4.23	45.9176160223552	0	1	0	1	0	45.9176160223552	0
4.24	46.0419628006045	0	1	0	1	0	46.0419628006045	0
4.25	46.1667870871652	0	1	0	1	0	46.1667870871652	0
4.26	46.2920880197156	0	1	0	1	0	46.2920880197156	0
4.27	46.4178647440121	0	1	0	1	0	46.4178647440121	0
4.28	46.5441164137944	0	1	0	1	0	46.5441164137944	0
4.29	46.6708421906932	0	1	0	1	0	46.6708421906932	0
4.3	46.7980412441375	0	1	0	1	0	46.7980412441375	0
4.31	46.925712751265	0	1	0	1	0	46.925712751265	0
4.32	47.0538558968323	0	1	0	1	0	47.0538558968323	0
4.33	47.1824698731271	0	1	0	1	0	47.1824698731271	0
4.34	47.3115538798816	0	1	0	1	0	47.3115538798816	0
4.35	47.4411071241866	0	1	0	1	0	47.4411071241866	0
4.36	47.5711288204074	0	1	0	1	0	47.5711288204074	0
4.37	47.7016181901005	0	1	0	1	0	47.7016181901005	0
4.38	47.8325744619314	0	1	0	1	0	47.8325744619314	0
4.39	47.9639968715938	0	1	0	1	0	47.9639968715938	0
4.4	48.0958846617294	0	1	0	1	0	48.0958846617294	0
4.41	48.2282370818496	0	1	0	1	0	48.2282370818496	0
4.42	48.3610533882576	0	1	0	1	0	48.3610533882576	0
4.43	48.4943328439715	0	1	0	1	0	48.4943328439715	0
4.44	48.6280747186489	0	1	0	1	0	48.6280747186489	0
4.45	48.7622782885125	0	1	0	1	0	48.7622782885125	0
4.46	48.8969428362759	0	1	0	1	0	48.8969428362759	0
4.47	49.0320676510717	0	1	0	1	0	49.0320676510717	0
4.48	49.1676520283793	0	1	0	1	0	49.1676520283793	0
4.49	49.3036952699547	0	1	0	1	0	49.3036952699547	0
4.5	49.4401966837604	0	1	0	1	0	49.4401966837604	0
4.51	49.5771555838965	0	1	0	1	0	49.5771555838965	0
4.52	49.7145712905333	0	1	0	1	0	49.7145712905333	0
4.53	49.8524431298439	0	1	0	1	0	49.8524431298439	0
4.54	49.9907704339381	0	1	0	1	0	49.9907704339381	0
4.55	50.1295525407976	0	1	0	1	0	50.1295525407976	0
4.56	50.2687887942108	0	1	0	1	0	50.2687887942108	0
4.57	50.4084785437101	0	1	0	1	0	50.4084785437101	0
4.58	50.5486211445087	0	1	0	1	0	50.5486211445087	0
4.59	50.689215957439	0	1	0	1	0	50.689215957439	0
4.6	50.830262348891	0	1	0	1	0	50.830262348891	0
4.61	50.971759690753	0	1	0	1	0	50.971759690753	0
4.62	51.1137073603509	0	1	0	1	0	51.1137073603509	0
4.63	51.2561047403904	0	1	0	1	0	51.2561047403904	0
4.64	51.3989512188987	0	1	0	1	0	51.3989512188987	0
4.65	51.5422461891672	0	1	0	1	0	51.5422461891672	0
4.66	51.6859890496951	0	1	0	1	0	51.6859890496951	0
4.67	51.8301792041337	0	1	0	1	0	51.8301792041337	0
4.68	51.9748160612311	0	1	0	1	0	51.9748160612311	0
4.69	52.1198990347785	0	1	0	1	0	52.1198990347785	0
4.7	52.2654275435556	0	1	0	1	0	52.2654275435556	0
4.71	52.4114010112785	0	1	0	1	0	52.4114010112785	0
4.72	52.5578188665468	0	1	0	1	0	52.5578188665468	0
4.73	52.7046805427926	0	1	0	1	0	52.7046805427926	0
4.74	52.8519854782287	0	1	0	1	0	52.8519854782287	0
4.75	52.9997331157992	0	1	0	1	0	52.9997331157992	0
4.76	53.1479229031291	0	1	0	1	0	53.1479229031291	0
4.77	53.2965542924754	0	1	0	1	0	53.2965542924754	0
4.78	53.4456267406789	0	1	0	1	0	53.4456267406789	0
4.79	53.595139709116	0	1	0	1	0	53.595139709116	0
4.8	53.7450926636519	0	1	0	1	0	53.7450926636519	0
4.81	53.8954850745934	0	1	0	1	0	53.8954850745934	0
4.82	54.0463164166433	0	1	0	1	0	54.0463164166433	0
4.83	54.1975861688544	0	1	0	1	0	54.1975861688544	0
4.84	54.3492938145851	0	1	0	1	0	54.3492938145851	0
4.85	54.5014388414548	0	1	0	1	0	54.5014388414548	0
4.86	54.6540207412999	0	1	0	1	0	54.6540207412999	0
4.87	54.8070390101306	0	1	0	1	0	54.8070390101306	0
4.88	54.9604931480881	0	1	0	1	0	54.9604931480881	0
4.89	55.1143826594027	0	1	0	1	0	55.1143826594027	0
4.9	55.2687070523516	0	1	0	1	0	55.2687070523516	0
4.91	55.423465839218	0	1	0	1	0	55.423465839218	0
4.92	55.57865853625	0	1	0	1	0	55.57865853625	0
4.93	55.734284663621	0	1	0	1	0	55.734284663621	0
