# GHZ S RI R 50
1	50.5493703089057	0	1	0	1	0	50.5493703089057	0
1.01	50.1204656776695	0	1	0	1	0	50.1204656776695	0
1.02	49.7011049940958	0	1	0	1	0	49.7011049940958	0
1.03	49.2910213983612	0	1	0	1	0	49.2910213983612	0
1.04	48.8899582944817	0	1	0	1	0	48.8899582944817	0
1.05	48.4976688615583	0	1	0	1	0	48.4976688615583	0
1.06	48.1139155926884	0	1	0	1	0	48.1139155926884	0
1.07	47.7384698597318	0	1	0	1	0	47.7384698597318	0
1.08	47.3711115022576	0	1	0	1	0	47.3711115022576	0
1.09	47.0116284391164	0	1	0	1	0	47.0116284391164	0
1.1	46.6598163012008	0	1	0	1	0	46.6598163012008	0
1.11	46.3154780840558	0	1	0	1	0	46.3154780840558	0
1.12	45.9784238191	0	1	0	1	0	45.9784238191	0
1.13	45.6484702623033	0	1	0	1	0	45.6484702623033	0
1.14	45.3254405992508	0	1	0	1	0	45.3254405992508	0
1.15	45.0091641655943	0	1	0	1	0	45.0091641655943	0
1.16	44.699476181963	0	1	0	1	0	44.699476181963	0
1.17	44.3962175024688	0	1	0	1	0	44.3962175024688	0
1.18	44.0992343759997	0	1	0	1	0	44.0992343759997	0
1.19	43.8083782195481	0	1	0	1	0	43.8083782195481	0
1.2	43.5235054028734	0	1	0	1	0	43.5235054028734	0
1.21	43.2444770438421	0	1	0	1	0	43.2444770438421	0
1.22	42.9711588138333	0	1	0	1	0	42.9711588138333	0
1.23	42.7034207526365	0	1	0	1	0	42.7034207526365	0
1.24	42.4411370923062	0	1	0	1	0	42.4411370923062	0
1.25	42.1841860894709	0	1	0	1	0	42.1841860894709	0
1.26	41.9324498656282	0	1	0	1	0	41.9324498656282	0
1.27	41.6858142549845	0	1	0	1	0	41.6858142549845	0
1.28	41.4441686594271	0	1	0	1	0	41.4441686594271	0
1.29	41.2074059102421	0	1	0	1	0	41.2074059102421	0
1.3	40.9754221362148	0	1	0	1	0	40.9754221362148	0
1.31	40.7481166377703	0	1	0	1	0	40.7481166377703	0
1.32	40.5253917668361	0	1	0	1	0	40.5253917668361	0
1.33	40.3071528121239	0	1	0	1	0	40.3071528121239	0
1.34	40.0933078895479	0	1	0	1	0	40.0933078895479	0
1.35	39.883767837514	0	1	0	1	0	39.883767837514	0
1.36	39.6784461168275	0	1	0	1	0	39.6784461168275	0
1.37	39.4772587149858	0	1	0	1	0	39.4772587149858	0
1.38	39.2801240546314	0	1	0	1	0	39.2801240546314	0
1.39	39.0869629059563	0	1	0	1	0	39.0869629059563	0
1.4	38.8976983028617	0	1	0	1	0	38.8976983028617	0
1.41	38.712255462684	0	1	0	1	0	38.712255462684	0
1.42	38.5305617093134	0	1	0	1	0	38.5305617093134	0
1.43	38.3525463995386	0	1	0	1	0	38.3525463995386	0
1.44	38.1781408524595	0	1	0	1	0	38.1781408524595	0
1.45	38.0072782818214	0	1	0	1	0	38.0072782818214	0
1.46	37.8398937311304	0	1	0	1	0	37.8398937311304	0
1.47	37.6759240114158	0	1	0	1	0	37.6759240114158	0
1.48	37.5153076415173	0	1	0	1	0	37.5153076415173	0
1.49	37.3579847907752	0	1	0	1	0	37.3579847907752	0
1.5	37.2038972240144	0	1	0	1	0	37.2038972240144	0
1.51	37.0529882487132	0	1	0	1	0	37.0529882487132	0
1.52	36.9052026642585	0	1	0	1	0	36.9052026642585	0
1.53	36.7604867131904	0	1	0	1	0	36.7604867131904	0
1.54	36.6187880343466	0	1	0	1	0	36.6187880343466	0
1.55	36.4800556178208	0	1	0	1	0	36.4800556178208	0
1.56	36.3442397616529	0	1	0	1	0	36.3442397616529	0
1.57	36.2112920301747	0	1	0	1	0	36.2112920301747	0
1.58	36.0811652139376	0	1	0	1	0	36.0811652139376	0
1.59	35.953813291152	0	1	0	1	0	35.953813291152	0
1.6	35.829191390573	0	1	0	1	0	35.829191390573	0
1.61	35.7072557557694	0	1	0	1	0	35.7072557557694	0
1.62	35.5879637107156	0	1	0	1	0	35.5879637107156	0
1.63	35.4712736266503	0	1	0	1	0	35.4712736266503	0
1.64	35.357144890148	0	1	0	1	0	35.357144890148	0
1.65	35.2455378723512	0	1	0	1	0	35.2455378723512	0
1.66	35.1364138993144	0	1	0	1	0	35.1364138993144	0
1.67	35.0297352234142	0	1	0	1	0	35.0297352234142	0
1.68	34.9254649957803	0	1	0	1	0	34.9254649957803	0
1.69	34.8235672397048	0	1	0	1	0	34.8235672397048	0
1.7	34.7240068249906	0	1	0	1	0	34.7240068249906	0
1.71	34.6267494431999	0	1	0	1	0	34.6267494431999	0
1.72	34.531761583765	0	1	0	1	0	34.531761583765	0
1.73	34.4390105109296	0	1	0	1	0	34.4390105109296	0
1.74	34.3484642414831	0	1	0	1	0	34.3484642414831	0
1.75	34.2600915232598	0	1	0	1	0	34.2600915232598	0
1.76	34.1738618143707	0	1	0	1	0	34.1738618143707	0
1.77	34.0897452631388	0	1	0	1	0	34.0897452631388	0
1.78	34.0077126887112	0	1	0	1	0	34.0077126887112	0
1.79	33.9277355623214	0	1	0	1	0	33.9277355623214	0
1.8	33.8497859891752	0	1	0	1	0	33.8497859891752	0
1.81	33.7738366909381	0	1	0	1	0	33.7738366909381	0
1.82	33.6998609887994	0	1	0	1	0	33.6998609887994	0
1.83	33.6278327870918	0	1	0	1	0	33.6278327870918	0
1.84	33.5577265574452	0	1	0	1	0	33.5577265574452	0
1.85	33.489517323454	0	1	0	1	0	33.489517323454	0
1.86	33.4231806458399	0	1	0	1	0	33.4231806458399	0
1.87	33.3586926080898	0	1	0	1	0	33.3586926080898	0
1.88	33.2960298025524	0	1	0	1	0	33.2960298025524	0
1.89	33.2351693169768	0	1	0	1	0	33.2351693169768	0
1.9	33.176088721475	0	1	0	1	0	33.176088721475	0
1.91	33.1187660558949	0	1	0	1	0	33.1187660558949	0
1.92	33.0631798175877	0	1	0	1	0	33.0631798175877	0
1.93	33.0093089495552	0	1	0	1	0	33.0093089495552	0
1.94	32.9571328289642	0	1	0	1	0	32.9571328289642	0
1.95	32.9066312560139	0	1	0	1	0	32.9066312560139	0
1.96	32.8577844431445	0	1	0	1	0	32.8577844431445	0
1.97	32.8105730045739	0	1	0	1	0	32.8105730045739	0
1.98	32.764977946152	0	1	0	1	0	32.764977946152	0
1.99	32.7209806555206	0	1	0	1	0	32.7209806555206	0
2	32.6785628925689	0	1	0	1	0	32.6785628925689	0
2.01	32.6377067801731	0	1	0	1	0	32.6377067801731	0
2.02	32.598394795212	0	1	0	1	0	32.598394795212	0
2.03	32.5606097598476	0	1	0	1	0	32.5606097598476	0
2.04	32.5243348330621	0	1	0	1	0	32.5243348330621	0
2.05	32.4895535024431	0	1	0	1	0	32.4895535024431	0
2.06	32.4562495762075	0	1	0	1	0	32.4562495762075	0
2.07	32.4244071754568	0	1	0	1	0	32.4244071754568	0
2.08	32.3940107266561	0	1	0	1	0	32.3940107266561	0
2.09	32.3650449543285	0	1	0	1	0	32.3650449543285	0
2.1	32.3374948739586	0	1	0	1	0	32.3374948739586	0
2.11	32.3113457850975	0	1	0	1	0	32.3113457850975	0
2.12	32.2865832646635	0	1	0	1	0	32.2865832646635	0
2.13	32.2631931604307	0	1	0	1	0	32.2631931604307	0
2.14	32.2411615847008	0	1	0	1	0	32.2411615847008	0
2.15	32.2204749081515	0	1	0	1	0	32.2204749081515	0
2.16	32.201119753855	0	1	0	1	0	32.201119753855	0
2.17	32.1830829914632	0	1	0	1	0	32.1830829914632	0
2.18	32.1663517315515	0	1	0	1	0	32.1663517315515	0
2.19	32.1509133201187	0	1	0	1	0	32.1509133201187	0
2.2	32.1367553332365	0	1	0	1	0	32.1367553332365	0
2.21	32.1238655718438	0	1	0	1	0	32.1238655718438	0
2.22	32.1122320566825	0	1	0	1	0	32.1122320566825	0
2.23	32.1018430233693	0	1	0	1	0	32.1018430233693	0
2.24	32.0926869175989	0	1	0	1	0	32.0926869175989	0
2.25	32.0847523904759	0	1	0	1	0	32.0847523904759	0
2.26	32.0780282939706	0	1	0	1	0	32.0780282939706	0
2.27	32.0725036764938	0	1	0	1	0	32.0725036764938	0
2.28	32.0681677785901	0	1	0	1	0	32.0681677785901	0
2.29	32.0650100287416	0	1	0	1	0	32.0650100287416	0
2.3	32.0630200392833	0	1	0	1	0	32.0630200392833	0
2.31	32.0621876024229	0	1	0	1	0	32.0621876024229	0
2.32	32.0625026863648	0	1	0	1	0	32.0625026863648	0
2.33	32.0639554315328	0	1	0	1	0	32.0639554315328	0
2.34	32.0665361468907	0	1	0	1	0	32.0665361468907	0
2.35	32.0702353063558	0	1	0	1	0	32.0702353063558	0
2.36	32.0750435453048	0	1	0	1	0	32.0750435453048	0
2.37	32.0809516571668	0	1	0	1	0	32.0809516571668	0
2.38	32.0879505901034	0	1	0	1	0	32.0879505901034	0
2.39	32.0960314437712	0	1	0	1	0	32.0960314437712	0
2.4	32.1051854661662	0	1	0	1	0	32.1051854661662	0
2.41	32.1154040505454	0	1	0	1	0	32.1154040505454	0
2.42	32.1266787324264	0	1	0	1	0	32.1266787324264	0
2.43	32.1390011866597	0	1	0	1	0	32.1390011866597	0
2.44	32.1523632245736	0	1	0	1	0	32.1523632245736	0
2.45	32.1667567911892	0	1	0	1	0	32.1667567911892	0
2.46	32.1821739625026	0	1	0	1	0	32.1821739625026	0
2.47	32.198606942834	0	1	0	1	0	32.198606942834	0
2.48	32.2160480622405	0	1	0	1	0	32.2160480622405	0
2.49	32.2344897739908	0	1	0	1	0	32.2344897739908	0
2.5	32.2539246521016	0	1	0	1	0	32.2539246521016	0
2.51	32.2743453889319	0	1	0	1	0	32.2743453889319	0
2.52	32.2957447928348	0	1	0	1	0	32.2957447928348	0
2.53	32.3181157858657	0	1	0	1	0	32.3181157858657	0
2.54	32.3414514015432	0	1	0	1	0	32.3414514015432	0
2.55	32.3657447826646	0	1	0	1	0	32.3657447826646	0
2.56	32.3909891791705	0	1	0	1	0	32.3909891791705	0
2.57	32.4171779460611	0	1	0	1	0	32.4171779460611	0
2.58	32.4443045413598	0	1	0	1	0	32.4443045413598	0
2.59	32.4723625241242	0	1	0	1	0	32.4723625241242	0
2.6	32.5013455525036	0	1	0	1	0	32.5013455525036	0
2.61	32.5312473818402	0	1	0	1	0	32.5312473818402	0
2.62	32.5620618628145	0	1	0	1	0	32.5620618628145	0
2.63	32.593782939633	0	1	0	1	0	32.593782939633	0
2.64	32.6264046482564	0	1	0	1	0	32.6264046482564	0
2.65	32.6599211146687	0	1	0	1	0	32.6599211146687	0
2.66	32.694326553185	0	1	0	1	0	32.694326553185	0
2.67	32.7296152647973	0	1	0	1	0	32.7296152647973	0
2.68	32.7657816355574	0	1	0	1	0	32.7657816355574	0
2.69	32.802820134996	0	1	0	1	0	32.802820134996	0
2.7	32.8407253145765	0	1	0	1	0	32.8407253145765	0
2.71	32.8794918061837	0	1	0	1	0	32.8794918061837	0
2.72	32.9191143206452	0	1	0	1	0	32.9191143206452	0
2.73	32.9595876462854	0	1	0	1	0	32.9595876462854	0
2.74	33.0009066475119	0	1	0	1	0	33.0009066475119	0
2.75	33.0430662634317	0	1	0	1	0	33.0430662634317	0
2.76	33.0860615064981	0	1	0	1	0	33.0860615064981	0
2.77	33.1298874611865	0	1	0	1	0	33.1298874611865	0
2.78	33.1745392826996	0	1	0	1	0	33.1745392826996	0
2.79	33.2200121956994	0	1	0	1	0	33.2200121956994	0
2.8	33.2663014930671	0	1	0	1	0	33.2663014930671	0
2.81	33.313402534689	0	1	0	1	0	33.313402534689	0
2.82	33.3613107462688	0	1	0	1	0	33.3613107462688	0
2.83	33.4100216181644	0	1	0	1	0	33.4100216181644	0
2.84	33.4595307042498	0	1	0	1	0	33.4595307042498	0
2.85	33.5098336208009	0	1	0	1	0	33.5098336208009	0
2.86	33.5609260454044	0	1	0	1	0	33.5609260454044	0
2.87	33.6128037158895	0	1	0	1	0	33.6128037158895	0
2.88	33.6654624292825	0	1	0	1	0	33.6654624292825	0
2.89	33.7188980407822	0	1	0	1	0	33.7188980407822	0
2.9	33.773106462757	0	1	0	1	0	33.773106462757	0
2.91	33.8280836637628	0	1	0	1	0	33.8280836637628	0
2.92	33.8838256675807	0	1	0	1	0	33.8838256675807	0
2.93	33.9403285522746	0	1	0	1	0	33.9403285522746	0
2.94	33.9975884492683	0	1	0	1	0	33.9975884492683	0
2.95	34.0556015424406	0	1	0	1	0	34.0556015424406	0
2.96	34.1143640672397	0	1	0	1	0	34.1143640672397	0
2.97	34.1738723098147	0	1	0	1	0	34.1738723098147	0
2.98	34.2341226061651	0	1	0	1	0	34.2341226061651	0
2.99	34.2951113413072	0	1	0	1	0	34.2951113413072	0
3	34.3568349484569	0	1	0	1	0	34.3568349484569	0
3.01	34.4192899082293	0	1	0	1	0	34.4192899082293	0
3.02	34.4824727478541	0	1	0	1	0	34.4824727478541	0
3.03	34.5463800404059	0	1	0	1	0	34.5463800404059	0
3.04	34.6110084040504	0	1	0	1	0	34.6110084040504	0
3.05	34.6763545013053	0	1	0	1	0	34.6763545013053	0
3.06	34.7424150383156	0	1	0	1	0	34.7424150383156	0
3.07	34.809186764143	0	1	0	1	0	34.809186764143	0
3.08	34.8766664700688	0	1	0	1	0	34.8766664700688	0
3.09	34.9448509889117	0	1	0	1	0	34.9448509889117	0
3.1	35.0137371943567	0	1	0	1	0	35.0137371943567	0
3.11	35.0833220002991	0	1	0	1	0	35.0833220002991	0
3.12	35.1536023601993	0	1	0	1	0	35.1536023601993	0
3.13	35.2245752664513	0	1	0	1	0	35.2245752664513	0
3.14	35.2962377497625	0	1	0	1	0	35.2962377497625	0
3.15	35.3685868785456	0	1	0	1	0	35.3685868785456	0
3.16	35.441619758322	0	1	0	1	0	35.441619758322	0
3.17	35.5153335311364	0	1	0	1	0	35.5153335311364	0
3.18	35.5897253749829	0	1	0	1	0	35.5897253749829	0
3.19	35.6647925032409	0	1	0	1	0	35.6647925032409	0
3.2	35.7405321641229	0	1	0	1	0	35.7405321641229	0
3.21	35.8169416401312	0	1	0	1	0	35.8169416401312	0
3.22	35.8940182475263	0	1	0	1	0	35.8940182475263	0
3.23	35.9717593358034	0	1	0	1	0	35.9717593358034	0
3.24	36.0501622871803	0	1	0	1	0	36.0501622871803	0
3.25	36.1292245160935	0	1	0	1	0	36.1292245160935	0
3.26	36.2089434687043	0	1	0	1	0	36.2089434687043	0
3.27	36.2893166224136	0	1	0	1	0	36.2893166224136	0
3.28	36.3703414853856	0	1	0	1	0	36.3703414853856	0
3.29	36.4520155960805	0	1	0	1	0	36.4520155960805	0
3.3	36.5343365227953	0	1	0	1	0	36.5343365227953	0
3.31	36.6173018632132	0	1	0	1	0	36.6173018632132	0
3.32	36.7009092439608	0	1	0	1	0	36.7009092439608	0
3.33	36.7851563201739	0	1	0	1	0	36.7851563201739	0
3.34	36.8700407750703	0	1	0	1	0	36.8700407750703	0
3.35	36.9555603195311	0	1	0	1	0	36.9555603195311	0
3.36	37.0417126916887	0	1	0	1	0	37.0417126916887	0
3.37	37.1284956565225	0	1	0	1	0	37.1284956565225	0
3.38	37.215907005462	0	1	0	1	0	37.215907005462	0
3.39	37.3039445559965	0	1	0	1	0	37.3039445559965	0
3.4	37.3926061512917	0	1	0	1	0	37.3926061512917	0
3.41	37.4818896598138	0	1	0	1	0	37.4818896598138	0
3.42	37.5717929749589	0	1	0	1	0	37.5717929749589	0
3.43	37.66231401469	0	1	0	1	0	37.66231401469	0
3.44	37.7534507211798	0	1	0	1	0	37.7534507211798	0
3.45	37.8452010604599	0	1	0	1	0	37.8452010604599	0
3.46	37.937563022076	0	1	0	1	0	37.937563022076	0
3.47	38.0305346187492	0	1	0	1	0	38.0305346187492	0
3.48	38.1241138860425	0	1	0	1	0	38.1241138860425	0
3.49	38.2182988820344	0	1	0	1	0	38.2182988820344	0
3.5	38.3130876869964	0	1	0	1	0	38.3130876869964	0
3.51	38.4084784030775	0	1	0	1	0	38.4084784030775	0
3.52	38.504469153993	0	1	0	1	0	38.504469153993	0
3.53	38.6010580847195	0	1	0	1	0	38.6010580847195	0
3.54	38.698243361194	0	1	0	1	0	38.698243361194	0
3.55	38.7960231700192	0	1	0	1	0	38.7960231700192	0
3.56	38.8943957181729	0	1	0	1	0	38.8943957181729	0
3.57	38.9933592327229	0	1	0	1	0	38.9933592327229	0
3.58	39.0929119605464	0	1	0	1	0	39.0929119605464	0
3.59	39.1930521680537	0	1	0	1	0	39.1930521680537	0
3.6	39.2937781409174	0	1	0	1	0	39.2937781409174	0
3.61	39.3950881838055	0	1	0	1	0	39.3950881838055	0
3.62	39.4969806201187	0	1	0	1	0	39.4969806201187	0
3.63	39.599453791733	0	1	0	1	0	39.599453791733	0
3.64	39.702506058745	0	1	0	1	0	39.702506058745	0
3.65	39.8061357992234	0	1	0	1	0	39.8061357992234	0
3.66	39.9103414089626	0	1	0	1	0	39.9103414089626	0
3.67	40.0151213012416	0	1	0	1	0	40.0151213012416	0
3.68	40.1204739065863	0	1	0	1	0	40.1204739065863	0
3.69	40.2263976725361	0	1	0	1	0	40.2263976725361	0
3.7	40.3328910634135	0	1	0	1	0	40.3328910634135	0
3.71	40.4399525600984	0	1	0	1	0	40.4399525600984	0
3.72	40.547580659805	0	1	0	1	0	40.547580659805	0
3.73	40.6557738758636	0	1	0	1	0	40.6557738758636	0
3.74	40.7645307375042	0	1	0	1	0	40.7645307375042	0
3.75	40.8738497896455	0	1	0	1	0	40.8738497896455	0
3.76	40.9837295926856	0	1	0	1	0	40.9837295926856	0
3.77	41.0941687222967	0	1	0	1	0	41.0941687222967	0
3.78	41.2051657692235	0	1	0	1	0	41.2051657692235	0
3.79	41.3167193390841	0	1	0	1	0	41.3167193390841	0
3.8	41.4288280521741	0	1	0	1	0	41.4288280521741	0
3.81	41.5414905432744	0	1	0	1	0	41.5414905432744	0
3.82	41.6547054614612	0	1	0	1	0	41.6547054614612	0
3.83	41.7684714699199	0	1	0	1	0	41.7684714699199	0
3.84	41.8827872457606	0	1	0	1	0	41.8827872457606	0
3.85	41.997651479838	0	1	0	1	0	41.997651479838	0
3.86	42.113062876573	0	1	0	1	0	42.113062876573	0
3.87	42.2290201537775	0	1	0	1	0	42.2290201537775	0
3.88	42.3455220424819	0	1	0	1	0	42.3455220424819	0
3.89	42.462567286765	0	1	0	1	0	42.462567286765	0
3.9	42.5801546435869	0	1	0	1	0	42.5801546435869	0
3.91	42.6982828826243	0	1	0	1	0	42.6982828826243	0
3.92	42.8169507861081	0	1	0	1	0	42.8169507861081	0
3.93	42.9361571486638	0	1	0	1	0	42.9361571486638	0
3.94	43.0559007771544	0	1	0	1	0	43.0559007771544	0
3.95	43.176180490525	0	1	0	1	0	43.176180490525	0
3.96	43.2969951196507	0	1	0	1	0	43.2969951196507	0
3.97	43.4183435071864	0	1	0	1	0	43.4183435071864	0
3.98	43.5402245074181	0	1	0	1	0	43.5402245074181	0
3.99	43.6626369861182	0	1	0	1	0	43.6626369861182	0
4	43.7855798204011	0	1	0	1	0	43.7855798204011	0
4.01	43.909051898582	0	1	0	1	0	43.909051898582	0
4.02	44.0330521200377	0	1	0	1	0	44.0330521200377	0
4.03	44.1575793950695	0	1	0	1	0	44.1575793950695	0
4.04	44.2826326447675	0	1	0	1	0	44.2826326447675	0
4.05	44.4082108008778	0	1	0	1	0	44.4082108008778	0
4.06	44.5343128056713	0	1	0	1	0	44.5343128056713	0
4.07	44.660937611814	0	1	0	1	0	44.660937611814	0
4.08	44.7880841822403	0	1	0	1	0	44.7880841822403	0
4.09	44.9157514900266	0	1	0	1	0	44.9157514900266	0
4.1	45.0439385182682	0	1	0	1	0	45.0439385182682	0
4.11	45.1726442599576	0	1	0	1	0	45.1726442599576	0
4.12	45.3018677178636	0	1	0	1	0	45.3018677178636	0
4.13	45.4316079044138	0	1	0	1	0	45.4316079044138	0
4.14	45.5618638415773	0	1	0	1	0	45.5618638415773	0
4.15	45.69263456075	0	1	0	1	0	45.69263456075	0
4.16	45.8239191026416	0	1	0	1	0	45.8239191026416	0
4.17	45.9557165171633	0	1	0	1	0	45.9557165171633	0
4.18	46.0880258633182	0	1	0	1	0	46.0880258633182	0
4.19	46.2208462090926	0	1	0	1	0	46.2208462090926	0
4.2	46.3541766313494	0	1	0	1	0	46.3541766313494	0
4.21	46.4880162157218	0	1	0	1	0	46.4880162157218	0
4.22	46.6223640565107	0	1	0	1	0	46.6223640565107	0
4.23	46.757219256581	0	1	0	1	0	46.757219256581	0
4.24	46.8925809272613	0	1	0	1	0	46.8925809272613	0
4.25	47.0284481882442	0	1	0	1	0	47.0284481882442	0
4.26	47.1648201674882	0	1	0	1	0	47.1648201674882	0
4.27	47.3016960011206	0	1	0	1	0	47.3016960011206	0
4.28	47.4390748333424	0	1	0	1	0	47.4390748333424	0
4.29	47.576955816334	0	1	0	1	0	47.576955816334	0
4.3	47.7153381101625	0	1	0	1	0	47.7153381101625	0
4.31	47.8542208826904	0	1	0	1	0	47.8542208826904	0
4.32	47.9936033094848	0	1	0	1	0	47.9936033094848	0
4.33	48.1334845737292	0	1	0	1	0	48.1334845737292	0
4.34	48.2738638661352	0	1	0	1	0	48.2738638661352	0
4.35	48.414740384856	0	1	0	1	0	48.414740384856	0
4.36	48.5561133354013	0	1	0	1	0	48.5561133354013	0
4.37	48.6979819305532	0	1	0	1	0	48.6979819305532	0
4.38	48.8403453902827	0	1	0	1	0	48.8403453902827	0
4.39	48.9832029416683	0	1	0	1	0	48.9832029416683	0
4.4	49.1265538188151	0	1	0	1	0	49.1265538188151	0
4.41	49.2703972627749	0	1	0	1	0	49.2703972627749	0
4.42	49.4147325214679	0	1	0	1	0	49.4147325214679	0
4.43	49.5595588496053	0	1	0	1	0	49.5595588496053	0
4.44	49.7048755086122	0	1	0	1	0	49.7048755086122	0
4.45	49.850681766553	0	1	0	1	0	49.850681766553	0
4.46	49.9969768980563	0	1	0	1	0	49.9969768980563	0
4.47	50.1437601842417	0	1	0	1	0	50.1437601842417	0
4.48	50.2910309126475	0	1	0	1	0	50.2910309126475	0
4.49	50.438788377159	0	1	0	1	0	50.438788377159	0
4.5	50.5870318779382	0	1	0	1	0	50.5870318779382	0
4.51	50.7357607213539	0	1	0	1	0	50.7357607213539	0
4.52	50.8849742199133	0	1	0	1	0	50.8849742199133	0
4.53	51.0346716921944	0	1	0	1	0	51.0346716921944	0
4.54	51.1848524627786	0	1	0	1	0	51.1848524627786	0
4.55	51.3355158621852	0	1	0	1	0	51.3355158621852	0
4.56	51.4866612268061	0	1	0	1	0	51.4866612268061	0
4.57	51.6382878988415	0	1	0	1	0	51.6382878988415	0
4.58	51.7903952262369	0	1	0	1	0	51.7903952262369	0
4.59	51.9429825626198	0	1	0	1	0	51.9429825626198	0
4.6	52.0960492672385	0	1	0	1	0	52.0960492672385	0
4.61	52.2495947049011	0	1	0	1	0	52.2495947049011	0
4.62	52.4036182459149	0	1	0	1	0	52.4036182459149	0
4.63	52.5581192660276	0	1	0	1	0	52.5581192660276	0
4.64	52.7130971463681	0	1	0	1	0	52.7130971463681	0
4.65	52.8685512733893	0	1	0	1	0	52.8685512733893	0
4.66	53.0244810388101	0	1	0	1	0	53.0244810388101	0
4.67	53.1808858395601	0	1	0	1	0	53.1808858395601	0
4.68	53.3377650777228	0	1	0	1	0	53.3377650777228	0
4.69	53.4951181604816	0	1	0	1	0	53.4951181604816	0
4.7	53.6529445000649	0	1	0	1	0	53.6529445000649	0
4.71	53.8112435136929	0	1	0	1	0	53.8112435136929	0
4.72	53.9700146235246	0	1	0	1	0	53.9700146235246	0
4.73	54.1292572566055	0	1	0	1	0	54.1292572566055	0
4.74	54.2889708448165	0	1	0	1	0	54.2889708448165	0
4.75	54.4491548248222	0	1	0	1	0	54.4491548248222	0
4.76	54.6098086380215	0	1	0	1	0	54.6098086380215	0
4.77	54.7709317304972	0	1	0	1	0	54.7709317304972	0
4.78	54.9325235529678	0	1	0	1	0	54.9325235529678	0
4.79	55.0945835607384	0	1	0	1	0	55.0945835607384	0
4.8	55.2571112136534	0	1	0	1	0	55.2571112136534	0
4.81	55.420105976049	0	1	0	1	0	55.420105976049	0
4.82	55.5835673167069	0	1	0	1	0	55.5835673167069	0
4.83	55.747494708808	0	1	0	1	0	55.747494708808	0
4.84	55.911887629887	0	1	0	1	0	55.911887629887	0
4.85	56.0767455617879	0	1	0	1	0	56.0767455617879	0
4.86	56.242067990619	0	1	0	1	0	56.242067990619	0
4.87	56.4078544067097	0	1	0	1	0	56.4078544067097	0
4.88	56.574104304567	0	1	0	1	0	56.574104304567	0
4.89	56.7408171828328	0	1	0	1	0	56.7408171828328	0
4.9	56.9079925442416	0	1	0	1	0	56.9079925442416	0
4.91	57.0756298955791	0	1	0	1	0	57.0756298955791	0
4.92	57.2437287476409	0	1	0	1	0	57.2437287476409	0
4.93	57.4122886151915	0	1	0	1	0	57.4122886151915	0
