# GHZ S RI R 50
1	59.9340464187937	0	1	0	1	0	59.9340464187937	0
1.01	59.4287352683154	0	1	0	1	0	59.4287352683154	0
1.02	58.9343720497548	0	1	0	1	0	58.9343720497548	0
1.03	58.4506480870939	0	1	0	1	0	58.4506480870939	0
1.04	57.977266576469	0	1	0	1	0	57.977266576469	0
1.05	57.5139420208305	0	1	0	1	0	57.5139420208305	0
1.06	57.0603996966022	0	1	0	1	0	57.0603996966022	0
1.07	56.6163751502482	0	1	0	1	0	56.6163751502482	0
1.08	56.1816137228079	0	1	0	1	0	56.1816137228079	0
1.09	55.7558701006039	0	1	0	1	0	55.7558701006039	0
1.1	55.3389078904559	0	1	0	1	0	55.3389078904559	0
1.11	54.9304992178569	0	1	0	1	0	54.9304992178569	0
1.12	54.5304243466751	0	1	0	1	0	54.5304243466751	0
1.13	54.138471319049	0	1	0	1	0	54.138471319049	0
1.14	53.7544356142347	0	1	0	1	0	53.7544356142347	0
1.15	53.3781198252537	0	1	0	1	0	53.3781198252537	0
1.16	53.0093333522644	0	1	0	1	0	53.0093333522644	0
1.17	52.6478921116593	0	1	0	1	0	52.6478921116593	0
1.18	52.293618259953	0	1	0	1	0	52.293618259953	0
1.19	51.9463399315926	0	1	0	1	0	51.9463399315926	0
1.2	51.6058909898768	0	1	0	1	0	51.6058909898768	0
1.21	51.2721107902267	0	1	0	1	0	51.2721107902267	0
1.22	50.9448439550988	0	1	0	1	0	50.9448439550988	0
1.23	50.6239401598779	0	1	0	1	0	50.6239401598779	0
1.24	50.3092539291297	0	1	0	1	0	50.3092539291297	0
1.25	50.000644442634	0	1	0	1	0	50.000644442634	0
1.26	49.6979753506538	0	1	0	1	0	49.6979753506538	0
1.27	49.4011145979319	0	1	0	1	0	49.4011145979319	0
1.28	49.109934255938	0	1	0	1	0	49.109934255938	0
1.29	48.8243103629178	0	1	0	1	0	48.8243103629178	0
1.3	48.5441227713248	0	1	0	1	0	48.5441227713248	0
1.31	48.2692550022402	0	1	0	1	0	48.2692550022402	0
1.32	47.9995941064089	0	1	0	1	0	47.9995941064089	0
1.33	47.7350305315464	0	1	0	1	0	47.7350305315464	0
1.34	47.4754579955852	0	1	0	1	0	47.4754579955852	0
1.35	47.2207733655564	0	1	0	1	0	47.2207733655564	0
1.36	46.9708765418135	0	1	0	1	0	46.9708765418135	0
1.37	46.7256703473277	0	1	0	1	0	46.7256703473277	0
1.38	46.4850604217953	0	1	0	1	0	46.4850604217953	0
1.39	46.2489551203173	0	1	0	1	0	46.2489551203173	0
1.4	46.0172654164204	0	1	0	1	0	46.0172654164204	0
1.41	45.7899048092047	0	1	0	1	0	45.7899048092047	0
1.42	45.5667892344158	0	1	0	1	0	45.5667892344158	0
1.43	45.3478369792466	0	1	0	1	0	45.3478369792466	0
1.44	45.1329686006905	0	1	0	1	0	45.1329686006905	0
1.45	44.9221068472718	0	1	0	1	0	44.9221068472718	0
1.46	44.7151765839939	0	1	0	1	0	44.7151765839939	0
1.47	44.5121047203496	0	1	0	1	0	44.5121047203496	0
1.48	44.3128201412512	0	1	0	1	0	44.3128201412512	0
1.49	44.1172536407405	0	1	0	1	0	44.1172536407405	0
1.5	43.9253378583516	0	1	0	1	0	43.9253378583516	0
1.51	43.737007218002	0	1	0	1	0	43.737007218002	0
1.52	43.5521978692954	0	1	0	1	0	43.5521978692954	0
1.53	43.370847631127	0	1	0	1	0	43.370847631127	0
1.54	43.1928959374855	0	1	0	1	0	43.1928959374855	0
1.55	43.0182837853536	0	1	0	1	0	43.0182837853536	0
1.56	42.8469536846118	0	1	0	1	0	42.8469536846118	0
1.57	42.6788496098569	0	1	0	1	0	42.6788496098569	0
1.58	42.5139169540506	0	1	0	1	0	42.5139169540506	0
1.59	42.3521024839164	0	1	0	1	0	42.3521024839164	0
1.6	42.1933542970098	0	1	0	1	0	42.1933542970098	0
1.61	42.0376217803879	0	1	0	1	0	42.0376217803879	0
1.62	41.8848555708101	0	1	0	1	0	41.8848555708101	0
1.63	41.7350075164039	0	1	0	1	0	41.7350075164039	0
1.64	41.5880306397324	0	1	0	1	0	41.5880306397324	0
1.65	41.4438791022059	0	1	0	1	0	41.4438791022059	0
1.66	41.3025081697789	0	1	0	1	0	41.3025081697789	0
1.67	41.1638741798801	0	1	0	1	0	41.1638741798801	0
1.68	41.0279345095231	0	1	0	1	0	41.0279345095231	0
1.69	40.8946475445499	0	1	0	1	0	40.8946475445499	0
1.7	40.7639726499587	0	1	0	1	0	40.7639726499587	0
1.71	40.6358701412745	0	1	0	1	0	40.6358701412745	0
1.72	40.5103012569168	0	1	0	1	0	40.5103012569168	0
1.73	40.3872281315267	0	1	0	1	0	40.3872281315267	0
1.74	40.2666137702133	0	1	0	1	0	40.2666137702133	0
1.75	40.1484220236832	0	1	0	1	0	40.1484220236832	0
1.76	40.0326175642179	0	1	0	1	0	40.0326175642179	0
1.77	39.9191658624653	0	1	0	1	0	39.9191658624653	0
1.78	39.808033165014	0	1	0	1	0	39.808033165014	0
1.79	39.6991864727186	0	1	0	1	0	39.6991864727186	0
1.8	39.5925935197481	0	1	0	1	0	39.5925935197481	0
1.81	39.4882227533286	0	1	0	1	0	39.4882227533286	0
1.82	39.3860433141535	0	1	0	1	0	39.3860433141535	0
1.83	39.286025017437	0	1	0	1	0	39.286025017437	0
1.84	39.1881383345839	0	1	0	1	0	39.1881383345839	0
1.85	39.0923543754554	0	1	0	1	0	39.0923543754554	0
1.86	38.9986448712057	0	1	0	1	0	38.9986448712057	0
1.87	38.9069821576705	0	1	0	1	0	38.9069821576705	0
1.88	38.8173391592846	0	1	0	1	0	38.8173391592846	0
1.89	38.7296893735105	0	1	0	1	0	38.7296893735105	0
1.9	38.6440068557593	0	1	0	1	0	38.6440068557593	0
1.91	38.5602662047837	0	1	0	1	0	38.5602662047837	0
1.92	38.4784425485294	0	1	0	1	0	38.4784425485294	0
1.93	38.3985115304251	0	1	0	1	0	38.3985115304251	0
1.94	38.3204492960966	0	1	0	1	0	38.3204492960966	0
1.95	38.2442324804906	0	1	0	1	0	38.2442324804906	0
1.96	38.1698381953912	0	1	0	1	0	38.1698381953912	0
1.97	38.0972440173182	0	1	0	1	0	38.0972440173182	0
1.98	38.0264279757906	0	1	0	1	0	38.0264279757906	0
1.99	37.9573685419456	0	1	0	1	0	37.9573685419456	0
2	37.8900446174972	0	1	0	1	0	37.8900446174972	0
2.01	37.824435524026	0	1	0	1	0	37.824435524026	0
2.02	37.7605209925864	0	1	0	1	0	37.7605209925864	0
2.03	37.6982811536206	0	1	0	1	0	37.6982811536206	0
2.04	37.6376965271701	0	1	0	1	0	37.6376965271701	0
2.05	37.5787480133732	0	1	0	1	0	37.5787480133732	0
2.06	37.5214168832393	0	1	0	1	0	37.5214168832393	0
2.07	37.4656847696904	0	1	0	1	0	37.4656847696904	0
2.08	37.411533658862	0	1	0	1	0	37.411533658862	0
2.09	37.3589458816522	0	1	0	1	0	37.3589458816522	0
2.1	37.3079041055136	0	1	0	1	0	37.3079041055136	0
2.11	37.2583913264777	0	1	0	1	0	37.2583913264777	0
2.12	37.2103908614059	0	1	0	1	0	37.2103908614059	0
2.13	37.1638863404576	0	1	0	1	0	37.1638863404576	0
2.14	37.1188616997709	0	1	0	1	0	37.1188616997709	0
2.15	37.0753011743462	0	1	0	1	0	37.0753011743462	0
2.16	37.0331892911284	0	1	0	1	0	37.0331892911284	0
2.17	36.9925108622801	0	1	0	1	0	36.9925108622801	0
2.18	36.9532509786396	0	1	0	1	0	36.9532509786396	0
2.19	36.9153950033589	0	1	0	1	0	36.9153950033589	0
2.2	36.8789285657145	0	1	0	1	0	36.8789285657145	0
2.21	36.8438375550861	0	1	0	1	0	36.8438375550861	0
2.22	36.8101081150994	0	1	0	1	0	36.8101081150994	0
2.23	36.7777266379245	0	1	0	1	0	36.7777266379245	0
2.24	36.7466797587286	0	1	0	1	0	36.7466797587286	0
2.25	36.7169543502759	0	1	0	1	0	36.7169543502759	0
2.26	36.6885375176712	0	1	0	1	0	36.6885375176712	0
2.27	36.6614165932418	0	1	0	1	0	36.6614165932418	0
2.28	36.6355791315553	0	1	0	1	0	36.6355791315553	0
2.29	36.6110129045664	0	1	0	1	0	36.6110129045664	0
2.3	36.5877058968916	0	1	0	1	0	36.5877058968916	0
2.31	36.5656463012061	0	1	0	1	0	36.5656463012061	0
2.32	36.5448225137595	0	1	0	1	0	36.5448225137595	0
2.33	36.5252231300074	0	1	0	1	0	36.5252231300074	0
2.34	36.506836940355	0	1	0	1	0	36.506836940355	0
2.35	36.4896529260091	0	1	0	1	0	36.4896529260091	0
2.36	36.4736602549356	0	1	0	1	0	36.4736602549356	0
2.37	36.4588482779196	0	1	0	1	0	36.4588482779196	0
2.38	36.4452065247247	0	1	0	1	0	36.4452065247247	0
2.39	36.4327247003484	0	1	0	1	0	36.4327247003484	0
2.4	36.4213926813717	0	1	0	1	0	36.4213926813717	0
2.41	36.4112005123991	0	1	0	1	0	36.4112005123991	0
2.42	36.4021384025871	0	1	0	1	0	36.4021384025871	0
2.43	36.3941967222585	0	1	0	1	0	36.3941967222585	0
2.44	36.3873659995993	0	1	0	1	0	36.3873659995993	0
2.45	36.3816369174377	0	1	0	1	0	36.3816369174377	0
2.46	36.3770003101005	0	1	0	1	0	36.3770003101005	0
2.47	36.3734471603465	0	1	0	1	0	36.3734471603465	0
2.48	36.3709685963738	0	1	0	1	0	36.3709685963738	0
2.49	36.3695558888994	0	1	0	1	0	36.3695558888994	0
2.5	36.3692004483089	0	1	0	1	0	36.3692004483089	0
2.51	36.3698938218741	0	1	0	1	0	36.3698938218741	0
2.52	36.3716276910373	0	1	0	1	0	36.3716276910373	0
2.53	36.3743938687592	0	1	0	1	0	36.3743938687592	0
2.54	36.3781842969305	0	1	0	1	0	36.3781842969305	0
2.55	36.3829910438434	0	1	0	1	0	36.3829910438434	0
2.56	36.3888063017233	0	1	0	1	0	36.3888063017233	0
2.57	36.3956223843171	0	1	0	1	0	36.3956223843171	0
2.58	36.4034317245385	0	1	0	1	0	36.4034317245385	0
2.59	36.4122268721676	0	1	0	1	0	36.4122268721676	0
2.6	36.422000491603	0	1	0	1	0	36.422000491603	0
2.61	36.4327453596665	0	1	0	1	0	36.4327453596665	0
2.62	36.4444543634573	0	1	0	1	0	36.4444543634573	0
2.63	36.4571204982556	0	1	0	1	0	36.4571204982556	0
2.64	36.4707368654738	0	1	0	1	0	36.4707368654738	0
2.65	36.485296670654	0	1	0	1	0	36.485296670654	0
2.66	36.5007932215103	0	1	0	1	0	36.5007932215103	0
2.67	36.5172199260161	0	1	0	1	0	36.5172199260161	0
2.68	36.5345702905331	0	1	0	1	0	36.5345702905331	0
2.69	36.5528379179827	0	1	0	1	0	36.5528379179827	0
2.7	36.5720165060577	0	1	0	1	0	36.5720165060577	0
2.71	36.5920998454741	0	1	0	1	0	36.5920998454741	0
2.72	36.6130818182609	0	1	0	1	0	36.6130818182609	0
2.73	36.6349563960874	0	1	0	1	0	36.6349563960874	0
2.74	36.6577176386281	0	1	0	1	0	36.6577176386281	0
2.75	36.6813596919621	0	1	0	1	0	36.6813596919621	0
2.76	36.7058767870078	0	1	0	1	0	36.7058767870078	0
2.77	36.7312632379917	0	1	0	1	0	36.7312632379917	0
2.78	36.7575134409502	0	1	0	1	0	36.7575134409502	0
2.79	36.784621872263	0	1	0	1	0	36.784621872263	0
2.8	36.8125830872187	0	1	0	1	0	36.8125830872187	0
2.81	36.8413917186109	0	1	0	1	0	36.8413917186109	0
2.82	36.8710424753635	0	1	0	1	0	36.8710424753635	0
2.83	36.9015301411862	0	1	0	1	0	36.9015301411862	0
2.84	36.9328495732573	0	1	0	1	0	36.9328495732573	0
2.85	36.9649957009353	0	1	0	1	0	36.9649957009353	0
2.86	36.9979635244965	0	1	0	1	0	36.9979635244965	0
2.87	37.0317481139002	0	1	0	1	0	37.0317481139002	0
2.88	37.0663446075779	0	1	0	1	0	37.0663446075779	0
2.89	37.1017482112497	0	1	0	1	0	37.1017482112497	0
2.9	37.1379541967636	0	1	0	1	0	37.1379541967636	0
2.91	37.1749579009593	0	1	0	1	0	37.1749579009593	0
2.92	37.2127547245553	0	1	0	1	0	37.2127547245553	0
2.93	37.2513401310592	0	1	0	1	0	37.2513401310592	0
2.94	37.2907096456995	0	1	0	1	0	37.2907096456995	0
2.95	37.3308588543793	0	1	0	1	0	37.3308588543793	0
2.96	37.3717834026521	0	1	0	1	0	37.3717834026521	0
2.97	37.4134789947168	0	1	0	1	0	37.4134789947168	0
2.98	37.4559413924342	0	1	0	1	0	37.4559413924342	0
2.99	37.4991664143626	0	1	0	1	0	37.4991664143626	0
3	37.5431499348129	0	1	0	1	0	37.5431499348129	0
3.01	37.5878878829223	0	1	0	1	0	37.5878878829223	0
3.02	37.6333762417468	0	1	0	1	0	37.6333762417468	0
3.03	37.6796110473714	0	1	0	1	0	37.6796110473714	0
3.04	37.7265883880378	0	1	0	1	0	37.7265883880378	0
3.05	37.7743044032895	0	1	0	1	0	37.7743044032895	0
3.06	37.8227552831334	0	1	0	1	0	37.8227552831334	0
3.07	37.8719372672183	0	1	0	1	0	37.8719372672183	0
3.08	37.9218466440282	0	1	0	1	0	37.9218466440282	0
3.09	37.9724797500931	0	1	0	1	0	37.9724797500931	0
3.1	38.0238329692133	0	1	0	1	0	38.0238329692133	0
3.11	38.0759027316999	0	1	0	1	0	38.0759027316999	0
3.12	38.1286855136291	0	1	0	1	0	38.1286855136291	0
3.13	38.1821778361113	0	1	0	1	0	38.1821778361113	0
3.14	38.236376264574	0	1	0	1	0	38.236376264574	0
3.15	38.2912774080583	0	1	0	1	0	38.2912774080583	0
3.16	38.3468779185288	0	1	0	1	0	38.3468779185288	0
3.17	38.4031744901967	0	1	0	1	0	38.4031744901967	0
3.18	38.4601638588553	0	1	0	1	0	38.4601638588553	0
3.19	38.5178428012284	0	1	0	1	0	38.5178428012284	0
3.2	38.5762081343311	0	1	0	1	0	38.5762081343311	0
3.21	38.6352567148413	0	1	0	1	0	38.6352567148413	0
3.22	38.6949854384848	0	1	0	1	0	38.6949854384848	0
3.23	38.7553912394304	0	1	0	1	0	38.7553912394304	0
3.24	38.8164710896963	0	1	0	1	0	38.8164710896963	0
3.25	38.8782219985686	0	1	0	1	0	38.8782219985686	0
3.26	38.9406410120292	0	1	0	1	0	38.9406410120292	0
3.27	39.0037252121944	0	1	0	1	0	39.0037252121944	0
3.28	39.067471716765	0	1	0	1	0	39.067471716765	0
3.29	39.1318776784845	0	1	0	1	0	39.1318776784845	0
3.3	39.1969402846089	0	1	0	1	0	39.1969402846089	0
3.31	39.2626567563849	0	1	0	1	0	39.2626567563849	0
3.32	39.3290243485382	0	1	0	1	0	39.3290243485382	0
3.33	39.3960403487707	0	1	0	1	0	39.3960403487707	0
3.34	39.4637020772671	0	1	0	1	0	39.4637020772671	0
3.35	39.5320068862098	0	1	0	1	0	39.5320068862098	0
3.36	39.6009521593026	0	1	0	1	0	39.6009521593026	0
3.37	39.6705353113037	0	1	0	1	0	39.6705353113037	0
3.38	39.7407537875656	0	1	0	1	0	39.7407537875656	0
3.39	39.8116050635841	0	1	0	1	0	39.8116050635841	0
3.4	39.8830866445552	0	1	0	1	0	39.8830866445552	0
3.41	39.9551960649394	0	1	0	1	0	39.9551960649394	0
3.42	40.0279308880339	0	1	0	1	0	40.0279308880339	0
3.43	40.1012887055523	0	1	0	1	0	40.1012887055523	0
3.44	40.1752671372115	0	1	0	1	0	40.1752671372115	0
3.45	40.2498638303259	0	1	0	1	0	40.2498638303259	0
3.46	40.3250764594085	0	1	0	1	0	40.3250764594085	0
3.47	40.4009027257791	0	1	0	1	0	40.4009027257791	0
3.48	40.4773403571794	0	1	0	1	0	40.4773403571794	0
3.49	40.5543871073936	0	1	0	1	0	40.5543871073936	0
3.5	40.6320407558775	0	1	0	1	0	40.6320407558775	0
3.51	40.710299107392	0	1	0	1	0	40.710299107392	0
3.52	40.7891599916437	0	1	0	1	0	40.7891599916437	0
3.53	40.8686212629322	0	1	0	1	0	40.8686212629322	0
3.54	40.9486807998019	0	1	0	1	0	40.9486807998019	0
3.55	41.0293365047011	0	1	0	1	0	41.0293365047011	0
3.56	41.1105863036463	0	1	0	1	0	41.1105863036463	0
3.57	41.1924281458914	0	1	0	1	0	41.1924281458914	0
3.58	41.2748600036042	0	1	0	1	0	41.2748600036042	0
3.59	41.3578798715464	0	1	0	1	0	41.3578798715464	0
3.6	41.4414857667602	0	1	0	1	0	41.4414857667602	0
3.61	41.5256757282597	0	1	0	1	0	41.5256757282597	0
3.62	41.6104478167273	0	1	0	1	0	41.6104478167273	0
3.63	41.6958001142153	0	1	0	1	0	41.6958001142153	0
3.64	41.7817307238522	0	1	0	1	0	41.7817307238522	0
3.65	41.8682377695545	0	1	0	1	0	41.8682377695545	0
3.66	41.9553193957421	0	1	0	1	0	41.9553193957421	0
3.67	42.042973767059	0	1	0	1	0	42.042973767059	0
3.68	42.1311990680992	0	1	0	1	0	42.1311990680992	0
3.69	42.2199935031355	0	1	0	1	0	42.2199935031355	0
3.7	42.3093552958542	0	1	0	1	0	42.3093552958542	0
3.71	42.3992826890931	0	1	0	1	0	42.3992826890931	0
3.72	42.4897739445843	0	1	0	1	0	42.4897739445843	0
3.73	42.5808273427007	0	1	0	1	0	42.5808273427007	0
3.74	42.6724411822071	0	1	0	1	0	42.6724411822071	0
3.75	42.7646137800149	0	1	0	1	0	42.7646137800149	0
3.76	42.8573434709403	0	1	0	1	0	42.8573434709403	0
3.77	42.9506286074676	0	1	0	1	0	42.9506286074676	0
3.78	43.044467559515	0	1	0	1	0	43.044467559515	0
3.79	43.1388587142047	0	1	0	1	0	43.1388587142047	0
3.8	43.2338004756366	0	1	0	1	0	43.2338004756366	0
3.81	43.3292912646656	0	1	0	1	0	43.3292912646656	0
3.82	43.4253295186818	0	1	0	1	0	43.4253295186818	0
3.83	43.5219136913952	0	1	0	1	0	43.5219136913952	0
3.84	43.6190422526232	0	1	0	1	0	43.6190422526232	0
3.85	43.7167136880807	0	1	0	1	0	43.7167136880807	0
3.86	43.8149264991751	0	1	0	1	0	43.8149264991751	0
3.87	43.913679202803	0	1	0	1	0	43.913679202803	0
3.88	44.0129703311507	0	1	0	1	0	44.0129703311507	0
3.89	44.1127984314976	0	1	0	1	0	44.1127984314976	0
3.9	44.213162066023	0	1	0	1	0	44.213162066023	0
3.91	44.3140598116152	0	1	0	1	0	44.3140598116152	0
3.92	44.4154902596842	0	1	0	1	0	44.4154902596842	0
3.93	44.5174520159767	0	1	0	1	0	44.5174520159767	0
3.94	44.6199437003943	0	1	0	1	0	44.6199437003943	0
3.95	44.7229639468141	0	1	0	1	0	44.7229639468141	0
3.96	44.8265114029127	0	1	0	1	0	44.8265114029127	0
3.97	44.9305847299919	0	1	0	1	0	44.9305847299919	0
3.98	45.0351826028079	0	1	0	1	0	45.0351826028079	0
3.99	45.1403037094025	0	1	0	1	0	45.1403037094025	0
4	45.2459467509371	0	1	0	1	0	45.2459467509371	0
4.01	45.352110441529	0	1	0	1	0	45.352110441529	0
4.02	45.4587935080905	0	1	0	1	0	45.4587935080905	0
4.03	45.5659946901699	0	1	0	1	0	45.5659946901699	0
4.04	45.6737127397952	0	1	0	1	0	45.6737127397952	0
4.05	45.7819464213203	0	1	0	1	0	45.7819464213203	0
4.06	45.8906945112725	0	1	0	1	0	45.8906945112725	0
4.07	45.9999557982039	0	1	0	1	0	45.9999557982039	0
4.08	46.1097290825431	0	1	0	1	0	46.1097290825431	0
4.09	46.2200131764507	0	1	0	1	0	46.2200131764507	0
4.1	46.330806903676	0	1	0	1	0	46.330806903676	0
4.11	46.4421090994159	0	1	0	1	0	46.4421090994159	0
4.12	46.5539186101761	0	1	0	1	0	46.5539186101761	0
4.13	46.666234293634	0	1	0	1	0	46.666234293634	0
4.14	46.7790550185043	0	1	0	1	0	46.7790550185043	0
4.15	46.8923796644053	0	1	0	1	0	46.8923796644053	0
4.16	47.0062071217283	0	1	0	1	0	47.0062071217283	0
4.17	47.1205362915085	0	1	0	1	0	47.1205362915085	0
4.18	47.2353660852972	0	1	0	1	0	47.2353660852972	0
4.19	47.350695425037	0	1	0	1	0	47.350695425037	0
4.2	47.4665232429373	0	1	0	1	0	47.4665232429373	0
4.21	47.5828484813532	0	1	0	1	0	47.5828484813532	0
4.22	47.6996700926644	0	1	0	1	0	47.6996700926644	0
4.23	47.8169870391577	0	1	0	1	0	47.8169870391577	0
4.24	47.9347982929091	0	1	0	1	0	47.9347982929091	0
4.25	48.0531028356697	0	1	0	1	0	48.0531028356697	0
4.26	48.1718996587513	0	1	0	1	0	48.1718996587513	0
4.27	48.2911877629147	0	1	0	1	0	48.2911877629147	0
4.28	48.4109661582598	0	1	0	1	0	48.4109661582598	0
4.29	48.5312338641158	0	1	0	1	0	48.5312338641158	0
4.3	48.6519899089349	0	1	0	1	0	48.6519899089349	0
4.31	48.7732333301856	0	1	0	1	0	48.7732333301856	0
4.32	48.894963174249	0	1	0	1	0	48.894963174249	0
4.33	49.0171784963156	0	1	0	1	0	49.0171784963156	0
4.34	49.1398783602835	0	1	0	1	0	49.1398783602835	0
4.35	49.2630618386591	0	1	0	1	0	49.2630618386591	0
4.36	49.3867280124576	0	1	0	1	0	49.3867280124576	0
4.37	49.510875971106	0	1	0	1	0	49.510875971106	0
4.38	49.6355048123472	0	1	0	1	0	49.6355048123472	0
4.39	49.7606136421448	0	1	0	1	0	49.7606136421448	0
4.4	49.8862015745904	0	1	0	1	0	49.8862015745904	0
4.41	50.0122677318108	0	1	0	1	0	50.0122677318108	0
4.42	50.1388112438773	0	1	0	1	0	50.1388112438773	0
4.43	50.2658312487164	0	1	0	1	0	50.2658312487164	0
4.44	50.3933268920207	0	1	0	1	0	50.3933268920207	0
4.45	50.5212973271621	0	1	0	1	0	50.5212973271621	0
4.46	50.6497417151055	0	1	0	1	0	50.6497417151055	0
4.47	50.7786592243242	0	1	0	1	0	50.7786592243242	0
4.48	50.9080490307155	0	1	0	1	0	50.9080490307155	0
4.49	51.0379103175186	0	1	0	1	0	51.0379103175186	0
4.5	51.1682422752327	0	1	0	1	0	51.1682422752327	0
4.51	51.2990441015366	0	1	0	1	0	51.2990441015366	0
4.52	51.4303150012094	0	1	0	1	0	51.4303150012094	0
4.53	51.5620541860519	0	1	0	1	0	51.5620541860519	0
4.54	51.6942608748095	0	1	0	1	0	51.6942608748095	0
4.55	51.8269342930956	0	1	0	1	0	51.8269342930956	0
4.56	51.9600736733165	0	1	0	1	0	51.9600736733165	0
4.57	52.0936782545973	0	1	0	1	0	52.0936782545973	0
4.58	52.227747282708	0	1	0	1	0	52.227747282708	0
4.59	52.3622800099916	0	1	0	1	0	52.3622800099916	0
4.6	52.4972756952922	0	1	0	1	0	52.4972756952922	0
4.61	52.6327336038851	0	1	0	1	0	52.6327336038851	0
4.62	52.7686530074066	0	1	0	1	0	52.7686530074066	0
4.63	52.9050331837857	0	1	0	1	0	52.9050331837857	0
4.64	53.041873417176	0	1	0	1	0	53.041873417176	0
4.65	53.1791729978892	0	1	0	1	0	53.1791729978892	0
4.66	53.3169312223284	0	1	0	1	0	53.3169312223284	0
4.67	53.4551473929234	0	1	0	1	0	53.4551473929234	0
4.68	53.5938208180661	0	1	0	1	0	53.5938208180661	0
4.69	53.7329508120472	0	1	0	1	0	53.7329508120472	0
4.7	53.8725366949928	0	1	0	1	0	53.8725366949928	0
4.71	54.0125777928031	0	1	0	1	0	54.0125777928031	0
4.72	54.1530734370912	0	1	0	1	0	54.1530734370912	0
4.73	54.2940229651222	0	1	0	1	0	54.2940229651222	0
4.74	54.435425719754	0	1	0	1	0	54.435425719754	0
4.75	54.5772810493784	0	1	0	1	0	54.5772810493784	0
4.76	54.7195883078629	0	1	0	1	0	54.7195883078629	0
4.77	54.8623468544932	0	1	0	1	0	54.8623468544932	0
4.78	55.0055560539168	0	1	0	1	0	55.0055560539168	0
4.79	55.1492152760866	0	1	0	1	0	55.1492152760866	0
4.8	55.293323896206	0	1	0	1	0	55.293323896206	0
4.81	55.4378812946745	0	1	0	1	0	55.4378812946745	0
4.82	55.582886857033	0	1	0	1	0	55.582886857033	0
4.83	55.7283399739114	0	1	0	1	0	55.7283399739114	0
4.84	55.8742400409758	0	1	0	1	0	55.8742400409758	0
4.85	56.0205864588763	0	1	0	1	0	56.0205864588763	0
4.86	56.1673786331959	0	1	0	1	0	56.1673786331959	0
4.87	56.3146159744001	0	1	0	1	0	56.3146159744001	0
4.88	56.4622978977863	0	1	0	1	0	56.4622978977863	0
4.89	56.6104238234352	0	1	0	1	0	56.6104238234352	0
4.9	56.7589931761612	0	1	0	1	0	56.7589931761612	0
4.91	56.9080053854646	0	1	0	1	0	56.9080053854646	0
4.92	57.0574598854838	0	1	0	1	0	57.0574598854838	0
4.93	57.2073561149487	0	1	0	1	0	57.2073561149487	0
