# GHZ S RI R 50
1	54.0045894459111	0	1	0	1	0	54.0045894459111	0
1.01	53.5555511592033	0	1	0	1	0	53.5555511592033	0
1.02	53.1165856697519	0	1	0	1	0	53.1165856697519	0
1.03	52.6874120289054	0	1	0	1	0	52.6874120289054	0
1.04	52.2677600937296	0	1	0	1	0	52.2677600937296	0
1.05	51.8573700124497	0	1	0	1	0	51.8573700124497	0
1.06	51.4559917390183	0	1	0	1	0	51.4559917390183	0
1.07	51.0633845749038	0	1	0	1	0	51.0633845749038	0
1.08	50.679316736335	0	1	0	1	0	50.679316736335	0
1.09	50.3035649453671	0	1	0	1	0	50.3035649453671	0
1.1	49.9359140432533	0	1	0	1	0	49.9359140432533	0
1.11	49.5761566247154	0	1	0	1	0	49.5761566247154	0
1.12	49.2240926918062	0	1	0	1	0	49.2240926918062	0
1.13	48.8795293261521	0	1	0	1	0	48.8795293261521	0
1.14	48.5422803784452	0	1	0	1	0	48.5422803784452	0
1.15	48.212166174136	0	1	0	1	0	48.212166174136	0
1.16	47.8890132343493	0	1	0	1	0	47.8890132343493	0
1.17	47.5726540111116	0	1	0	1	0	47.5726540111116	0
1.18	47.2629266360415	0	1	0	1	0	47.2629266360415	0
1.19	46.9596746817118	0	1	0	1	0	46.9596746817118	0
1.2	46.6627469349429	0	1	0	1	0	46.6627469349429	0
1.21	46.3719971813379	0	1	0	1	0	46.3719971813379	0
1.22	46.0872840004145	0	1	0	1	0	46.0872840004145	0
1.23	45.8084705707307	0	1	0	1	0	45.8084705707307	0
1.24	45.5354244844391	0	1	0	1	0	45.5354244844391	0
1.25	45.2680175707437	0	1	0	1	0	45.2680175707437	0
1.26	45.0061257277625	0	1	0	1	0	45.0061257277625	0
1.27	44.7496287623342	0	1	0	1	0	44.7496287623342	0
1.28	44.4984102373339	0	1	0	1	0	44.4984102373339	0
1.29	44.25235732609	0	1	0	1	0	44.25235732609	0
1.3	44.0113606735208	0	1	0	1	0	44.0113606735208	0
1.31	43.7753142636314	0	1	0	1	0	43.7753142636314	0
1.32	43.5441152930325	0	1	0	1	0	43.5441152930325	0
1.33	43.317664050166	0	1	0	1	0	43.317664050166	0
1.34	43.0958637999384	0	1	0	1	0	43.0958637999384	0
1.35	42.8786206734812	0	1	0	1	0	42.8786206734812	0
1.36	42.6658435627749	0	1	0	1	0	42.6658435627749	0
1.37	42.4574440198881	0	1	0	1	0	42.4574440198881	0
1.38	42.2533361605977	0	1	0	1	0	42.2533361605977	0
1.39	42.053436572169	0	1	0	1	0	42.053436572169	0
1.4	41.8576642250881	0	1	0	1	0	41.8576642250881	0
1.41	41.665940388551	0	1	0	1	0	41.665940388551	0
1.42	41.4781885495227	0	1	0	1	0	41.4781885495227	0
1.43	41.2943343351928	0	1	0	1	0	41.2943343351928	0
1.44	41.1143054386626	0	1	0	1	0	41.1143054386626	0
1.45	40.9380315477063	0	1	0	1	0	40.9380315477063	0
1.46	40.7654442764604	0	1	0	1	0	40.7654442764604	0
1.47	40.5964770999014	0	1	0	1	0	40.5964770999014	0
1.48	40.4310652909792	0	1	0	1	0	40.4310652909792	0
1.49	40.2691458602828	0	1	0	1	0	40.2691458602828	0
1.5	40.1106574981187	0	1	0	1	0	40.1106574981187	0
1.51	39.9555405188913	0	1	0	1	0	39.9555405188913	0
1.52	39.8037368076785	0	1	0	1	0	39.8037368076785	0
1.53	39.6551897689029	0	1	0	1	0	39.6551897689029	0
1.54	39.5098442770015	0	1	0	1	0	39.5098442770015	0
1.55	39.367646629007	0	1	0	1	0	39.367646629007	0
1.56	39.228544498951	0	1	0	1	0	39.228544498951	0
1.57	39.0924868940109	0	1	0	1	0	39.0924868940109	0
1.58	38.9594241123216	0	1	0	1	0	38.9594241123216	0
1.59	38.8293077023793	0	1	0	1	0	38.8293077023793	0
1.6	38.7020904239679	0	1	0	1	0	38.7020904239679	0
1.61	38.5777262105413	0	1	0	1	0	38.5777262105413	0
1.62	38.4561701329989	0	1	0	1	0	38.4561701329989	0
1.63	38.3373783647947	0	1	0	1	0	38.3373783647947	0
1.64	38.2213081483229	0	1	0	1	0	38.2213081483229	0
1.65	38.1079177625258	0	1	0	1	0	38.1079177625258	0
1.66	37.9971664916721	0	1	0	1	0	37.9971664916721	0
1.67	37.8890145952579	0	1	0	1	0	37.8890145952579	0
1.68	37.7834232789817	0	1	0	1	0	37.7834232789817	0
1.69	37.6803546667502	0	1	0	1	0	37.6803546667502	0
1.7	37.5797717736725	0	1	0	1	0	37.5797717736725	0
1.71	37.4816384800011	0	1	0	1	0	37.4816384800011	0
1.72	37.3859195059829	0	1	0	1	0	37.3859195059829	0
1.73	37.2925803875813	0	1	0	1	0	37.2925803875813	0
1.74	37.2015874530367	0	1	0	1	0	37.2015874530367	0
1.75	37.1129078002297	0	1	0	1	0	37.1129078002297	0
1.76	37.0265092748161	0	1	0	1	0	37.0265092748161	0
1.77	36.9423604491037	0	1	0	1	0	36.9423604491037	0
1.78	36.8604306016407	0	1	0	1	0	36.8604306016407	0
1.79	36.780689697488	0	1	0	1	0	36.780689697488	0
1.8	36.7031083691497	0	1	0	1	0	36.7031083691497	0
1.81	36.6276578981352	0	1	0	1	0	36.6276578981352	0
1.82	36.5543101971296	0	1	0	1	0	36.5543101971296	0
1.83	36.4830377927485	0	1	0	1	0	36.4830377927485	0
1.84	36.4138138088548	0	1	0	1	0	36.4138138088548	0
1.85	36.3466119504172	0	1	0	1	0	36.3466119504172	0
1.86	36.2814064878887	0	1	0	1	0	36.2814064878887	0
1.87	36.2181722420874	0	1	0	1	0	36.2181722420874	0
1.88	36.1568845695582	0	1	0	1	0	36.1568845695582	0
1.89	36.0975193484009	0	1	0	1	0	36.0975193484009	0
1.9	36.0400529645447	0	1	0	1	0	36.0400529645447	0
1.91	35.9844622984542	0	1	0	1	0	35.9844622984542	0
1.92	35.9307247122511	0	1	0	1	0	35.9307247122511	0
1.93	35.878818037236	0	1	0	1	0	35.878818037236	0
1.94	35.828720561796	0	1	0	1	0	35.828720561796	0
1.95	35.7804110196845	0	1	0	1	0	35.7804110196845	0
1.96	35.7338685786601	0	1	0	1	0	35.7338685786601	0
1.97	35.6890728294711	0	1	0	1	0	35.6890728294711	0
1.98	35.6460037751737	0	1	0	1	0	35.6460037751737	0
1.99	35.604641820773	0	1	0	1	0	35.604641820773	0
2	35.5649677631737	0	1	0	1	0	35.5649677631737	0
2.01	35.5269627814319	0	1	0	1	0	35.5269627814319	0
2.02	35.4906084272956	0	1	0	1	0	35.4906084272956	0
2.03	35.455886616025	0	1	0	1	0	35.455886616025	0
2.04	35.4227796174832	0	1	0	1	0	35.4227796174832	0
2.05	35.3912700474872	0	1	0	1	0	35.3912700474872	0
2.06	35.3613408594108	0	1	0	1	0	35.3613408594108	0
2.07	35.3329753360314	0	1	0	1	0	35.3329753360314	0
2.08	35.3061570816114	0	1	0	1	0	35.3061570816114	0
2.09	35.280870014207	0	1	0	1	0	35.280870014207	0
2.1	35.2570983581975	0	1	0	1	0	35.2570983581975	0
2.11	35.2348266370258	0	1	0	1	0	35.2348266370258	0
2.12	35.2140396661454	0	1	0	1	0	35.2140396661454	0
2.13	35.1947225461657	0	1	0	1	0	35.1947225461657	0
2.14	35.1768606561893	0	1	0	1	0	35.1768606561893	0
2.15	35.1604396473355	0	1	0	1	0	35.1604396473355	0
2.16	35.1454454364436	0	1	0	1	0	35.1454454364436	0
2.17	35.1318641999504	0	1	0	1	0	35.1318641999504	0
2.18	35.119682367936	0	1	0	1	0	35.119682367936	0
2.19	35.1088866183328	0	1	0	1	0	35.1088866183328	0
2.2	35.099463871293	0	1	0	1	0	35.099463871293	0
2.21	35.0914012837076	0	1	0	1	0	35.0914012837076	0
2.22	35.0846862438755	0	1	0	1	0	35.0846862438755	0
2.23	35.0793063663139	0	1	0	1	0	35.0793063663139	0
2.24	35.0752494867099	0	1	0	1	0	35.0752494867099	0
2.25	35.0725036570046	0	1	0	1	0	35.0725036570046	0
2.26	35.0710571406094	0	1	0	1	0	35.0710571406094	0
2.27	35.0708984077478	0	1	0	1	0	35.0708984077478	0
2.28	35.0720161309201	0	1	0	1	0	35.0720161309201	0
2.29	35.0743991804868	0	1	0	1	0	35.0743991804868	0
2.3	35.0780366203673	0	1	0	1	0	35.0780366203673	0
2.31	35.0829177038504	0	1	0	1	0	35.0829177038504	0
2.32	35.0890318695132	0	1	0	1	0	35.0890318695132	0
2.33	35.0963687372445	0	1	0	1	0	35.0963687372445	0
2.34	35.1049181043712	0	1	0	1	0	35.1049181043712	0
2.35	35.1146699418824	0	1	0	1	0	35.1146699418824	0
2.36	35.1256143907506	0	1	0	1	0	35.1256143907506	0
2.37	35.1377417583454	0	1	0	1	0	35.1377417583454	0
2.38	35.1510425149377	0	1	0	1	0	35.1510425149377	0
2.39	35.1655072902919	0	1	0	1	0	35.1655072902919	0
2.4	35.1811268703429	0	1	0	1	0	35.1811268703429	0
2.41	35.197892193956	0	1	0	1	0	35.197892193956	0
2.42	35.2157943497675	0	1	0	1	0	35.2157943497675	0
2.43	35.2348245731028	0	1	0	1	0	35.2348245731028	0
2.44	35.2549742429705	0	1	0	1	0	35.2549742429705	0
2.45	35.27623487913	0	1	0	1	0	35.27623487913	0
2.46	35.2985981392309	0	1	0	1	0	35.2985981392309	0
2.47	35.3220558160214	0	1	0	1	0	35.3220558160214	0
2.48	35.346599834625	0	1	0	1	0	35.346599834625	0
2.49	35.3722222498818	0	1	0	1	0	35.3722222498818	0
2.5	35.3989152437547	0	1	0	1	0	35.3989152437547	0
2.51	35.4266711227967	0	1	0	1	0	35.4266711227967	0
2.52	35.4554823156791	0	1	0	1	0	35.4554823156791	0
2.53	35.4853413707779	0	1	0	1	0	35.4853413707779	0
2.54	35.5162409538175	0	1	0	1	0	35.5162409538175	0
2.55	35.5481738455699	0	1	0	1	0	35.5481738455699	0
2.56	35.5811329396075	0	1	0	1	0	35.5811329396075	0
2.57	35.6151112401083	0	1	0	1	0	35.6151112401083	0
2.58	35.6501018597132	0	1	0	1	0	35.6501018597132	0
2.59	35.686098017431	0	1	0	1	0	35.686098017431	0
2.6	35.7230930365939	0	1	0	1	0	35.7230930365939	0
2.61	35.7610803428582	0	1	0	1	0	35.7610803428582	0
2.62	35.800053462252	0	1	0	1	0	35.800053462252	0
2.63	35.8400060192669	0	1	0	1	0	35.8400060192669	0
2.64	35.880931734993	0	1	0	1	0	35.880931734993	0
2.65	35.9228244252964	0	1	0	1	0	35.9228244252964	0
2.66	35.9656779990377	0	1	0	1	0	35.9656779990377	0
2.67	36.0094864563307	0	1	0	1	0	36.0094864563307	0
2.68	36.0542438868395	0	1	0	1	0	36.0542438868395	0
2.69	36.0999444681143	0	1	0	1	0	36.0999444681143	0
2.7	36.146582463964	0	1	0	1	0	36.146582463964	0
2.71	36.1941522228643	0	1	0	1	0	36.1941522228643	0
2.72	36.2426481764015	0	1	0	1	0	36.2426481764015	0
2.73	36.2920648377507	0	1	0	1	0	36.2920648377507	0
2.74	36.3423968001864	0	1	0	1	0	36.3423968001864	0
2.75	36.3936387356264	0	1	0	1	0	36.3936387356264	0
2.76	36.445785393207	0	1	0	1	0	36.445785393207	0
2.77	36.4988315978895	0	1	0	1	0	36.4988315978895	0
2.78	36.5527722490961	0	1	0	1	0	36.5527722490961	0
2.79	36.6076023193752	0	1	0	1	0	36.6076023193752	0
2.8	36.6633168530966	0	1	0	1	0	36.6633168530966	0
2.81	36.7199109651723	0	1	0	1	0	36.7199109651723	0
2.82	36.7773798398066	0	1	0	1	0	36.7773798398066	0
2.83	36.8357187292715	0	1	0	1	0	36.8357187292715	0
2.84	36.8949229527085	0	1	0	1	0	36.8949229527085	0
2.85	36.9549878949553	0	1	0	1	0	36.9549878949553	0
2.86	37.0159090053972	0	1	0	1	0	37.0159090053972	0
2.87	37.0776817968431	0	1	0	1	0	37.0776817968431	0
2.88	37.1403018444234	0	1	0	1	0	37.1403018444234	0
2.89	37.2037647845129	0	1	0	1	0	37.2037647845129	0
2.9	37.2680663136741	0	1	0	1	0	37.2680663136741	0
2.91	37.3332021876232	0	1	0	1	0	37.3332021876232	0
2.92	37.3991682202175	0	1	0	1	0	37.3991682202175	0
2.93	37.4659602824629	0	1	0	1	0	37.4659602824629	0
2.94	37.5335743015419	0	1	0	1	0	37.5335743015419	0
2.95	37.6020062598621	0	1	0	1	0	37.6020062598621	0
2.96	37.6712521941224	0	1	0	1	0	37.6712521941224	0
2.97	37.7413081943997	0	1	0	1	0	37.7413081943997	0
2.98	37.8121704032532	0	1	0	1	0	37.8121704032532	0
2.99	37.8838350148466	0	1	0	1	0	37.8838350148466	0
3	37.9562982740879	0	1	0	1	0	37.9562982740879	0
3.01	38.0295564757868	0	1	0	1	0	38.0295564757868	0
3.02	38.1036059638284	0	1	0	1	0	38.1036059638284	0
3.03	38.1784431303633	0	1	0	1	0	38.1784431303633	0
3.04	38.2540644150138	0	1	0	1	0	38.2540644150138	0
3.05	38.3304663040958	0	1	0	1	0	38.3304663040958	0
3.06	38.4076453298554	0	1	0	1	0	38.4076453298554	0
3.07	38.4855980697214	0	1	0	1	0	38.4855980697214	0
3.08	38.5643211455716	0	1	0	1	0	38.5643211455716	0
3.09	38.6438112230135	0	1	0	1	0	38.6438112230135	0
3.1	38.7240650106789	0	1	0	1	0	38.7240650106789	0
3.11	38.8050792595324	0	1	0	1	0	38.8050792595324	0
3.12	38.886850762193	0	1	0	1	0	38.886850762193	0
3.13	38.9693763522684	0	1	0	1	0	38.9693763522684	0
3.14	39.0526529037026	0	1	0	1	0	39.0526529037026	0
3.15	39.1366773301356	0	1	0	1	0	39.1366773301356	0
3.16	39.2214465842751	0	1	0	1	0	39.2214465842751	0
3.17	39.3069576572807	0	1	0	1	0	39.3069576572807	0
3.18	39.3932075781588	0	1	0	1	0	39.3932075781588	0
3.19	39.4801934131697	0	1	0	1	0	39.4801934131697	0
3.2	39.5679122652455	0	1	0	1	0	39.5679122652455	0
3.21	39.6563612734187	0	1	0	1	0	39.6563612734187	0
3.22	39.7455376122621	0	1	0	1	0	39.7455376122621	0
3.23	39.8354384913379	0	1	0	1	0	39.8354384913379	0
3.24	39.9260611546584	0	1	0	1	0	39.9260611546584	0
3.25	40.0174028801557	0	1	0	1	0	40.0174028801557	0
3.26	40.1094609791614	0	1	0	1	0	40.1094609791614	0
3.27	40.2022327958961	0	1	0	1	0	40.2022327958961	0
3.28	40.2957157069681	0	1	0	1	0	40.2957157069681	0
3.29	40.3899071208808	0	1	0	1	0	40.3899071208808	0
3.3	40.4848044775497	0	1	0	1	0	40.4848044775497	0
3.31	40.5804052478281	0	1	0	1	0	40.5804052478281	0
3.32	40.6767069330407	0	1	0	1	0	40.6767069330407	0
3.33	40.7737070645264	0	1	0	1	0	40.7737070645264	0
3.34	40.8714032031889	0	1	0	1	0	40.8714032031889	0
3.35	40.9697929390556	0	1	0	1	0	40.9697929390556	0
3.36	41.0688738908437	0	1	0	1	0	41.0688738908437	0
3.37	41.1686437055353	0	1	0	1	0	41.1686437055353	0
3.38	41.2691000579585	0	1	0	1	0	41.2691000579585	0
3.39	41.3702406503773	0	1	0	1	0	41.3702406503773	0
3.4	41.4720632120877	0	1	0	1	0	41.4720632120877	0
3.41	41.5745654990217	0	1	0	1	0	41.5745654990217	0
3.42	41.6777452933576	0	1	0	1	0	41.6777452933576	0
3.43	41.7816004031376	0	1	0	1	0	41.7816004031376	0
3.44	41.8861286618917	0	1	0	1	0	41.8861286618917	0
3.45	41.9913279282684	0	1	0	1	0	41.9913279282684	0
3.46	42.0971960856717	0	1	0	1	0	42.0971960856717	0
3.47	42.2037310419044	0	1	0	1	0	42.2037310419044	0
3.48	42.3109307288177	0	1	0	1	0	42.3109307288177	0
3.49	42.4187931019663	0	1	0	1	0	42.4187931019663	0
3.5	42.5273161402701	0	1	0	1	0	42.5273161402701	0
3.51	42.6364978456812	0	1	0	1	0	42.6364978456812	0
3.52	42.7463362428568	0	1	0	1	0	42.7463362428568	0
3.53	42.8568293788376	0	1	0	1	0	42.8568293788376	0
3.54	42.9679753227316	0	1	0	1	0	42.9679753227316	0
3.55	43.0797721654035	0	1	0	1	0	43.0797721654035	0
3.56	43.1922180191688	0	1	0	1	0	43.1922180191688	0
3.57	43.3053110174934	0	1	0	1	0	43.3053110174934	0
3.58	43.4190493146986	0	1	0	1	0	43.4190493146986	0
3.59	43.5334310856702	0	1	0	1	0	43.5334310856702	0
3.6	43.6484545255732	0	1	0	1	0	43.6484545255732	0
3.61	43.7641178495705	0	1	0	1	0	43.7641178495705	0
3.62	43.8804192925472	0	1	0	1	0	43.8804192925472	0
3.63	43.9973571088387	0	1	0	1	0	43.9973571088387	0
3.64	44.1149295719634	0	1	0	1	0	44.1149295719634	0
3.65	44.23313497436	0	1	0	1	0	44.23313497436	0
3.66	44.3519716271293	0	1	0	1	0	44.3519716271293	0
3.67	44.4714378597795	0	1	0	1	0	44.4714378597795	0
3.68	44.5915320199764	0	1	0	1	0	44.5915320199764	0
3.69	44.7122524732975	0	1	0	1	0	44.7122524732975	0
3.7	44.8335976029892	0	1	0	1	0	44.8335976029892	0
3.71	44.9555658097298	0	1	0	1	0	44.9555658097298	0
3.72	45.0781555113942	0	1	0	1	0	45.0781555113942	0
3.73	45.201365142824	0	1	0	1	0	45.201365142824	0
3.74	45.3251931556003	0	1	0	1	0	45.3251931556003	0
3.75	45.4496380178208	0	1	0	1	0	45.4496380178208	0
3.76	45.57469821388	0	1	0	1	0	45.57469821388	0
3.77	45.7003722442531	0	1	0	1	0	45.7003722442531	0
3.78	45.8266586252832	0	1	0	1	0	45.8266586252832	0
3.79	45.9535558889722	0	1	0	1	0	45.9535558889722	0
3.8	46.0810625827745	0	1	0	1	0	46.0810625827745	0
3.81	46.2091772693944	0	1	0	1	0	46.2091772693944	0
3.82	46.3378985265863	0	1	0	1	0	46.3378985265863	0
3.83	46.4672249469585	0	1	0	1	0	46.4672249469585	0
3.84	46.5971551377794	0	1	0	1	0	46.5971551377794	0
3.85	46.7276877207876	0	1	0	1	0	46.7276877207876	0
3.86	46.858821332004	0	1	0	1	0	46.858821332004	0
3.87	46.9905546215476	0	1	0	1	0	46.9905546215476	0
3.88	47.1228862534537	0	1	0	1	0	47.1228862534537	0
3.89	47.2558149054949	0	1	0	1	0	47.2558149054949	0
3.9	47.3893392690052	0	1	0	1	0	47.3893392690052	0
3.91	47.5234580487066	0	1	0	1	0	47.5234580487066	0
3.92	47.6581699625379	0	1	0	1	0	47.6581699625379	0
3.93	47.7934737414872	0	1	0	1	0	47.7934737414872	0
3.94	47.9293681294258	0	1	0	1	0	47.9293681294258	0
3.95	48.0658518829454	0	1	0	1	0	48.0658518829454	0
3.96	48.2029237711972	0	1	0	1	0	48.2029237711972	0
3.97	48.340582575734	0	1	0	1	0	48.340582575734	0
3.98	48.4788270903544	0	1	0	1	0	48.4788270903544	0
3.99	48.6176561209491	0	1	0	1	0	48.6176561209491	0
4	48.7570684853499	0	1	0	1	0	48.7570684853499	0
4.01	48.8970630131809	0	1	0	1	0	48.8970630131809	0
4.02	49.0376385457117	0	1	0	1	0	49.0376385457117	0
4.03	49.1787939357129	0	1	0	1	0	49.1787939357129	0
4.04	49.3205280473138	0	1	0	1	0	49.3205280473138	0
4.05	49.4628397558623	0	1	0	1	0	49.4628397558623	0
4.06	49.6057279477864	0	1	0	1	0	49.6057279477864	0
4.07	49.7491915204585	0	1	0	1	0	49.7491915204585	0
4.08	49.8932293820609	0	1	0	1	0	49.8932293820609	0
4.09	50.037840451454	0	1	0	1	0	50.037840451454	0
4.1	50.1830236580459	0	1	0	1	0	50.1830236580459	0
4.11	50.3287779416639	0	1	0	1	0	50.3287779416639	0
4.12	50.4751022524283	0	1	0	1	0	50.4751022524283	0
4.13	50.6219955506278	0	1	0	1	0	50.6219955506278	0
4.14	50.7694568065967	0	1	0	1	0	50.7694568065967	0
4.15	50.9174850005936	0	1	0	1	0	50.9174850005936	0
4.16	51.0660791226824	0	1	0	1	0	51.0660791226824	0
4.17	51.2152381726146	0	1	0	1	0	51.2152381726146	0
4.18	51.3649611597135	0	1	0	1	0	51.3649611597135	0
4.19	51.5152471027599	0	1	0	1	0	51.5152471027599	0
4.2	51.6660950298796	0	1	0	1	0	51.6660950298796	0
4.21	51.8175039784322	0	1	0	1	0	51.8175039784322	0
4.22	51.9694729949021	0	1	0	1	0	51.9694729949021	0
4.23	52.1220011347903	0	1	0	1	0	52.1220011347903	0
4.24	52.2750874625079	0	1	0	1	0	52.2750874625079	0
4.25	52.428731051272	0	1	0	1	0	52.428731051272	0
4.26	52.5829309830016	0	1	0	1	0	52.5829309830016	0
4.27	52.7376863482161	0	1	0	1	0	52.7376863482161	0
4.28	52.8929962459346	0	1	0	1	0	52.8929962459346	0
4.29	53.048859783577	0	1	0	1	0	53.048859783577	0
4.3	53.2052760768664	0	1	0	1	0	53.2052760768664	0
4.31	53.3622442497324	0	1	0	1	0	53.3622442497324	0
4.32	53.5197634342167	0	1	0	1	0	53.5197634342167	0
4.33	53.6778327703787	0	1	0	1	0	53.6778327703787	0
4.34	53.8364514062039	0	1	0	1	0	53.8364514062039	0
4.35	53.9956184975121	0	1	0	1	0	53.9956184975121	0
4.36	54.1553332078681	0	1	0	1	0	54.1553332078681	0
4.37	54.3155947084927	0	1	0	1	0	54.3155947084927	0
4.38	54.4764021781755	0	1	0	1	0	54.4764021781755	0
4.39	54.6377548031887	0	1	0	1	0	54.6377548031887	0
4.4	54.7996517772021	0	1	0	1	0	54.7996517772021	0
4.41	54.9620923011989	0	1	0	1	0	54.9620923011989	0
4.42	55.1250755833935	0	1	0	1	0	55.1250755833935	0
4.43	55.2886008391495	0	1	0	1	0	55.2886008391495	0
4.44	55.4526672908991	0	1	0	1	0	55.4526672908991	0
4.45	55.6172741680642	0	1	0	1	0	55.6172741680642	0
4.46	55.7824207069776	0	1	0	1	0	55.7824207069776	0
4.47	55.9481061508057	0	1	0	1	0	55.9481061508057	0
4.48	56.1143297494724	0	1	0	1	0	56.1143297494724	0
4.49	56.2810907595839	0	1	0	1	0	56.2810907595839	0
4.5	56.4483884443541	0	1	0	1	0	56.4483884443541	0
4.51	56.616222073532	0	1	0	1	0	56.616222073532	0
4.52	56.7845909233285	0	1	0	1	0	56.7845909233285	0
4.53	56.953494276346	0	1	0	1	0	56.953494276346	0
4.54	57.1229314215072	0	1	0	1	0	57.1229314215072	0
4.55	57.2929016539865	0	1	0	1	0	57.2929016539865	0
4.56	57.4634042751405	0	1	0	1	0	57.4634042751405	0
4.57	57.6344385924411	0	1	0	1	0	57.6344385924411	0
4.58	57.8060039194085	0	1	0	1	0	57.8060039194085	0
4.59	57.9780995755451	0	1	0	1	0	57.9780995755451	0
4.6	58.1507248862709	0	1	0	1	0	58.1507248862709	0
4.61	58.323879182859	0	1	0	1	0	58.323879182859	0
4.62	58.4975618023723	0	1	0	1	0	58.4975618023723	0
4.63	58.6717720876011	0	1	0	1	0	58.6717720876011	0
4.64	58.8465093870011	0	1	0	1	0	58.8465093870011	0
4.65	59.021773054633	0	1	0	1	0	59.021773054633	0
4.66	59.1975624501017	0	1	0	1	0	59.1975624501017	0
4.67	59.3738769384976	0	1	0	1	0	59.3738769384976	0
4.68	59.5507158903376	0	1	0	1	0	59.5507158903376	0
4.69	59.728078681507	0	1	0	1	0	59.728078681507	0
4.7	59.9059646932032	0	1	0	1	0	59.9059646932032	0
4.71	60.0843733118786	0	1	0	1	0	60.0843733118786	0
4.72	60.263303929185	0	1	0	1	0	60.263303929185	0
4.73	60.4427559419191	0	1	0	1	0	60.4427559419191	0
4.74	60.6227287519676	0	1	0	1	0	60.6227287519676	0
4.75	60.8032217662543	0	1	0	1	0	60.8032217662543	0
4.76	60.9842343966866	0	1	0	1	0	60.9842343966866	0
4.77	61.1657660601035	0	1	0	1	0	61.1657660601035	0
4.78	61.3478161782241	0	1	0	1	0	61.3478161782241	0
4.79	61.5303841775964	0	1	0	1	0	61.5303841775964	0
4.8	61.7134694895475	0	1	0	1	0	61.7134694895475	0
4.81	61.8970715501331	0	1	0	1	0	61.8970715501331	0
4.82	62.0811898000895	0	1	0	1	0	62.0811898000895	0
4.83	62.2658236847841	0	1	0	1	0	62.2658236847841	0
4.84	62.4509726541683	0	1	0	1	0	62.4509726541683	0
4.85	62.63663616273	0	1	0	1	0	62.63663616273	0
4.86	62.8228136694466	0	1	0	1	0	62.8228136694466	0
4.87	63.0095046377397	0	1	0	1	0	63.0095046377397	0
4.88	63.1967085354287	0	1	0	1	0	63.1967085354287	0
4.89	63.3844248346864	0	1	0	1	0	63.3844248346864	0
4.9	63.5726530119943	0	1	0	1	0	63.5726530119943	0
4.91	63.7613925480988	0	1	0	1	0	63.7613925480988	0
4.92	63.950642927968	0	1	0	1	0	63.950642927968	0
4.93	64.1404036407488	0	1	0	1	0	64.1404036407488	0
