# GHZ S RI R 50
1	55	0	1	0	1	0	55	0
1.01	54.5451504950495	0	1	0	1	0	54.5451504950495	0
1.02	54.1004078431372	0	1	0	1	0	54.1004078431372	0
1.03	53.6654893203883	0	1	0	1	0	53.6654893203883	0
1.04	53.2401230769231	0	1	0	1	0	53.2401230769231	0
1.05	52.8240476190476	0	1	0	1	0	52.8240476190476	0
1.06	52.4170113207547	0	1	0	1	0	52.4170113207547	0
1.07	52.0187719626168	0	1	0	1	0	52.0187719626168	0
1.08	51.6290962962963	0	1	0	1	0	51.6290962962963	0
1.09	51.2477596330275	0	1	0	1	0	51.2477596330275	0
1.1	50.8745454545455	0	1	0	1	0	50.8745454545455	0
1.11	50.509245045045	0	1	0	1	0	50.509245045045	0
1.12	50.1516571428571	0	1	0	1	0	50.1516571428571	0
1.13	49.8015876106195	0	1	0	1	0	49.8015876106195	0
1.14	49.458849122807	0	1	0	1	0	49.458849122807	0
1.15	49.1232608695652	0	1	0	1	0	49.1232608695652	0
1.16	48.7946482758621	0	1	0	1	0	48.7946482758621	0
1.17	48.4728427350427	0	1	0	1	0	48.4728427350427	0
1.18	48.1576813559322	0	1	0	1	0	48.1576813559322	0
1.19	47.8490067226891	0	1	0	1	0	47.8490067226891	0
1.2	47.5466666666667	0	1	0	1	0	47.5466666666667	0
1.21	47.2505140495868	0	1	0	1	0	47.2505140495868	0
1.22	46.960406557377	0	1	0	1	0	46.960406557377	0
1.23	46.676206504065	0	1	0	1	0	46.676206504065	0
1.24	46.3977806451613	0	1	0	1	0	46.3977806451613	0
1.25	46.125	0	1	0	1	0	46.125	0
1.26	45.8577396825397	0	1	0	1	0	45.8577396825397	0
1.27	45.5958787401575	0	1	0	1	0	45.5958787401575	0
1.28	45.3393	0	1	0	1	0	45.3393	0
1.29	45.0878899224806	0	1	0	1	0	45.0878899224806	0
1.3	44.8415384615385	0	1	0	1	0	44.8415384615385	0
1.31	44.6001389312977	0	1	0	1	0	44.6001389312977	0
1.32	44.3635878787879	0	1	0	1	0	44.3635878787879	0
1.33	44.131784962406	0	1	0	1	0	44.131784962406	0
1.34	43.9046328358209	0	1	0	1	0	43.9046328358209	0
1.35	43.682037037037	0	1	0	1	0	43.682037037037	0
1.36	43.4639058823529	0	1	0	1	0	43.4639058823529	0
1.37	43.2501503649635	0	1	0	1	0	43.2501503649635	0
1.38	43.040684057971	0	1	0	1	0	43.040684057971	0
1.39	42.8354230215827	0	1	0	1	0	42.8354230215827	0
1.4	42.6342857142857	0	1	0	1	0	42.6342857142857	0
1.41	42.4371929078014	0	1	0	1	0	42.4371929078014	0
1.42	42.2440676056338	0	1	0	1	0	42.2440676056338	0
1.43	42.054834965035	0	1	0	1	0	42.054834965035	0
1.44	41.8694222222222	0	1	0	1	0	41.8694222222222	0
1.45	41.6877586206897	0	1	0	1	0	41.6877586206897	0
1.46	41.5097753424658	0	1	0	1	0	41.5097753424658	0
1.47	41.3354054421769	0	1	0	1	0	41.3354054421769	0
1.48	41.1645837837838	0	1	0	1	0	41.1645837837838	0
1.49	40.9972469798658	0	1	0	1	0	40.9972469798658	0
1.5	40.8333333333333	0	1	0	1	0	40.8333333333333	0
1.51	40.672782781457	0	1	0	1	0	40.672782781457	0
1.52	40.5155368421053	0	1	0	1	0	40.5155368421053	0
1.53	40.3615385620915	0	1	0	1	0	40.3615385620915	0
1.54	40.2107324675325	0	1	0	1	0	40.2107324675325	0
1.55	40.063064516129	0	1	0	1	0	40.063064516129	0
1.56	39.9184820512821	0	1	0	1	0	39.9184820512821	0
1.57	39.7769337579618	0	1	0	1	0	39.7769337579618	0
1.58	39.6383696202532	0	1	0	1	0	39.6383696202532	0
1.59	39.5027408805031	0	1	0	1	0	39.5027408805031	0
1.6	39.37	0	1	0	1	0	39.37	0
1.61	39.240100621118	0	1	0	1	0	39.240100621118	0
1.62	39.1129975308642	0	1	0	1	0	39.1129975308642	0
1.63	38.9886466257669	0	1	0	1	0	38.9886466257669	0
1.64	38.8670048780488	0	1	0	1	0	38.8670048780488	0
1.65	38.7480303030303	0	1	0	1	0	38.7480303030303	0
1.66	38.6316819277108	0	1	0	1	0	38.6316819277108	0
1.67	38.517919760479	0	1	0	1	0	38.517919760479	0
1.68	38.4067047619048	0	1	0	1	0	38.4067047619048	0
1.69	38.297998816568	0	1	0	1	0	38.297998816568	0
1.7	38.1917647058823	0	1	0	1	0	38.1917647058823	0
1.71	38.0879660818713	0	1	0	1	0	38.0879660818713	0
1.72	37.9865674418605	0	1	0	1	0	37.9865674418605	0
1.73	37.8875341040462	0	1	0	1	0	37.8875341040462	0
1.74	37.790832183908	0	1	0	1	0	37.790832183908	0
1.75	37.6964285714286	0	1	0	1	0	37.6964285714286	0
1.76	37.6042909090909	0	1	0	1	0	37.6042909090909	0
1.77	37.5143875706215	0	1	0	1	0	37.5143875706215	0
1.78	37.4266876404494	0	1	0	1	0	37.4266876404494	0
1.79	37.3411608938547	0	1	0	1	0	37.3411608938547	0
1.8	37.2577777777778	0	1	0	1	0	37.2577777777778	0
1.81	37.1765093922652	0	1	0	1	0	37.1765093922652	0
1.82	37.0973274725275	0	1	0	1	0	37.0973274725275	0
1.83	37.0202043715847	0	1	0	1	0	37.0202043715847	0
1.84	36.9451130434783	0	1	0	1	0	36.9451130434783	0
1.85	36.872027027027	0	1	0	1	0	36.872027027027	0
1.86	36.8009204301075	0	1	0	1	0	36.8009204301075	0
1.87	36.7317679144385	0	1	0	1	0	36.7317679144385	0
1.88	36.6645446808511	0	1	0	1	0	36.6645446808511	0
1.89	36.5992264550265	0	1	0	1	0	36.5992264550265	0
1.9	36.5357894736842	0	1	0	1	0	36.5357894736842	0
1.91	36.4742104712042	0	1	0	1	0	36.4742104712042	0
1.92	36.4144666666667	0	1	0	1	0	36.4144666666667	0
1.93	36.3565357512953	0	1	0	1	0	36.3565357512953	0
1.94	36.3003958762887	0	1	0	1	0	36.3003958762887	0
1.95	36.2460256410256	0	1	0	1	0	36.2460256410256	0
1.96	36.1934040816327	0	1	0	1	0	36.1934040816327	0
1.97	36.1425106598985	0	1	0	1	0	36.1425106598985	0
1.98	36.0933252525253	0	1	0	1	0	36.0933252525253	0
1.99	36.0458281407035	0	1	0	1	0	36.0458281407035	0
2	36	0	1	0	1	0	36	0
2.01	35.9558218905473	0	1	0	1	0	35.9558218905473	0
2.02	35.9132752475248	0	1	0	1	0	35.9132752475248	0
2.03	35.8723418719212	0	1	0	1	0	35.8723418719212	0
2.04	35.8330039215686	0	1	0	1	0	35.8330039215686	0
2.05	35.795243902439	0	1	0	1	0	35.795243902439	0
2.06	35.7590446601942	0	1	0	1	0	35.7590446601942	0
2.07	35.7243893719807	0	1	0	1	0	35.7243893719807	0
2.08	35.6912615384615	0	1	0	1	0	35.6912615384615	0
2.09	35.6596449760766	0	1	0	1	0	35.6596449760766	0
2.1	35.6295238095238	0	1	0	1	0	35.6295238095238	0
2.11	35.600882464455	0	1	0	1	0	35.600882464455	0
2.12	35.5737056603774	0	1	0	1	0	35.5737056603774	0
2.13	35.5479784037559	0	1	0	1	0	35.5479784037559	0
2.14	35.5236859813084	0	1	0	1	0	35.5236859813084	0
2.15	35.5008139534884	0	1	0	1	0	35.5008139534884	0
2.16	35.4793481481481	0	1	0	1	0	35.4793481481481	0
2.17	35.4592746543779	0	1	0	1	0	35.4592746543779	0
2.18	35.4405798165138	0	1	0	1	0	35.4405798165138	0
2.19	35.4232502283105	0	1	0	1	0	35.4232502283105	0
2.2	35.4072727272727	0	1	0	1	0	35.4072727272727	0
2.21	35.3926343891403	0	1	0	1	0	35.3926343891403	0
2.22	35.3793225225225	0	1	0	1	0	35.3793225225225	0
2.23	35.3673246636771	0	1	0	1	0	35.3673246636771	0
2.24	35.3566285714286	0	1	0	1	0	35.3566285714286	0
2.25	35.3472222222222	0	1	0	1	0	35.3472222222222	0
2.26	35.3390938053097	0	1	0	1	0	35.3390938053097	0
2.27	35.3322317180617	0	1	0	1	0	35.3322317180617	0
2.28	35.3266245614035	0	1	0	1	0	35.3266245614035	0
2.29	35.3222611353712	0	1	0	1	0	35.3222611353712	0
2.3	35.3191304347826	0	1	0	1	0	35.3191304347826	0
2.31	35.3172216450216	0	1	0	1	0	35.3172216450216	0
2.32	35.316524137931	0	1	0	1	0	35.316524137931	0
2.33	35.3170274678112	0	1	0	1	0	35.3170274678112	0
2.34	35.3187213675214	0	1	0	1	0	35.3187213675214	0
2.35	35.3215957446808	0	1	0	1	0	35.3215957446808	0
2.36	35.3256406779661	0	1	0	1	0	35.3256406779661	0
2.37	35.3308464135021	0	1	0	1	0	35.3308464135021	0
2.38	35.3372033613445	0	1	0	1	0	35.3372033613445	0
2.39	35.3447020920502	0	1	0	1	0	35.3447020920502	0
2.4	35.3533333333333	0	1	0	1	0	35.3533333333333	0
2.41	35.363087966805	0	1	0	1	0	35.363087966805	0
2.42	35.3739570247934	0	1	0	1	0	35.3739570247934	0
2.43	35.3859316872428	0	1	0	1	0	35.3859316872428	0
2.44	35.3990032786885	0	1	0	1	0	35.3990032786885	0
2.45	35.4131632653061	0	1	0	1	0	35.4131632653061	0
2.46	35.4284032520325	0	1	0	1	0	35.4284032520325	0
2.47	35.4447149797571	0	1	0	1	0	35.4447149797571	0
2.48	35.4620903225806	0	1	0	1	0	35.4620903225806	0
2.49	35.4805212851406	0	1	0	1	0	35.4805212851406	0
2.5	35.5	0	1	0	1	0	35.5	0
2.51	35.5205187250996	0	1	0	1	0	35.5205187250996	0
2.52	35.5420698412698	0	1	0	1	0	35.5420698412698	0
2.53	35.5646458498024	0	1	0	1	0	35.5646458498024	0
2.54	35.5882393700787	0	1	0	1	0	35.5882393700787	0
2.55	35.6128431372549	0	1	0	1	0	35.6128431372549	0
2.56	35.63845	0	1	0	1	0	35.63845	0
2.57	35.6650529182879	0	1	0	1	0	35.6650529182879	0
2.58	35.6926449612403	0	1	0	1	0	35.6926449612403	0
2.59	35.7212193050193	0	1	0	1	0	35.7212193050193	0
2.6	35.7507692307692	0	1	0	1	0	35.7507692307692	0
2.61	35.7812881226054	0	1	0	1	0	35.7812881226054	0
2.62	35.8127694656489	0	1	0	1	0	35.8127694656489	0
2.63	35.8452068441065	0	1	0	1	0	35.8452068441065	0
2.64	35.8785939393939	0	1	0	1	0	35.8785939393939	0
2.65	35.9129245283019	0	1	0	1	0	35.9129245283019	0
2.66	35.948192481203	0	1	0	1	0	35.948192481203	0
2.67	35.9843917602996	0	1	0	1	0	35.9843917602996	0
2.68	36.0215164179104	0	1	0	1	0	36.0215164179104	0
2.69	36.0595605947955	0	1	0	1	0	36.0595605947955	0
2.7	36.0985185185185	0	1	0	1	0	36.0985185185185	0
2.71	36.138384501845	0	1	0	1	0	36.138384501845	0
2.72	36.1791529411765	0	1	0	1	0	36.1791529411765	0
2.73	36.2208183150183	0	1	0	1	0	36.2208183150183	0
2.74	36.2633751824818	0	1	0	1	0	36.2633751824818	0
2.75	36.3068181818182	0	1	0	1	0	36.3068181818182	0
2.76	36.3511420289855	0	1	0	1	0	36.3511420289855	0
2.77	36.3963415162455	0	1	0	1	0	36.3963415162455	0
2.78	36.4424115107914	0	1	0	1	0	36.4424115107914	0
2.79	36.489346953405	0	1	0	1	0	36.489346953405	0
2.8	36.5371428571429	0	1	0	1	0	36.5371428571429	0
2.81	36.5857943060498	0	1	0	1	0	36.5857943060498	0
2.82	36.6352964539007	0	1	0	1	0	36.6352964539007	0
2.83	36.6856445229682	0	1	0	1	0	36.6856445229682	0
2.84	36.7368338028169	0	1	0	1	0	36.7368338028169	0
2.85	36.7888596491228	0	1	0	1	0	36.7888596491228	0
2.86	36.8417174825175	0	1	0	1	0	36.8417174825175	0
2.87	36.8954027874564	0	1	0	1	0	36.8954027874564	0
2.88	36.9499111111111	0	1	0	1	0	36.9499111111111	0
2.89	37.0052380622837	0	1	0	1	0	37.0052380622837	0
2.9	37.0613793103448	0	1	0	1	0	37.0613793103448	0
2.91	37.1183305841924	0	1	0	1	0	37.1183305841924	0
2.92	37.1760876712329	0	1	0	1	0	37.1760876712329	0
2.93	37.2346464163822	0	1	0	1	0	37.2346464163822	0
2.94	37.2940027210884	0	1	0	1	0	37.2940027210884	0
2.95	37.3541525423729	0	1	0	1	0	37.3541525423729	0
2.96	37.4150918918919	0	1	0	1	0	37.4150918918919	0
2.97	37.4768168350168	0	1	0	1	0	37.4768168350168	0
2.98	37.5393234899329	0	1	0	1	0	37.5393234899329	0
2.99	37.6026080267559	0	1	0	1	0	37.6026080267559	0
3	37.6666666666667	0	1	0	1	0	37.6666666666667	0
3.01	37.7314956810631	0	1	0	1	0	37.7314956810631	0
3.02	37.7970913907285	0	1	0	1	0	37.7970913907285	0
3.03	37.8634501650165	0	1	0	1	0	37.8634501650165	0
3.04	37.9305684210526	0	1	0	1	0	37.9305684210526	0
3.05	37.9984426229508	0	1	0	1	0	37.9984426229508	0
3.06	38.0670692810457	0	1	0	1	0	38.0670692810457	0
3.07	38.1364449511401	0	1	0	1	0	38.1364449511401	0
3.08	38.2065662337662	0	1	0	1	0	38.2065662337662	0
3.09	38.2774297734628	0	1	0	1	0	38.2774297734628	0
3.1	38.3490322580645	0	1	0	1	0	38.3490322580645	0
3.11	38.4213704180064	0	1	0	1	0	38.4213704180064	0
3.12	38.494441025641	0	1	0	1	0	38.494441025641	0
3.13	38.5682408945687	0	1	0	1	0	38.5682408945687	0
3.14	38.6427668789809	0	1	0	1	0	38.6427668789809	0
3.15	38.7180158730159	0	1	0	1	0	38.7180158730159	0
3.16	38.7939848101266	0	1	0	1	0	38.7939848101266	0
3.17	38.8706706624606	0	1	0	1	0	38.8706706624606	0
3.18	38.9480704402516	0	1	0	1	0	38.9480704402516	0
3.19	39.0261811912226	0	1	0	1	0	39.0261811912226	0
3.2	39.105	0	1	0	1	0	39.105	0
3.21	39.1845239875389	0	1	0	1	0	39.1845239875389	0
3.22	39.264750310559	0	1	0	1	0	39.264750310559	0
3.23	39.3456761609907	0	1	0	1	0	39.3456761609907	0
3.24	39.4272987654321	0	1	0	1	0	39.4272987654321	0
3.25	39.5096153846154	0	1	0	1	0	39.5096153846154	0
3.26	39.5926233128834	0	1	0	1	0	39.5926233128834	0
3.27	39.6763198776758	0	1	0	1	0	39.6763198776758	0
3.28	39.7607024390244	0	1	0	1	0	39.7607024390244	0
3.29	39.8457683890578	0	1	0	1	0	39.8457683890578	0
3.3	39.9315151515152	0	1	0	1	0	39.9315151515152	0
3.31	40.0179401812689	0	1	0	1	0	40.0179401812689	0
3.32	40.1050409638554	0	1	0	1	0	40.1050409638554	0
3.33	40.192815015015	0	1	0	1	0	40.192815015015	0
3.34	40.2812598802395	0	1	0	1	0	40.2812598802395	0
3.35	40.3703731343284	0	1	0	1	0	40.3703731343284	0
3.36	40.4601523809524	0	1	0	1	0	40.4601523809524	0
3.37	40.5505952522255	0	1	0	1	0	40.5505952522255	0
3.38	40.641699408284	0	1	0	1	0	40.641699408284	0
3.39	40.7334625368732	0	1	0	1	0	40.7334625368732	0
3.4	40.8258823529412	0	1	0	1	0	40.8258823529412	0
3.41	40.9189565982405	0	1	0	1	0	40.9189565982405	0
3.42	41.0126830409357	0	1	0	1	0	41.0126830409357	0
3.43	41.1070594752187	0	1	0	1	0	41.1070594752187	0
3.44	41.2020837209302	0	1	0	1	0	41.2020837209302	0
3.45	41.2977536231884	0	1	0	1	0	41.2977536231884	0
3.46	41.3940670520231	0	1	0	1	0	41.3940670520231	0
3.47	41.4910219020173	0	1	0	1	0	41.4910219020173	0
3.48	41.588616091954	0	1	0	1	0	41.588616091954	0
3.49	41.6868475644699	0	1	0	1	0	41.6868475644699	0
3.5	41.7857142857143	0	1	0	1	0	41.7857142857143	0
3.51	41.8852142450142	0	1	0	1	0	41.8852142450142	0
3.52	41.9853454545455	0	1	0	1	0	41.9853454545455	0
3.53	42.0861059490085	0	1	0	1	0	42.0861059490085	0
3.54	42.1874937853107	0	1	0	1	0	42.1874937853107	0
3.55	42.2895070422535	0	1	0	1	0	42.2895070422535	0
3.56	42.3921438202247	0	1	0	1	0	42.3921438202247	0
3.57	42.4954022408964	0	1	0	1	0	42.4954022408964	0
3.58	42.5992804469274	0	1	0	1	0	42.5992804469274	0
3.59	42.7037766016713	0	1	0	1	0	42.7037766016713	0
3.6	42.8088888888889	0	1	0	1	0	42.8088888888889	0
3.61	42.9146155124654	0	1	0	1	0	42.9146155124654	0
3.62	43.0209546961326	0	1	0	1	0	43.0209546961326	0
3.63	43.1279046831956	0	1	0	1	0	43.1279046831956	0
3.64	43.2354637362637	0	1	0	1	0	43.2354637362637	0
3.65	43.3436301369863	0	1	0	1	0	43.3436301369863	0
3.66	43.4524021857924	0	1	0	1	0	43.4524021857924	0
3.67	43.5617782016349	0	1	0	1	0	43.5617782016349	0
3.68	43.6717565217391	0	1	0	1	0	43.6717565217391	0
3.69	43.782335501355	0	1	0	1	0	43.782335501355	0
3.7	43.8935135135135	0	1	0	1	0	43.8935135135135	0
3.71	44.0052889487871	0	1	0	1	0	44.0052889487871	0
3.72	44.1176602150538	0	1	0	1	0	44.1176602150538	0
3.73	44.2306257372654	0	1	0	1	0	44.2306257372654	0
3.74	44.3441839572193	0	1	0	1	0	44.3441839572193	0
3.75	44.4583333333333	0	1	0	1	0	44.4583333333333	0
3.76	44.5730723404255	0	1	0	1	0	44.5730723404255	0
3.77	44.688399469496	0	1	0	1	0	44.688399469496	0
3.78	44.8043132275132	0	1	0	1	0	44.8043132275132	0
3.79	44.9208121372032	0	1	0	1	0	44.9208121372032	0
3.8	45.0378947368421	0	1	0	1	0	45.0378947368421	0
3.81	45.1555595800525	0	1	0	1	0	45.1555595800525	0
3.82	45.2738052356021	0	1	0	1	0	45.2738052356021	0
3.83	45.3926302872063	0	1	0	1	0	45.3926302872063	0
3.84	45.5120333333333	0	1	0	1	0	45.5120333333333	0
3.85	45.632012987013	0	1	0	1	0	45.632012987013	0
3.86	45.7525678756477	0	1	0	1	0	45.7525678756477	0
3.87	45.8736966408269	0	1	0	1	0	45.8736966408269	0
3.88	45.9953979381443	0	1	0	1	0	45.9953979381443	0
3.89	46.117670437018	0	1	0	1	0	46.117670437018	0
3.9	46.2405128205128	0	1	0	1	0	46.2405128205128	0
3.91	46.3639237851662	0	1	0	1	0	46.3639237851662	0
3.92	46.4879020408163	0	1	0	1	0	46.4879020408163	0
3.93	46.6124463104326	0	1	0	1	0	46.6124463104326	0
3.94	46.7375553299492	0	1	0	1	0	46.7375553299492	0
3.95	46.8632278481013	0	1	0	1	0	46.8632278481013	0
3.96	46.9894626262626	0	1	0	1	0	46.9894626262626	0
3.97	47.1162584382872	0	1	0	1	0	47.1162584382872	0
3.98	47.2436140703518	0	1	0	1	0	47.2436140703518	0
3.99	47.371528320802	0	1	0	1	0	47.371528320802	0
4	47.5	0	1	0	1	0	47.5	0
4.01	47.6290279301746	0	1	0	1	0	47.6290279301746	0
4.02	47.7586109452736	0	1	0	1	0	47.7586109452736	0
4.03	47.8887478908189	0	1	0	1	0	47.8887478908189	0
4.04	48.0194376237624	0	1	0	1	0	48.0194376237624	0
4.05	48.1506790123457	0	1	0	1	0	48.1506790123457	0
4.06	48.2824709359606	0	1	0	1	0	48.2824709359606	0
4.07	48.4148122850123	0	1	0	1	0	48.4148122850123	0
4.08	48.5477019607843	0	1	0	1	0	48.5477019607843	0
4.09	48.6811388753056	0	1	0	1	0	48.6811388753056	0
4.1	48.8151219512195	0	1	0	1	0	48.8151219512195	0
4.11	48.9496501216545	0	1	0	1	0	48.9496501216545	0
4.12	49.0847223300971	0	1	0	1	0	49.0847223300971	0
4.13	49.2203375302663	0	1	0	1	0	49.2203375302663	0
4.14	49.3564946859903	0	1	0	1	0	49.3564946859903	0
4.15	49.4931927710843	0	1	0	1	0	49.4931927710843	0
4.16	49.6304307692308	0	1	0	1	0	49.6304307692308	0
4.17	49.7682076738609	0	1	0	1	0	49.7682076738609	0
4.18	49.9065224880383	0	1	0	1	0	49.9065224880383	0
4.19	50.0453742243437	0	1	0	1	0	50.0453742243437	0
4.2	50.1847619047619	0	1	0	1	0	50.1847619047619	0
4.21	50.3246845605701	0	1	0	1	0	50.3246845605701	0
4.22	50.4651412322275	0	1	0	1	0	50.4651412322275	0
4.23	50.6061309692671	0	1	0	1	0	50.6061309692671	0
4.24	50.7476528301887	0	1	0	1	0	50.7476528301887	0
4.25	50.8897058823529	0	1	0	1	0	50.8897058823529	0
4.26	51.0322892018779	0	1	0	1	0	51.0322892018779	0
4.27	51.1754018735363	0	1	0	1	0	51.1754018735363	0
4.28	51.3190429906542	0	1	0	1	0	51.3190429906542	0
4.29	51.4632116550117	0	1	0	1	0	51.4632116550117	0
4.3	51.6079069767442	0	1	0	1	0	51.6079069767442	0
4.31	51.753128074246	0	1	0	1	0	51.753128074246	0
4.32	51.8988740740741	0	1	0	1	0	51.8988740740741	0
4.33	52.0451441108545	0	1	0	1	0	52.0451441108545	0
4.34	52.1919373271889	0	1	0	1	0	52.1919373271889	0
4.35	52.3392528735632	0	1	0	1	0	52.3392528735632	0
4.36	52.4870899082569	0	1	0	1	0	52.4870899082569	0
4.37	52.635447597254	0	1	0	1	0	52.635447597254	0
4.38	52.7843251141553	0	1	0	1	0	52.7843251141553	0
4.39	52.9337216400911	0	1	0	1	0	52.9337216400911	0
4.4	53.0836363636364	0	1	0	1	0	53.0836363636364	0
4.41	53.2340684807256	0	1	0	1	0	53.2340684807256	0
4.42	53.3850171945701	0	1	0	1	0	53.3850171945701	0
4.43	53.5364817155756	0	1	0	1	0	53.5364817155756	0
4.44	53.6884612612613	0	1	0	1	0	53.6884612612613	0
4.45	53.8409550561798	0	1	0	1	0	53.8409550561798	0
4.46	53.9939623318386	0	1	0	1	0	53.9939623318386	0
4.47	54.1474823266219	0	1	0	1	0	54.1474823266219	0
4.48	54.3015142857143	0	1	0	1	0	54.3015142857143	0
4.49	54.4560574610245	0	1	0	1	0	54.4560574610245	0
4.5	54.6111111111111	0	1	0	1	0	54.6111111111111	0
4.51	54.7666745011086	0	1	0	1	0	54.7666745011086	0
4.52	54.9227469026549	0	1	0	1	0	54.9227469026549	0
4.53	55.079327593819	0	1	0	1	0	55.079327593819	0
4.54	55.2364158590308	0	1	0	1	0	55.2364158590308	0
4.55	55.394010989011	0	1	0	1	0	55.394010989011	0
4.56	55.5521122807018	0	1	0	1	0	55.5521122807018	0
4.57	55.7107190371991	0	1	0	1	0	55.7107190371991	0
4.58	55.8698305676856	0	1	0	1	0	55.8698305676856	0
4.59	56.0294461873638	0	1	0	1	0	56.0294461873638	0
4.6	56.1895652173913	0	1	0	1	0	56.1895652173913	0
4.61	56.3501869848156	0	1	0	1	0	56.3501869848156	0
4.62	56.5113108225108	0	1	0	1	0	56.5113108225108	0
4.63	56.6729360691145	0	1	0	1	0	56.6729360691145	0
4.64	56.8350620689655	0	1	0	1	0	56.8350620689655	0
4.65	56.997688172043	0	1	0	1	0	56.997688172043	0
4.66	57.1608137339056	0	1	0	1	0	57.1608137339056	0
4.67	57.3244381156317	0	1	0	1	0	57.3244381156317	0
4.68	57.4885606837607	0	1	0	1	0	57.4885606837607	0
4.69	57.6531808102345	0	1	0	1	0	57.6531808102345	0
4.7	57.8182978723404	0	1	0	1	0	57.8182978723404	0
4.71	57.9839112526539	0	1	0	1	0	57.9839112526539	0
4.72	58.1500203389831	0	1	0	1	0	58.1500203389831	0
4.73	58.3166245243129	0	1	0	1	0	58.3166245243129	0
4.74	58.4837232067511	0	1	0	1	0	58.4837232067511	0
4.75	58.6513157894737	0	1	0	1	0	58.6513157894737	0
4.76	58.8194016806723	0	1	0	1	0	58.8194016806723	0
4.77	58.987980293501	0	1	0	1	0	58.987980293501	0
4.78	59.1570510460251	0	1	0	1	0	59.1570510460251	0
4.79	59.3266133611691	0	1	0	1	0	59.3266133611691	0
4.8	59.4966666666667	0	1	0	1	0	59.4966666666667	0
4.81	59.6672103950104	0	1	0	1	0	59.6672103950104	0
4.82	59.8382439834025	0	1	0	1	0	59.8382439834025	0
4.83	60.009766873706	0	1	0	1	0	60.009766873706	0
4.84	60.1817785123967	0	1	0	1	0	60.1817785123967	0
4.85	60.3542783505155	0	1	0	1	0	60.3542783505155	0
4.86	60.5272658436214	0	1	0	1	0	60.5272658436214	0
4.87	60.7007404517454	0	1	0	1	0	60.7007404517454	0
4.88	60.8747016393443	0	1	0	1	0	60.8747016393443	0
4.89	61.0491488752556	0	1	0	1	0	61.0491488752556	0
4.9	61.2240816326531	0	1	0	1	0	61.2240816326531	0
4.91	61.399499389002	0	1	0	1	0	61.399499389002	0
4.92	61.5754016260163	0	1	0	1	0	61.5754016260163	0
4.93	61.7517878296146	0	1	0	1	0	61.7517878296146	0
4.94	61.9286574898785	0	1	0	1	0	61.9286574898785	0
4.95	62.1060101010101	0	1	0	1	0	62.1060101010101	0
4.96	62.2838451612903	0	1	0	1	0	62.2838451612903	0
4.97	62.4621621730382	0	1	0	1	0	62.4621621730382	0
